# HZ S RI R 50
100000000 0.8603827348178255 -0.5196169090862991
102874133 0.8540827291766077 -0.5376281230583434
105748266 0.8501278943257191 -0.5565995882798684
108622399 0.8415061451613436 -0.564634780276327
111496532 0.8384830280696722 -0.5803619989317987
114370665 0.8534450803910933 -0.5628473885603806
117244798 0.8201184792562104 -0.6026698408477735
120118931 0.8066804622288561 -0.6099977147073906
122993064 0.7919574609632725 -0.6157108533025928
125867197 0.760302530635956 -0.6405534212238362
128741330 0.791124019940955 -0.607461147974472
131615463 0.7397007763239299 -0.6628309557615544
134489596 0.7535357170619625 -0.6713196589084174
137363729 0.7263517566788809 -0.6823126797660322
140237862 0.7185636840052148 -0.695846208073202
143111995 0.7109588355847997 -0.7086733838581111
145986128 0.699950213784411 -0.7208975578757062
148860261 0.6901528404288382 -0.7325236273657025
151734394 0.6800845243713813 -0.7420054997751377
154608527 0.6670984911866444 -0.7499343767033904
157482660 0.6518564285655164 -0.7559420816774324
160356793 0.6444237538131561 -0.7704777105804949
163230926 0.6342647512895976 -0.7855067243789481
166105059 0.6609213570796755 -0.7812575387911209
168979192 0.6127571135739883 -0.8101782498990419
171853325 0.6029429333881829 -0.8211618336072697
174727458 0.5889115030526062 -0.8302711390457459
177601591 0.5729890921898961 -0.8363393951509152
180475724 0.5598693022245235 -0.8429495594082871
183349857 0.5420897851294801 -0.848265809904109
186223990 0.5222725973779757 -0.8532532845439641
189098123 0.5100347709890662 -0.8658879919482259
191972256 0.5012323851367333 -0.8792715961988886
194846389 0.4895082912539277 -0.8906833289439405
197720522 0.47902522548195886 -0.899969804810116
200594655 0.4657531857470076 -0.91001274417478
203468788 0.45084268212439405 -0.9154938138310288
206342921 0.43470076089641796 -0.921227344260403
209217054 0.4188203767482939 -0.9229731693827384
212091187 0.4004609805304059 -0.9232153453808194
214965320 0.3810774372451032 -0.9251417114619275
217839453 0.36555883645952125 -0.933293049507153
220713586 0.3536753584716973 -0.9451343459349661
223587719 0.34024339322251856 -0.9578170366810284
226461852 0.3247033400657077 -0.9658733351129296
229335985 0.3116385943730887 -0.9725705363916621
232210118 0.29786752550713463 -0.9780543412654824
235084251 0.280149915959249 -0.9814976728897657
237958384 0.26303780301744567 -0.9813449883770516
240832517 0.24438435823842308 -0.978694661743587
243706650 0.2077373519231233 -0.9785369728165454
246580783 0.19074456313343924 -0.9830036416438309
249454916 0.19362173856893047 -0.9928077926278303
252329049 0.17857442277228258 -1.001522707659465
255203182 0.16255499126985226 -1.0077531159838993
258077315 0.12907719832629655 -1.0124698187868288
260951448 0.13064218020418042 -1.0153415344840862
263825581 0.1323159721345763 -1.0130245199007188
266699714 0.0984284364637718 -1.01339677784533
269573847 0.08017171862391759 -1.0073553199908598
272447980 0.061673002066090665 -1.0007498081484483
275322113 0.04557149687295789 -0.9998966787912429
278196246 0.026085092762779705 -1.00784035180953
281070379 0.006508735153142375 -1.0134963262349332
283944512 -0.00904093529634345 -1.0173950186250016
286818645 -0.023983355647962362 -1.0221684811775715
289692778 -0.040905621192208766 -1.0172699081664018
292566911 -0.05842866638972888 -1.0159373696807878
295441044 -0.07141959202621848 -1.0100017910651489
298315177 -0.08658988032818563 -1.004864439710029
301189310 -0.10364574261014711 -0.993333433276456
304063443 -0.122461297374551 -0.9899820866128548
306937576 -0.14438540875585582 -0.9946425174646439
309811709 -0.16230987640131378 -0.9987736473709098
312685842 -0.17873300655770671 -0.9990936510532149
315559975 -0.19552035185460026 -0.9994628952070473
318434108 -0.21218715321738119 -0.9967028315578842
321308241 -0.2256244211570324 -0.9925101125588365
324182374 -0.24284659594783273 -0.9841257090964294
327056507 -0.2568238790461181 -0.9759279150104812
329930640 -0.2713335524090561 -0.9633271335912229
332804773 -0.28657707669090104 -0.9561120514355508
335678906 -0.30496818332319275 -0.9577624090141309
338553039 -0.32442522629883475 -0.9555566482584641
341427172 -0.34389805337577495 -0.9547840484676904
344301305 -0.3586244921310626 -0.9519645995921998
347175438 -0.3760442459072681 -0.944554145118232
350049571 -0.39139186765534123 -0.9387173262331232
352923704 -0.4027875576683063 -0.9252310915050362
355797837 -0.41702840830909793 -0.9175417035422314
358671970 -0.4307236456581217 -0.9028690386645102
361546103 -0.4450611249459914 -0.8921884574638974
364420236 -0.4660924584893355 -0.8879621766164182
367294369 -0.4845901674926797 -0.8867258295794797
370168502 -0.5012946427575438 -0.8791139091423742
373042635 -0.5179935847929856 -0.8726991045929359
375916768 -0.5326518409494406 -0.8642945727141713
378790901 -0.5428556191899933 -0.8552015037743146
381665034 -0.5552200751343828 -0.8443808854852
384539167 -0.5694077317005267 -0.8285389334633956
387413300 -0.5805577016136341 -0.813937302977382
390287433 -0.5922917466988167 -0.7979997162088875
393161566 -0.6109862149816747 -0.7909627942213002
396035699 -0.6301698756074595 -0.7859182351726411
398909832 -0.6451170640156718 -0.778410419876815
401783965 -0.661683524635887 -0.7684142179914616
404658098 -0.6735662295946813 -0.7566747255416988
407532231 -0.6867430116450657 -0.742052130745991
410406364 -0.6970766942687346 -0.7268325062126577
413280497 -0.6789426957596087 -0.8344850365822478
416154630 -0.7182932530403856 -0.6953782663713762
419028763 -0.7239743741221673 -0.6707270384295061
421902896 -0.742852040902777 -0.6675238334670748
424777029 -0.757746380163494 -0.6540542692522706
427651162 -0.7720137327738543 -0.6472015715166181
430525295 -0.7849744899773672 -0.6334769174948462
433399428 -0.797814923601819 -0.6211944756275796
436273561 -0.8075562091477136 -0.6021768547860125
439147694 -0.8186295955317118 -0.586573415307569
442021827 -0.8226046196452178 -0.5695860599666627
444895960 -0.8297177012000106 -0.5492578059057237
447770093 -0.8342660567229749 -0.5294196070952584
450644226 -0.8515906835010781 -0.5163756298356521
453518359 -0.8628171933404821 -0.5054697380576338
456392492 -0.8750166967603971 -0.4900875257487416
459266625 -0.8884845175395877 -0.474053049218593
462140758 -0.9001087342525779 -0.4536030763610651
465014891 -0.9032988537724677 -0.4390595241585656
467889024 -0.9113582897506922 -0.42164543944965577
470763157 -0.9144642660705737 -0.4011721862991088
473637290 -0.9161176064736221 -0.3812911037383928
476511423 -0.9183676868015637 -0.35825903335819054
479385556 -0.9307927469365829 -0.3413834588673714
482259689 -0.9441066139200531 -0.32568630637073426
485133822 -0.953771702159271 -0.3101293570193039
488007955 -0.9632817921810481 -0.2921063653337048
490882088 -0.9693679682292097 -0.2746064234211826
493756221 -0.9757444602779946 -0.2579692243598162
496630354 -0.9774655080565571 -0.23508531028700408
499504487 -0.9778527429519751 -0.21579222582219842
502378620 -0.9751479022646277 -0.19792547683634965
505252753 -0.9726839045681892 -0.1741377934021845
508126886 -0.979935064408851 -0.1569975052350224
511001019 -0.9909215078787622 -0.13328688925877136
513875152 -0.9980391182630373 -0.11445991323052379
516749285 -1.003093613636975 -0.0957226683796219
519623418 -1.0068383751172403 -0.07405120927625403
522497551 -1.005815191513431 -0.054091891017049254
525371684 -1.0072614345419852 -0.034038739788981476
528245817 -1.002531925191448 -0.014054335840900267
531119950 -0.9978066353169226 0.008825350390875508
533994083 -0.9889921239528998 0.02869745577803079
536868216 -0.989630991598308 0.04918822696692343
539742349 -0.9947563875790317 0.06902808111714664
542616482 -0.9999911950210191 0.09436979988552663
545490615 -1.0038036287592185 0.11381065431595219
548364748 -1.0025006668465957 0.1339998910041763
551238881 -0.996021704502293 0.15265350284008228
554113014 -0.9944718753432481 0.17445761131370324
556987147 -0.9869759129806085 0.1907670909803223
559861280 -0.9752333726487596 0.2088818866755221
562735413 -0.9635049908633377 0.22930557076189706
565609546 -0.9582820926013631 0.2523911372682337
568483679 -0.958649031500547 0.276700187952707
571357812 -0.9546553640119008 0.2989497283981125
574231945 -0.9537899230807501 0.3201904115594613
577106078 -0.9467851823516588 0.3421350542246965
579980211 -0.9403951855817954 0.3596360678916683
582854344 -0.9297824728928707 0.3816521106730815
585728477 -0.9143677366264621 0.4019418326009384
588602610 -0.9039681455294687 0.41852850860128166
591476743 -0.8840795889061309 0.43747291949167166
594350876 -0.8746139613436548 0.4586192659142876
597225009 -0.8697699958061442 0.48273798682658076
600099142 -0.863140816421814 0.5027097230208348
602973275 -0.8545759232938398 0.5239619688407559
605847408 -0.8416563141651878 0.5425731273532356
608721541 -0.8294098447939946 0.5639755430289526
611595674 -0.8169629082771993 0.5785727770957259
614469807 -0.8013099363837063 0.5967894701188524
617343940 -0.7812440168997615 0.6127786420268948
620218073 -0.7599120596201792 0.6266380782794938
623092206 -0.7427004847900209 0.6448283157978315
625966339 -0.7306863623064204 0.6627119362078902
628840472 -0.7152350511666135 0.6855313260958187
631714605 -0.7044811855239735 0.7054290156406502
634588738 -0.6891678366991203 0.7231905966517088
637462871 -0.6694368694425921 0.7377193569779107
640337004 -0.6517329494584465 0.7534600929838249
643211137 -0.6322213835949746 0.7657540647167705
646085270 -0.6092421269123737 0.7785450836350372
648959403 -0.5808441124350232 0.7900618598961542
651833536 -0.5639543429808217 0.7976663659657901
654707669 -0.5460951002190166 0.8213691888163216
657581802 -0.5225554613289637 0.8385620302680501
660455935 -0.506187736230497 0.8527932791332522
663330068 -0.48749107213700704 0.8701419454087428
666204201 -0.4655333419613907 0.8819380274159057
669078334 -0.44441695274738025 0.8941342418008231
671952467 -0.4190545003474744 0.9007791574118089
674826600 -0.39158198410003425 0.9070364616956039
677700733 -0.36463337183785377 0.910185161025578
680574866 -0.33597299008677534 0.9164820221854608
683448999 -0.3141469616072007 0.9300530232943518
686323132 -0.2884403217188225 0.9473035934349359
689197265 -0.2659552453233207 0.9588620682376648
692071398 -0.23473635835470386 0.9648273825334623
694945531 -0.2868069809455307 0.9684313007817901
697819664 -0.18601208502087413 0.9738623662505842
700693797 -0.15571183896797236 0.9807042109694505
703567930 -0.12780565460748267 0.9734537167751494
706442063 -0.09957822469057143 0.9742618097577642
709316196 -0.0655688216535188 0.9662363593303499
712190329 -0.03617742614822472 0.9735286803034051
715064462 -0.013323338440373145 0.9839956302945675
717938595 0.017004163957838214 0.9888771434860324
720812728 0.0484835288810484 0.9919646621731242
723686861 0.07528472281818266 0.9891642656703634
726560994 0.10745732411143133 0.9861960395944667
729435127 0.13775336583530032 0.9804553138364063
732309260 0.1637732678219878 0.9717265425925687
735183393 0.19326196226861617 0.9578414624984053
738057526 0.22142597728532026 0.9457746420534021
740931659 0.2513008227798424 0.9434408586886484
743805792 0.28376894658386764 0.9412641960829499
746679925 0.3172465937739106 0.9342061208983011
749554058 0.3434828802094069 0.9248463467971586
752428191 0.3787569940031706 0.913536446416169
755302324 0.40284079036407355 0.9022562137130719
758176457 0.4344067288700879 0.8857500532189597
761050590 0.4606762573002151 0.8636878998856392
763924723 0.4867800966770996 0.8443982595251092
766798856 0.5094285092190135 0.8197459835192201
769672989 0.544977380400419 0.8025024401314286
772547122 0.5772659454469765 0.7885631256692189
775421255 0.607122668134053 0.7694792456790427
778295388 0.6387579253603526 0.7474840201438009
781169521 0.6613232683841569 0.7201255311448806
784043654 0.6917765085476351 0.6963758645434546
786917787 0.7141652213217644 0.6667964713527174
789791920 0.7317960315994216 0.6369439459005308
792666053 0.7530467553015374 0.6067246801406931
795540186 0.7696280800637666 0.5682856196652881
798414319 0.7979229032003206 0.5332331152820236
801288452 0.8213382140409421 0.5059472624750878
804162585 0.8439378308615502 0.47069260026656634
807036718 0.8652345834568296 0.42840298832557944
809910851 0.881774720535655 0.3891840048849227
812784984 0.8846964067254198 0.3532787752075274
815659117 0.8923544450116916 0.32022444801713035
818533250 0.90195427246647 0.2872776524627016
821407383 0.9118421246942991 0.24409187182285713
824281516 0.9189500571649986 0.19535976221690587
827155649 0.9339741743888315 0.1506738044342834
830029782 0.945430269389438 0.09979582467325421
832903915 0.9512230777286798 0.05036302689848893
835778048 0.9548121460580756 0.0043366104242825165
838652181 0.9528220835906951 -0.054586293663211216
841526314 0.9460481068939806 -0.1063547097185431
844400447 0.9317600357250243 -0.16288216025919322
847274580 0.9183783090215464 -0.21859969004489754
850148713 0.8889919567686041 -0.2761394969951393
853022846 0.8576198410247616 -0.3286837994268389
855896979 0.8278431587937407 -0.3928779179444949
858771112 0.7943400367410325 -0.45185462852034064
861645245 0.7530699971210404 -0.5140253933553441
864519378 0.6984717394216857 -0.5731701544561134
867393511 0.6343639594283765 -0.6295116939623546
870267644 0.5492758803383009 -0.682076989385058
873141777 0.45346571594719787 -0.7194854973371565
876015910 0.3423315509764778 -0.7461696796513774
878890043 0.20736146858354237 -0.7546464703633593
881764176 0.06536688654328887 -0.7315348808031212
884638309 -0.08831169307356543 -0.6711635657658128
887512442 -0.23759883076085153 -0.5584436000233831
890386575 -0.3518526381820198 -0.37821707725372833
893260708 -0.39596579018284805 -0.1449674239437012
896134841 -0.3265547002085381 0.1019148045757424
899008974 -0.1535173257909369 0.29537774971551145
901883107 0.07608595015105324 0.3856126463507278
904757240 0.2947553574350985 0.37164477261130324
907631373 0.4737087094580629 0.2851179986682295
910505506 0.591544466297145 0.1632599442705585
913379639 0.661648302422041 0.03198596653270819
916253772 0.6977953151355262 -0.10291392683651576
919127905 0.7010224884667385 -0.22750244128778402
922002038 0.6789983073406689 -0.33854932365832086
924876171 0.6370881611049604 -0.4416937142295553
927750304 0.5823535246669733 -0.5209933648175884
930624437 0.517301236042787 -0.5863524666457921
933498570 0.4493901391379327 -0.6427342629629988
936372703 0.37153611488906446 -0.687164444596881
939246836 0.2917149834791152 -0.7158561138900607
942120969 0.20339963302602304 -0.7331092541598961
944995102 0.1216632798470424 -0.7469331866364356
947869235 0.041356786846326765 -0.7414445135704677
950743368 -0.039283708925296146 -0.7349943022888494
953617501 -0.11743885471278831 -0.7156673953679521
956491634 -0.19255199268709328 -0.6858445366074076
959365767 -0.26348283762352065 -0.6406769397152183
962239900 -0.330850122336613 -0.5813101073221145
965114033 -0.3768663198967769 -0.5113872484883253
967988166 -0.4122269014985286 -0.4443931700936935
970862299 -0.44224741013661817 -0.38027833047973414
973736432 -0.46868182918831425 -0.30371105876094784
976610565 -0.47825040852304673 -0.22740275164680596
979484698 -0.46805614377401084 -0.15862514124943278
982358831 -0.4654819526361423 -0.08535974223862303
985232964 -0.44631196391371253 -0.018708913717394304
988107097 -0.41615932315000365 0.05320079417951265
990981230 -0.3640245720483045 0.11034948701760566
993855363 -0.31034912078892923 0.15658594627404662
996729496 -0.24070118005259802 0.1858013037475431
999603629 -0.19541670298061578 0.1957788892965372
1002477762 -0.15166400669212313 0.22226046705406616
1005351895 -0.07883097574643527 0.2452750249186919
1008226028 -0.006958177558184189 0.22805409133595647
1011100161 0.02859218260979554 0.2035089385717691
1013974294 0.07984425450386354 0.19192447408478747
1016848427 0.12491208095291938 0.1703441213103972
1019722560 0.16748060674692253 0.1354252354647489
1022596693 0.20533219169111672 0.10106655945624392
1025470826 0.240106173993867 0.05916264465882903
1028344959 0.26352924320897975 -0.015208169110790495
1031219092 0.26065897488284623 -0.0716045460988598
1034093225 0.26029600435691436 -0.12181641241567265
1036967358 0.24386858379667328 -0.16731437619644324
1039841491 0.22973334308521265 -0.22579915736532757
1042715624 0.1799165073650476 -0.25915868472340026
1045589757 0.15572703143241376 -0.28379907942283394
1048463890 0.1156251748165597 -0.3056821188729233
1051338023 0.09139469663041361 -0.3122555210157775
1054212156 0.05708084250890935 -0.34384491098818537
1057086289 0.016674952270329696 -0.3548188208928357
1059960422 -0.033750237873018035 -0.3686717978656826
1062834555 -0.07193731097202663 -0.357795271761819
1065708688 -0.1150241428048697 -0.36473471592104434
1068582821 -0.16048037064202209 -0.35243390942217695
1071456954 -0.21261883166847156 -0.33240281314985015
1074331087 -0.2389487337919457 -0.29398001866151696
1077205220 -0.2691489147071565 -0.26806056750100304
1080079353 -0.288180752445949 -0.2278046290940698
1082953486 -0.297399693182924 -0.19270544665551792
1085827619 -0.3029461712628053 -0.16076076355008712
1088701752 -0.32248789783297305 -0.1473088205684573
1091575885 -0.3442418724076953 -0.1063663759147788
1094450018 -0.3564648155474558 -0.065887075854968
1097324151 -0.3635529417576935 -0.019858940664777225
1100198284 -0.35168807954351117 0.0272630800166985
1103072417 -0.33425253069907845 0.05874486287550268
1105946550 -0.31349568293773344 0.08555616213578147
1108820683 -0.3123253800181334 0.11737470871754502
1111694816 -0.2933991827000404 0.15984309434238403
1114568949 -0.25627024144513616 0.2010190780340304
1117443082 -0.21400294915963625 0.23145127990352124
1120317215 -0.1640246131662218 0.23739790230048644
1123191348 -0.15082439029148492 0.24096223708955278
1126065481 -0.11532466889498454 0.2577476261408865
1128939614 -0.08099890516226517 0.2655060756056523
1131813747 -0.044890575101988 0.2856498069962813
1134687880 0.0029583730135787356 0.2902572561816716
1137562013 0.05918968997653856 0.27320392805463334
1140436146 0.08738035946931938 0.24983369793527158
1143310279 0.11584416468438107 0.22498644588191968
1146184412 0.13728881139233312 0.21539904557931633
1149058545 0.17080211819350435 0.20641280206811827
1151932678 0.20634701850304007 0.17305497098005024
1154806811 0.22089243067990927 0.14854483284625383
1157680944 0.2267493274304747 0.12507462794199053
1160555077 0.25169828011878453 0.12264457622840835
1163429210 0.2833424196383295 0.10660968960885683
1166303343 0.32573615939454537 0.07465930457010247
1169177476 0.3557721793715401 0.027456919769426047
1172051609 0.36779441112866607 -0.0367804082021638
1174925742 0.36491591859358297 -0.08975324684378565
1177799875 0.3684515194851605 -0.13431437737292456
1180674008 0.366526521562571 -0.19400140960632772
1183548141 0.344763562287483 -0.24432711998639206
1186422274 0.32039579585347927 -0.2999647069396925
1189296407 0.27617061143791816 -0.33868698718138907
1192170540 0.2361356036066689 -0.3637469140285786
1195044673 0.20136072671997385 -0.38868563303369474
1197918806 0.16109294736859095 -0.40479211714669094
1200792939 0.12227458082533879 -0.4210288506610772
1203667072 0.08084232256160304 -0.4254557654525858
1206541205 0.041683416643956944 -0.4331094540804741
1209415338 0.013359040930396165 -0.4319649848001803
1212289471 -0.01406809802180678 -0.43302907093409887
1215163604 -0.037798556756004714 -0.42920832333514114
1218037737 -0.05208953566306074 -0.43635961008714674
1220911870 -0.08342562988347338 -0.45064291302931386
1223786003 -0.12504311949986452 -0.4530474714593854
1226660136 -0.15445643067423737 -0.4379468291783541
1229534269 -0.1789546486177094 -0.42246094844744186
1232408402 -0.21169146021735502 -0.4141790043556578
1235282535 -0.23112873423041153 -0.41331117602364414
1238156668 -0.2687439795099434 -0.4001544818568938
1241030801 -0.30193360784205975 -0.38638699914137553
1243904934 -0.3274696654145843 -0.3762789865595211
1246779067 -0.35795257167463873 -0.36157904917391526
