# HZ S RI R 50
100000000 0.88092 -0.478334
102874133 0.881077 -0.496634
105748266 0.876868 -0.507311
108622399 0.874134 -0.52147
111496532 0.868388 -0.530851
114370665 0.8641 -0.544086
117244798 0.903155 -0.490111
120118931 0.844097 -0.562332
122993064 0.833797 -0.571443
125867197 0.820049 -0.580145
128741330 0.80757 -0.589196
131615463 0.807106 -0.603808
134489596 0.804615 -0.619084
137363729 0.778017 -0.631138
140237862 0.771575 -0.643512
143111995 0.765269 -0.653568
145986128 0.758059 -0.664997
148860261 0.747722 -0.671999
151734394 0.738971 -0.676342
154608527 0.724385 -0.687006
157482660 0.70781 -0.694703
160356793 0.699421 -0.707823
163230926 0.693968 -0.721508
166105059 0.685719 -0.734088
168979192 0.798248 -0.70407
171853325 0.664699 -0.755997
174727458 0.652453 -0.765509
177601591 0.638851 -0.771377
180475724 0.622727 -0.778152
183349857 0.604932 -0.783258
186223990 0.586058 -0.787919
189098123 0.576219 -0.801848
191972256 0.571237 -0.816434
194846389 0.565007 -0.830846
197720522 0.555797 -0.841709
200594655 0.548485 -0.852522
203468788 0.537534 -0.859693
206342921 0.526964 -0.865991
209217054 0.511432 -0.872927
212091187 0.49615 -0.874932
214965320 0.480273 -0.876495
217839453 0.467627 -0.885013
220713586 0.461345 -0.90119
223587719 0.450842 -0.913706
226461852 0.439958 -0.922459
229335985 0.429974 -0.931769
232210118 0.41595 -0.936998
235084251 0.402628 -0.939934
237958384 0.387415 -0.941397
240832517 0.371332 -0.940607
243706650 0.354087 -0.938146
246580783 0.339952 -0.943847
249454916 0.327017 -0.956981
252329049 0.314411 -0.97061
255203182 0.303726 -0.977557
258077315 0.288791 -0.98394
260951448 0.275115 -0.988604
263825581 0.259038 -0.99138
266699714 0.244036 -0.9894
269573847 0.227701 -0.987175
272447980 0.210546 -0.982857
275322113 0.193839 -0.984025
278196246 0.180453 -0.996822
281070379 0.166978 -1.004883
283944512 0.152616 -1.014055
286818645 0.139146 -1.018024
289692778 0.125786 -1.02013
292566911 0.112061 -1.01954
295441044 0.096389 -1.015696
298315177 0.084306 -1.012762
301189310 0.068861 -1.004474
304063443 0.049485 -1.004401
306937576 0.052584 -1.012237
309811709 -0.001564 -1.015763
312685842 0.000564 -1.021128
315559975 -0.015332 -1.020595
318434108 -0.014029 -1.023831
321308241 -0.0467 -1.019289
324182374 -0.082312 -1.011938
327056507 -0.078832 -1.005873
329930640 -0.093434 -0.999498
332804773 -0.107999 -0.991236
335678906 -0.14379 -0.99558
338553039 -0.145056 -0.999466
341427172 -0.161348 -1.003697
344301305 -0.176406 -1.002317
347175438 -0.193857 -0.999179
350049571 -0.208028 -0.993461
352923704 -0.222027 -0.988222
355797837 -0.233472 -0.980287
358671970 -0.250608 -0.9682
361546103 -0.261445 -0.958717
364420236 -0.281462 -0.961297
367294369 -0.302467 -0.963102
370168502 -0.318808 -0.961738
373042635 -0.336095 -0.957448
375916768 -0.352612 -0.953501
378790901 -0.368236 -0.946182
381665034 -0.381696 -0.937616
384539167 -0.395364 -0.92843
387413300 -0.409687 -0.916078
390287433 -0.422826 -0.904588
393161566 -0.426213 -0.913718
396035699 -0.442114 -0.914407
398909832 -0.472608 -0.899951
401783965 -0.487166 -0.894282
404658098 -0.499921 -0.885439
407532231 -0.512059 -0.876821
410406364 -0.520853 -0.866589
413280497 -0.534236 -0.852238
416154630 -0.588088 -0.772484
419028763 -0.549174 -0.820792
421902896 -0.571643 -0.8187
424777029 -0.589881 -0.813044
427651162 -0.607195 -0.804584
430525295 -0.620682 -0.797756
433399428 -0.635778 -0.786482
436273561 -0.648941 -0.775643
439147694 -0.662585 -0.762715
442021827 -0.67198 -0.746722
444895960 -0.681374 -0.730071
447770093 -0.689282 -0.709823
450644226 -0.707735 -0.704941
453518359 -0.723767 -0.700352
456392492 -0.737573 -0.690699
459266625 -0.749433 -0.683427
462140758 -0.757785 -0.672143
465014891 -0.764997 -0.659952
467889024 -0.772153 -0.645228
470763157 -0.777751 -0.629316
473637290 -0.779089 -0.613099
476511423 -0.78012 -0.594101
479385556 -0.795676 -0.58421
482259689 -0.811062 -0.574494
485133822 -0.826755 -0.560654
488007955 -0.841102 -0.548166
490882088 -0.850579 -0.535269
493756221 -0.859276 -0.517885
496630354 -0.8654 -0.503562
499504487 -0.869936 -0.484127
502378620 -0.875056 -0.465973
505252753 -0.874022 -0.445715
508126886 -0.887624 -0.429188
511001019 -0.901649 -0.415491
513875152 -0.915292 -0.401641
516749285 -0.925891 -0.383681
519623418 -0.935031 -0.368272
522497551 -0.940306 -0.35127
525371684 -0.944604 -0.336896
528245817 -0.948267 -0.31558
531119950 -0.948376 -0.294584
533994083 -0.946543 -0.273489
536868216 -0.955583 -0.251742
539742349 -0.965721 -0.236251
542616482 -0.975898 -0.218191
545490615 -0.984132 -0.193987
548364748 -0.988146 -0.177288
551238881 -0.988078 -0.153238
554113014 -0.99097 -0.13121
556987147 -0.99107 -0.114196
559861280 -0.983216 -0.091028
562735413 -0.97974 -0.065424
565609546 -0.98091 -0.045982
568483679 -0.989088 -0.02249
571357812 -0.996685 -0.003622
574231945 -1.000811 0.014934
577106078 -1.003611 0.037108
579980211 -1.002593 0.05716
582854344 -1.001978 0.077591
585728477 -0.995213 0.096188
588602610 -0.987656 0.11496
591476743 -0.977265 0.137694
594350876 -0.973835 0.15781
597225009 -0.977301 0.180619
600099142 -0.978396 0.203367
602973275 -0.97722 0.225915
605847408 -0.975854 0.242978
608721541 -0.969145 0.264182
611595674 -0.959599 0.283062
614469807 -0.950316 0.301828
617343940 -0.937758 0.321542
620218073 -0.921919 0.339888
623092206 -0.910697 0.362282
625966339 -0.90928 0.384536
628840472 -0.905101 0.40657
631714605 -0.900303 0.426841
634588738 -0.893375 0.447736
637462871 -0.883196 0.466539
640337004 -0.867264 0.487431
643211137 -0.854139 0.502714
646085270 -0.83596 0.520811
648959403 -0.818758 0.529231
651833536 -0.800829 0.551249
654707669 -0.794546 0.575746
657581802 -0.784744 0.598522
660455935 -0.773049 0.617362
663330068 -0.758994 0.639347
666204201 -0.740905 0.657332
669078334 -0.724594 0.673128
671952467 -0.706293 0.689128
674826600 -0.681314 0.705901
677700733 -0.658379 0.714481
680574866 -0.63831 0.724345
683448999 -0.62077 0.751221
686323132 -0.606284 0.771804
689197265 -0.588686 0.791605
692071398 -0.568651 0.808983
694945531 -0.546266 0.820759
697819664 -0.525385 0.834788
700693797 -0.50252 0.846018
703567930 -0.47624 0.850928
706442063 -0.451899 0.853822
709316196 -0.42497 0.863531
712190329 -0.401507 0.882343
715064462 -0.376001 0.90065
717938595 -0.35111 0.91341
720812728 -0.324802 0.925966
723686861 -0.295048 0.938272
726560994 -0.269979 0.943699
729435127 -0.241419 0.949536
732309260 -0.213069 0.950075
735183393 -0.180703 0.951854
738057526 -0.151347 0.94857
740931659 -0.120974 0.961087
743805792 -0.094294 0.970514
746679925 -0.060758 0.977596
749554058 -0.032428 0.98077
752428191 -0.003502 0.981335
755302324 0.028649 0.978334
758176457 0.058569 0.974878
761050590 0.089393 0.96838
763924723 0.118288 0.957848
766798856 0.147094 0.946372
769672989 0.182881 0.944652
772547122 0.216927 0.945798
775421255 0.251698 0.940155
778295388 0.282173 0.934113
781169521 0.315982 0.92124
784043654 0.347672 0.909594
786917787 0.375909 0.894766
789791920 0.406765 0.876715
792666053 0.43763 0.852997
795540186 0.464828 0.828781
798414319 0.499811 0.810025
801288452 0.536723 0.796059
804162585 0.571581 0.779729
807036718 0.617112 0.739728
809910851 0.634663 0.726116
812784984 0.647405 0.706314
815659117 0.672968 0.664423
818533250 0.705416 0.626466
821407383 0.720556 0.607874
824281516 0.738736 0.585951
827155649 0.778457 0.534789
830029782 0.818483 0.485984
832903915 0.840847 0.463911
835778048 0.864531 0.418193
838652181 0.885601 0.365702
841526314 0.902066 0.316333
844400447 0.913716 0.265029
847274580 0.918199 0.201824
850148713 0.920661 0.145799
853022846 0.915152 0.079621
855896979 0.913393 0.016376
858771112 0.910141 -0.053105
861645245 0.901783 -0.122138
864519378 0.88008 -0.200728
867393511 0.843951 -0.275689
870267644 0.794615 -0.357038
873141777 0.728726 -0.431547
876015910 0.645193 -0.504905
878890043 0.535574 -0.568293
881764176 0.401485 -0.611856
884638309 0.242657 -0.631114
887512442 0.059873 -0.603664
890386575 -0.124473 -0.502061
893260708 -0.269341 -0.318037
896134841 -0.327113 -0.073915
899008974 -0.268856 0.178954
901883107 -0.110083 0.369713
904757240 0.091163 0.463847
907631373 0.288114 0.468681
910505506 0.453134 0.417142
913379639 0.578016 0.330328
916253772 0.669829 0.229067
919127905 0.727226 0.120665
922002038 0.758008 0.017335
924876171 0.770586 -0.088801
927750304 0.759508 -0.192088
930624437 0.735823 -0.277458
933498570 0.693379 -0.359481
936372703 0.646557 -0.426727
939246836 0.590863 -0.48548
942120969 0.532629 -0.538019
944995102 0.467969 -0.596965
947869235 0.402445 -0.635801
950743368 0.326972 -0.665592
953617501 0.250321 -0.687785
956491634 0.17146 -0.687756
959365767 0.097007 -0.68475
962239900 0.022768 -0.675941
965114033 -0.054184 -0.654805
967988166 -0.134417 -0.613251
970862299 -0.202072 -0.563841
973736432 -0.263019 -0.508196
976610565 -0.311506 -0.434746
979484698 -0.336784 -0.369414
982358831 -0.358359 -0.299748
985232964 -0.367425 -0.262799
988107097 -0.36998 -0.164095
990981230 -0.357902 -0.094397
993855363 -0.341873 -0.027259
996729496 -0.299852 0.039135
999603629 -0.261711 0.078955
1002477762 -0.230514 0.129416
1005351895 -0.171555 0.176269
1008226028 -0.111526 0.201319
1011100161 -0.047072 0.213233
1013974294 0.006103 0.211501
1016848427 0.064892 0.200123
1019722560 0.10538 0.181601
1022596693 0.139336 0.165841
1025470826 0.183992 0.148576
1028344959 0.222577 0.12599
1031219092 0.276903 0.082486
1034093225 0.296559 0.02327
1036967358 0.305795 -0.012563
1039841491 0.33102 -0.063423
1042715624 0.333425 -0.124062
1045589757 0.317693 -0.187822
1048463890 0.278569 -0.222389
1051338023 0.259679 -0.246119
1054212156 0.241015 -0.284542
1057086289 0.204512 -0.319082
1059960422 0.16575 -0.346687
1062834555 0.122914 -0.361021
1065708688 0.083546 -0.37822
1068582821 0.055805 -0.388003
1071456954 0.002074 -0.41755
1074331087 -0.066758 -0.402094
1077205220 -0.114244 -0.373212
1080079353 -0.132316 -0.344666
1082953486 -0.16378 -0.342906
1085827619 -0.210756 -0.308564
1088701752 -0.242958 -0.28014
1091575885 -0.272347 -0.253573
1094450018 -0.308511 -0.214549
1097324151 -0.331555 -0.151524
1100198284 -0.312112 -0.106987
1103072417 -0.310153 -0.073486
1105946550 -0.314508 -0.047389
1108820683 -0.323176 0.001979
1111694816 -0.298995 0.046223
1114568949 -0.274755 0.076471
1117443082 -0.267939 0.108212
1120317215 -0.249046 0.148836
1123191348 -0.21562 0.177817
1126065481 -0.176383 0.200077
1128939614 -0.141286 0.215387
1131813747 -0.111925 0.220199
1134687880 -0.079894 0.228305
1137562013 -0.049701 0.229677
1140436146 -0.019271 0.235583
1143310279 0.010947 0.22743
1146184412 0.033207 0.223803
1149058545 0.052952 0.231283
1151932678 0.087817 0.246176
1154806811 0.134232 0.239945
1157680944 0.174853 0.226794
1160555077 0.219981 0.20804
1163429210 0.263 0.155569
1166303343 0.254435 0.108162
1169177476 0.241077 0.092444
1172051609 0.256393 0.097919
1174925742 0.290076 0.079691
1177799875 0.318728 0.044583
1180674008 0.32632 0.01427
1183548141 0.344762 -0.015184
1186422274 0.350825 -0.064086
1189296407 0.34122 -0.098854
1192170540 0.329315 -0.118764
1195044673 0.329551 -0.147195
1197918806 0.31014 -0.177664
1200792939 0.301471 -0.195063
1203667072 0.290688 -0.206886
1206541205 0.291156 -0.227134
1209415338 0.29709 -0.255107
1212289471 0.288843 -0.299363
1215163604 0.264067 -0.333781
1218037737 0.234324 -0.354627
1220911870 0.20811 -0.355771
1223786003 0.214078 -0.368258
1226660136 0.194897 -0.409766
1229534269 0.160378 -0.428022
1232408402 0.124426 -0.439807
1235282535 0.100521 -0.450499
1238156668 0.07982 -0.473287
1241030801 0.039151 -0.487289
1243904934 0.010717 -0.492192
1246779067 -0.012273 -0.49682
1249653200 -0.044684 -0.502687
1252527333 -0.075296 -0.502784
1255401466 -0.108152 -0.504223
1258275599 -0.136819 -0.495393
1261149732 -0.168565 -0.501512
1264023865 -0.213543 -0.499916
1266897998 -0.242811 -0.499345
1269772131 -0.287484 -0.460159
1272646264 -0.300225 -0.449298
1275520397 -0.328882 -0.428268
1278394530 -0.353664 -0.410189
1281268663 -0.374498 -0.392729
1284142796 -0.388026 -0.368397
1287016929 -0.403775 -0.346874
1289891062 -0.4398 -0.317983
1292765195 -0.458791 -0.296484
1295639328 -0.461703 -0.26935
1298513461 -0.475653 -0.245705
1301387594 -0.484861 -0.211937
1304261727 -0.492349 -0.198659
1307135860 -0.491775 -0.176333
1310009993 -0.496173 -0.156283
1312884126 -0.500988 -0.137608
1315758259 -0.505158 -0.106043
1318632392 -0.501986 -0.076036
1321506525 -0.495597 -0.048124
1324380658 -0.489205 -0.039233
1327254791 -0.487246 -0.024108
1330128924 -0.485011 -0.014963
1333003057 -0.497485 -0.005595
1335877190 -0.500148 0.019738
1338751323 -0.506006 0.042355
1341625456 -0.493825 0.073589
1344499589 -0.477667 0.085822
1347373722 -0.474762 0.098333
1350247855 -0.480381 0.129411
1353121988 -0.479549 0.156049
1355996121 -0.468167 0.183908
1358870254 -0.463674 0.202992
1361744387 -0.451497 0.222591
1364618520 -0.445767 0.245756
1367492653 -0.434174 0.265808
1370366786 -0.418327 0.294533
1373240919 -0.393898 0.316429
1376115052 -0.37008 0.326877
1378989185 -0.355062 0.346125
1381863318 -0.34325 0.360364
1384737451 -0.333191 0.388246
1387611584 -0.309483 0.414688
1390485717 -0.288179 0.43669
1393359850 -0.252058 0.456678
1396233983 -0.216483 0.465366
1399108116 -0.185976 0.468585
1401982249 -0.157405 0.469536
1404856382 -0.129553 0.482222
1407730515 -0.084166 0.491155
1410604648 -0.04826 0.490747
1413478781 -0.024551 0.484156
1416352914 0.013929 0.490037
1419227047 0.051416 0.484669
1422101180 0.082134 0.477227
1424975313 0.119891 0.459252
1427849446 0.141198 0.444155
1430723579 0.177751 0.432608
1433597712 0.206769 0.406515
1436471845 0.238518 0.387219
1439345978 0.267653 0.37067
1442220111 0.302869 0.340281
1445094244 0.316902 0.301803
1447968377 0.324369 0.277531
1450842510 0.345627 0.249163
1453716643 0.350577 0.225988
1456590776 0.370439 0.19461
1459464909 0.386218 0.163689
1462339042 0.391169 0.11359
1465213175 0.386209 0.080646
1468087308 0.392731 0.049312
1470961441 0.393916 0.014607
1473835574 0.390084 -0.02244
1476709707 0.377367 -0.054232
1479583840 0.367198 -0.080209
1482457973 0.361149 -0.104587
1485332106 0.348024 -0.134164
1488206239 0.333027 -0.162512
1491080372 0.309953 -0.185368
1493954505 0.293175 -0.210218
1496828638 0.279052 -0.230712
1499702771 0.263049 -0.246987
1502576904 0.239454 -0.26705
1505451037 0.22768 -0.278065
1508325170 0.217243 -0.298766
1511199303 0.198226 -0.317566
1514073436 0.173227 -0.346636
1516947569 0.128589 -0.358939
1519821702 0.106293 -0.345496
1522695835 0.090814 -0.360106
1525569968 0.06263 -0.374759
1528444101 0.032534 -0.378632
1531318234 0.017512 -0.38302
1534192367 -0.00861 -0.391362
1537066500 -0.0445 -0.389753
1539940633 -0.065429 -0.379936
1542814766 -0.073685 -0.378788
1545688899 -0.101434 -0.386573
1548563032 -0.129715 -0.379772
1551437165 -0.15432 -0.370603
1554311298 -0.185001 -0.369883
1557185431 -0.217412 -0.359895
1560059564 -0.227611 -0.346117
1562933697 -0.242185 -0.342158
1565807830 -0.280309 -0.343014
1568681963 -0.30606 -0.317197
1571556096 -0.323306 -0.298264
1574430229 -0.341458 -0.278613
1577304362 -0.350612 -0.25878
1580178495 -0.373683 -0.245152
1583052628 -0.387399 -0.220694
1585926761 -0.398288 -0.213765
1588800894 -0.428225 -0.196441
1591675027 -0.447877 -0.170456
1594549160 -0.458037 -0.14159
1597423293 -0.468014 -0.110652
1600297426 -0.469383 -0.086195
1603171559 -0.471347 -0.062038
1606045692 -0.471254 -0.037519
1608919825 -0.477379 -0.018158
1611793958 -0.483973 0.012529
1614668091 -0.487545 0.034595
1617542224 -0.493016 0.058898
1620416357 -0.502281 0.094242
1623290490 -0.491678 0.130297
1626164623 -0.470353 0.156311
1629038756 -0.452965 0.174441
1631912889 -0.443352 0.193954
1634787022 -0.420038 0.214738
1637661155 -0.405907 0.229796
1640535288 -0.3972 0.253171
1643409421 -0.382793 0.277994
1646283554 -0.370524 0.291789
1649157687 -0.355511 0.314599
1652031820 -0.337929 0.331662
1654905953 -0.320972 0.352729
1657780086 -0.289905 0.372222
1660654219 -0.252085 0.376721
1663528352 -0.218184 0.378124
1666402485 -0.189556 0.359863
1669276618 -0.184273 0.361859
1672150751 -0.171979 0.375644
1675024884 -0.146547 0.384832
1677899017 -0.114887 0.381388
1680773150 -0.099481 0.373733
1683647283 -0.080098 0.37465
1686521416 -0.051451 0.3663
1689395549 -0.034089 0.348507
1692269682 -0.028712 0.336069
1695143815 -0.015901 0.332736
1698017948 0.011612 0.335254
1700892081 0.035801 0.32813
1703766214 0.057185 0.307886
1706640347 0.06572 0.290665
1709514480 0.066405 0.279862
1712388613 0.083319 0.270518
1715262746 0.097245 0.25231
1718136879 0.106106 0.231616
1721011012 0.106457 0.21143
1723885145 0.1021 0.201743
1726759278 0.108777 0.204873
1729633411 0.134131 0.191333
1732507544 0.146939 0.159457
1735381677 0.139703 0.1404
1738255810 0.142295 0.12414
1741129943 0.135535 0.10091
1744004076 0.119914 0.090567
1746878209 0.112782 0.093654
1749752342 0.131123 0.089464
1752626475 0.133571 0.064369
1755500608 0.126412 0.048667
1758374741 0.126592 0.04258
1761248874 0.130582 0.022767
1764123007 0.116033 0.001278
1766997140 0.099024 -0.007399
1769871273 0.0912 -0.01293
1772745406 0.083195 -0.01467
1775619539 0.077851 -0.021405
1778493672 0.070445 -0.026318
1781367805 0.067359 -0.031557
1784241938 0.06587 -0.040885
1787116071 0.054553 -0.046849
1789990204 0.051265 -0.050212
1792864337 0.043593 -0.063262
1795738470 0.027724 -0.068744
1798612603 0.011137 -0.069627
1801486736 0.009973 -0.053108
1804360869 0.017002 -0.056211
1807235002 0.010637 -0.067973
1810109135 0.003299 -0.074911
1812983268 -0.013553 -0.073434
1815857401 -0.012204 -0.067274
1818731534 -0.020142 -0.067192
1821605667 -0.016353 -0.055055
1824479800 -0.009551 -0.058751
1827353933 0.003616 -0.059274
1830228066 0.008676 -0.072391
1833102199 0.009908 -0.09308
1835976332 0.00038 -0.104272
1838850465 -0.008815 -0.107825
1841724598 -0.006962 -0.107246
1844598731 -0.012247 -0.112763
1847472864 -0.00028 -0.132372
1850346997 0.003837 -0.134874
1853221130 0.000227 -0.162322
1856095263 -0.006709 -0.182005
1858969396 -0.021749 -0.201306
1861843529 -0.035946 -0.210038
1864717662 -0.045719 -0.225091
1867591795 -0.058901 -0.238211
1870465928 -0.07751 -0.25547
1873340061 -0.101234 -0.267712
1876214194 -0.125295 -0.272075
1879088327 -0.140279 -0.286397
1881962460 -0.169199 -0.298229
1884836593 -0.193523 -0.303422
1887710726 -0.22332 -0.307602
1890584859 -0.250163 -0.313901
1893458992 -0.289236 -0.307068
1896333125 -0.316861 -0.290711
1899207258 -0.339558 -0.281623
1902081391 -0.370621 -0.27629
1904955524 -0.403496 -0.263527
1907829657 -0.433823 -0.254837
1910703790 -0.464606 -0.231242
1913577923 -0.491354 -0.203846
1916452056 -0.509484 -0.180437
1919326189 -0.531006 -0.15827
1922200322 -0.549197 -0.124514
1925074455 -0.552972 -0.082021
1927948588 -0.555475 -0.057767
1930822721 -0.571605 -0.031424
1933696854 -0.597347 0.003558
1936570987 -0.599789 0.044681
1939445120 -0.602073 0.077976
1942319253 -0.604026 0.121347
1945193386 -0.597707 0.154385
1948067519 -0.576779 0.199241
1950941652 -0.564073 0.220759
1953815785 -0.54526 0.251228
1956689918 -0.527345 0.282647
1959564051 -0.511019 0.324226
1962438184 -0.488937 0.353026
1965312317 -0.470685 0.377729
1968186450 -0.434017 0.411109
1971060583 -0.399966 0.43456
1973934716 -0.364203 0.450069
1976808849 -0.324924 0.466139
1979682982 -0.27557 0.476005
1982557115 -0.226517 0.475198
1985431248 -0.18033 0.467258
1988305381 -0.136499 0.466675
1991179514 -0.092442 0.457645
1994053647 -0.047071 0.447658
1996927780 0.000388 0.427929
1999801913 0.051572 0.401131
2002676046 0.102009 0.355591
2005550179 0.140105 0.298162
2008424312 0.162379 0.239784
2011298445 0.183073 0.17776
2014172578 0.195918 0.109517
2017046711 0.19409 0.038385
2019920844 0.183993 -0.028971
2022794977 0.163566 -0.102221
2025669110 0.13019 -0.172032
2028543243 0.080018 -0.234442
2031417376 0.020633 -0.284349
2034291509 -0.045605 -0.323998
2037165642 -0.114016 -0.351774
2040039775 -0.182772 -0.370406
2042913908 -0.25484 -0.37249
2045788041 -0.330662 -0.374944
