# HZ S RI R 50
100000000 0.822584 -0.572858
102874133 0.81246 -0.582224
105748266 0.805469 -0.591764
108622399 0.792273 -0.60687
111496532 0.782676 -0.618025
114370665 0.798609 -0.607106
117244798 0.791134 -0.618182
120118931 0.739047 -0.668527
122993064 0.74015 -0.666791
125867197 0.716057 -0.68982
128741330 0.715897 -0.687514
131615463 0.707201 -0.702919
134489596 0.699698 -0.714095
137363729 0.673798 -0.728964
140237862 0.660889 -0.740949
143111995 0.64881 -0.754043
145986128 0.636048 -0.7639
148860261 0.624274 -0.77484
151734394 0.611253 -0.78524
154608527 0.597722 -0.796595
157482660 0.584454 -0.807114
160356793 0.571829 -0.817377
163230926 0.558003 -0.826912
166105059 0.544062 -0.835809
168979192 0.529868 -0.845573
171853325 0.512587 -0.854104
174727458 0.499197 -0.86375
177601591 0.484696 -0.871612
180475724 0.46756 -0.880114
183349857 0.451194 -0.889323
186223990 0.437097 -0.896065
189098123 0.420491 -0.90358
191972256 0.405988 -0.909778
194846389 0.391147 -0.915385
197720522 0.375395 -0.924346
200594655 0.357994 -0.931107
203468788 0.343491 -0.936211
206342921 0.328166 -0.941761
209217054 0.310854 -0.948571
212091187 0.295715 -0.952786
214965320 0.27878 -0.958569
217839453 0.261421 -0.964371
220713586 0.247571 -0.96907
223587719 0.228889 -0.972343
226461852 0.211642 -0.975428
229335985 0.193877 -0.977418
232210118 0.177682 -0.980876
235084251 0.160649 -0.983359
237958384 0.143248 -0.985921
240832517 0.146636 -0.988616
243706650 0.109522 -0.990144
246580783 0.091696 -0.990471
249454916 0.075818 -0.992664
252329049 0.058365 -0.9937
255203182 0.038553 -0.995066
258077315 0.022119 -0.995753
260951448 0.00489 -0.995855
263825581 -0.01193 -0.994867
266699714 -0.029216 -0.994565
269573847 -0.0472 -0.99432
272447980 -0.063103 -0.993384
275322113 -0.08172 -0.990048
278196246 -0.098133 -0.990871
281070379 -0.115011 -0.989259
283944512 -0.133583 -0.985493
286818645 -0.150248 -0.983968
289692778 -0.166512 -0.979843
292566911 -0.184427 -0.975779
295441044 -0.203585 -0.973474
298315177 -0.216637 -0.971113
301189310 -0.231404 -0.966479
304063443 -0.250227 -0.961172
306937576 -0.26843 -0.954208
309811709 -0.285919 -0.950677
312685842 -0.30129 -0.946148
315559975 -0.3156 -0.938978
318434108 -0.332498 -0.935486
321308241 -0.349991 -0.928613
324182374 -0.365115 -0.919837
327056507 -0.378801 -0.916725
329930640 -0.397536 -0.906898
332804773 -0.412169 -0.901357
335678906 -0.427401 -0.892968
338553039 -0.442301 -0.88548
341427172 -0.457712 -0.879849
344301305 -0.471217 -0.872838
347175438 -0.485132 -0.862201
350049571 -0.500802 -0.855732
352923704 -0.517158 -0.842533
355797837 -0.526855 -0.835395
358671970 -0.545149 -0.825511
361546103 -0.558462 -0.814662
364420236 -0.573366 -0.80459
367294369 -0.587481 -0.79469
370168502 -0.600072 -0.784914
373042635 -0.616476 -0.771252
375916768 -0.62804 -0.764341
378790901 -0.640912 -0.752091
381665034 -0.652924 -0.741272
384539167 -0.668261 -0.729099
387413300 -0.680623 -0.716342
390287433 -0.689979 -0.707281
393161566 -0.704107 -0.692433
396035699 -0.7175 -0.680593
398909832 -0.726858 -0.668428
401783965 -0.737615 -0.655292
404658098 -0.75014 -0.641711
407532231 -0.759404 -0.628819
410406364 -0.771513 -0.613641
413280497 -0.780993 -0.601454
416154630 -0.790631 -0.586122
419028763 -0.799991 -0.571416
421902896 -0.810519 -0.558798
424777029 -0.818017 -0.543187
427651162 -0.827977 -0.530528
430525295 -0.838042 -0.515618
433399428 -0.847436 -0.502705
436273561 -0.856976 -0.484154
439147694 -0.861135 -0.470816
442021827 -0.872238 -0.454957
444895960 -0.881522 -0.439081
447770093 -0.886558 -0.421941
450644226 -0.896756 -0.407353
453518359 -0.901627 -0.393183
456392492 -0.911299 -0.37971
459266625 -0.917767 -0.360445
462140758 -0.926315 -0.343198
465014891 -0.929813 -0.328456
467889024 -0.936939 -0.311968
470763157 -0.940943 -0.294296
473637290 -0.946824 -0.278026
476511423 -0.951407 -0.262078
479385556 -0.956235 -0.243362
482259689 -0.961675 -0.227171
485133822 -0.964286 -0.212754
488007955 -0.968534 -0.192719
490882088 -0.973026 -0.174947
493756221 -0.974414 -0.158756
496630354 -0.977424 -0.140591
499504487 -0.979977 -0.124501
502378620 -0.982059 -0.10734
505252753 -0.981282 -0.092452
508126886 -0.983281 -0.071534
511001019 -0.985699 -0.052759
513875152 -0.985311 -0.037974
516749285 -0.984029 -0.019722
519623418 -0.985387 -0.003372
522497551 -0.985704 0.017786
525371684 -0.986677 0.031508
528245817 -0.984431 0.049976
531119950 -0.98198 0.067004
533994083 -0.981196 0.083549
536868216 -0.980876 0.1008
539742349 -0.975521 0.118457
542616482 -0.976163 0.134823
545490615 -0.973255 0.153063
548364748 -0.966404 0.168565
551238881 -0.963378 0.185531
554113014 -0.958158 0.20275
556987147 -0.954142 0.217243
559861280 -0.951222 0.234831
562735413 -0.948609 0.248853
565609546 -0.942544 0.266013
568483679 -0.939544 0.282786
571357812 -0.934338 0.298321
574231945 -0.925943 0.31701
577106078 -0.923838 0.336487
579980211 -0.9184 0.351853
582854344 -0.911977 0.368876
585728477 -0.905441 0.388367
588602610 -0.896201 0.40302
591476743 -0.887333 0.418173
594350876 -0.881948 0.433965
597225009 -0.873386 0.449783
600099142 -0.863252 0.465273
602973275 -0.858506 0.483309
605847408 -0.848351 0.498304
608721541 -0.837931 0.513549
611595674 -0.830803 0.526913
614469807 -0.82957 0.529328
617343940 -0.807545 0.55681
620218073 -0.785932 0.584534
623092206 -0.785065 0.589199
625966339 -0.791621 0.588744
628840472 -0.771077 0.615901
631714605 -0.743411 0.640933
634588738 -0.746486 0.642555
637462871 -0.744279 0.646818
640337004 -0.719523 0.673736
643211137 -0.708397 0.685549
646085270 -0.696116 0.698512
648959403 -0.683895 0.71087
651833536 -0.671557 0.719283
654707669 -0.656733 0.736308
657581802 -0.641703 0.74998
660455935 -0.628755 0.760171
663330068 -0.613625 0.771188
666204201 -0.595696 0.784322
669078334 -0.584261 0.790737
671952467 -0.569886 0.804701
674826600 -0.555245 0.81559
677700733 -0.539419 0.825291
680574866 -0.522658 0.83443
683448999 -0.505705 0.846251
686323132 -0.494769 0.852429
689197265 -0.474005 0.860717
692071398 -0.460019 0.872874
694945531 -0.46148 0.883068
697819664 -0.428347 0.885989
700693797 -0.407727 0.895266
703567930 -0.390811 0.903206
706442063 -0.370292 0.910676
709316196 -0.354385 0.916208
712190329 -0.33508 0.923008
715064462 -0.319566 0.92676
717938595 -0.296967 0.933772
720812728 -0.28012 0.939419
723686861 -0.26294 0.945001
726560994 -0.241925 0.949473
729435127 -0.22627 0.95453
732309260 -0.205092 0.958094
735183393 -0.187375 0.961193
738057526 -0.163809 0.962529
740931659 -0.15042 0.96632
743805792 -0.131423 0.971584
746679925 -0.112976 0.973412
749554058 -0.098291 0.973882
752428191 -0.077201 0.976748
755302324 -0.060599 0.979165
758176457 -0.043369 0.981353
761050590 -0.020671 0.981634
763924723 -0.003951 0.981785
766798856 0.014894 0.983977
769672989 0.028521 0.985013
772547122 0.04766 0.984383
775421255 0.071027 0.983482
778295388 0.089427 0.981796
781169521 0.106692 0.981379
784043654 0.12625 0.979194
786917787 0.14435 0.974289
789791920 0.163191 0.974389
792666053 0.186064 0.971273
795540186 0.207063 0.96601
798414319 0.227848 0.960098
801288452 0.24619 0.953149
804162585 0.267491 0.945098
807036718 0.286675 0.936267
809910851 0.303974 0.931047
812784984 0.326259 0.92116
815659117 0.347405 0.910198
818533250 0.363358 0.901497
821407383 0.386791 0.889049
824281516 0.4047 0.878043
827155649 0.42344 0.870654
830029782 0.442473 0.861084
832903915 0.463105 0.850522
835778048 0.480279 0.84074
838652181 0.496206 0.831607
841526314 0.514606 0.818754
844400447 0.53443 0.80707
847274580 0.550602 0.794774
850148713 0.570064 0.783839
853022846 0.587637 0.771218
855896979 0.603434 0.755618
858771112 0.61993 0.739007
861645245 0.635267 0.72464
864519378 0.65152 0.709897
867393511 0.662811 0.696647
870267644 0.682434 0.677272
873141777 0.700616 0.660862
876015910 0.712897 0.644642
878890043 0.728104 0.622968
881764176 0.739413 0.608763
884638309 0.755198 0.586144
887512442 0.764014 0.566784
890386575 0.777444 0.545346
893260708 0.787732 0.524748
896134841 0.799494 0.499081
899008974 0.811261 0.474906
901883107 0.817966 0.450055
904757240 0.822327 0.428736
907631373 0.83148 0.403233
910505506 0.835648 0.380289
913379639 0.844361 0.360762
916253772 0.84671 0.338277
919127905 0.853738 0.312604
922002038 0.852903 0.287016
924876171 0.853866 0.262712
927750304 0.854145 0.240322
930624437 0.856917 0.217353
933498570 0.856486 0.192287
936372703 0.857133 0.168112
939246836 0.85682 0.141668
942120969 0.848786 0.109476
944995102 0.834148 0.085923
947869235 0.821388 0.066764
950743368 0.816805 0.055823
953617501 0.812062 0.032522
956491634 0.802073 0.011329
959365767 0.797484 -0.006259
962239900 0.785384 -0.029925
965114033 0.769303 -0.044481
967988166 0.756877 -0.059794
970862299 0.751207 -0.069122
973736432 0.737007 -0.092611
976610565 0.718986 -0.101836
979484698 0.706905 -0.107696
982358831 0.701457 -0.112031
985232964 0.692718 -0.123937
988107097 0.689422 -0.143048
990981230 0.670403 -0.15609
993855363 0.664599 -0.164299
996729496 0.646255 -0.18092
999603629 0.633295 -0.169114
1002477762 0.634441 -0.174142
1005351895 0.632354 -0.195596
1008226028 0.615721 -0.20489
1011100161 0.602855 -0.202635
1013974294 0.601881 -0.204562
1016848427 0.601535 -0.218481
1019722560 0.595229 -0.228212
1022596693 0.59215 -0.238548
1025470826 0.592528 -0.254553
1028344959 0.573798 -0.278377
1031219092 0.552847 -0.277815
1034093225 0.552773 -0.283448
1036967358 0.545347 -0.297502
1039841491 0.53112 -0.326701
1042715624 0.494037 -0.332232
1045589757 0.480431 -0.318048
1048463890 0.47418 -0.315129
1051338023 0.48128 -0.315794
1054212156 0.472377 -0.329602
1057086289 0.473488 -0.340298
1059960422 0.459905 -0.362256
1062834555 0.445587 -0.368711
1065708688 0.426834 -0.383584
1068582821 0.410796 -0.381641
1071456954 0.388417 -0.389686
1074331087 0.378103 -0.379855
1077205220 0.363607 -0.388392
1080079353 0.35122 -0.380681
1082953486 0.344868 -0.371223
1085827619 0.347942 -0.374655
1088701752 0.34047 -0.393156
1091575885 0.327048 -0.401641
1094450018 0.310844 -0.404325
1097324151 0.292954 -0.411163
1100198284 0.275769 -0.403674
1103072417 0.271336 -0.405083
1105946550 0.259431 -0.406781
1108820683 0.249265 -0.409845
1111694816 0.238279 -0.412826
1114568949 0.216617 -0.417967
1117443082 0.193963 -0.404941
1120317215 0.191487 -0.381653
1123191348 0.201539 -0.38746
1126065481 0.18934 -0.396343
1128939614 0.185286 -0.39862
1131813747 0.164465 -0.414928
1134687880 0.130465 -0.4072
1137562013 0.118205 -0.386526
1140436146 0.11384 -0.377493
1143310279 0.104359 -0.366649
1146184412 0.106217 -0.360662
1149058545 0.095493 -0.364143
1151932678 0.076088 -0.35426
1154806811 0.078062 -0.340319
1157680944 0.073196 -0.329988
1160555077 0.083108 -0.322655
1163429210 0.082352 -0.337593
1166303343 0.068143 -0.345705
1169177476 0.044554 -0.348422
1172051609 0.020267 -0.32298
1174925742 0.025908 -0.29776
1177799875 0.03826 -0.298475
1180674008 0.033189 -0.300221
1183548141 0.019483 -0.296669
1186422274 0.010191 -0.281645
1189296407 0.007043 -0.273303
1192170540 0.011955 -0.262302
1195044673 0.016308 -0.254163
1197918806 0.017817 -0.25206
1200792939 0.00523 -0.245116
1203667072 0.01665 -0.225718
1206541205 0.033252 -0.22815
1209415338 0.037824 -0.240375
1212289471 0.029775 -0.240482
1215163604 0.035119 -0.241619
1218037737 0.03103 -0.258339
1220911870 0.001929 -0.262542
1223786003 -0.008536 -0.237744
1226660136 0.000278 -0.222386
1229534269 0.005171 -0.22133
1232408402 0.010873 -0.220968
1235282535 0.005582 -0.235436
1238156668 -0.007746 -0.228341
1241030801 -0.011296 -0.221886
1243904934 -0.016365 -0.224992
1246779067 -0.028644 -0.209811
1249653200 -0.02402 -0.194125
1252527333 -0.006932 -0.18828
1255401466 -0.002894 -0.20768
1258275599 -0.012625 -0.225319
1261149732 -0.050651 -0.221549
1264023865 -0.075278 -0.196583
1266897998 -0.067642 -0.153764
1269772131 -0.041935 -0.140049
1272646264 -0.034864 -0.148738
1275520397 -0.027008 -0.136684
1278394530 -0.018958 -0.145495
1281268663 -0.011961 -0.147791
1284142796 -0.011231 -0.165982
1287016929 -0.03615 -0.162961
1289891062 -0.0465 -0.145413
1292765195 -0.040414 -0.133442
1295639328 -0.036913 -0.129141
1298513461 -0.051392 -0.121735
1301387594 -0.06133 -0.097389
1304261727 -0.037079 -0.066211
1307135860 -0.009717 -0.07047
1310009993 0.003293 -0.076566
1312884126 -0.002122 -0.078025
1315758259 0.00874 -0.056833
1318632392 0.041049 -0.065171
1321506525 0.042983 -0.087058
1324380658 0.031593 -0.087232
1327254791 0.039718 -0.076441
1330128924 0.049689 -0.081936
1333003057 0.055782 -0.080162
1335877190 0.06043 -0.086772
1338751323 0.069328 -0.086034
1341625456 0.07773 -0.092613
1344499589 0.08237 -0.101844
1347373722 0.078206 -0.094868
1350247855 0.097004 -0.099308
1353121988 0.104169 -0.116715
1355996121 0.105723 -0.136388
1358870254 0.102895 -0.135743
1361744387 0.108683 -0.158978
1364618520 0.088235 -0.167299
1367492653 0.089469 -0.164529
1370366786 0.085798 -0.163105
1373240919 0.096887 -0.170036
1376115052 0.091852 -0.177756
1378989185 0.089905 -0.177141
1381863318 0.103523 -0.175992
1384737451 0.113643 -0.198401
1387611584 0.104614 -0.220561
1390485717 0.09704 -0.237935
1393359850 0.07262 -0.252305
1396233983 0.05062 -0.251506
1399108116 0.032305 -0.24382
1401982249 0.027306 -0.232864
1404856382 0.02911 -0.223147
1407730515 0.032337 -0.210958
1410604648 0.049879 -0.22249
1413478781 0.049089 -0.238909
1416352914 0.036552 -0.249932
1419227047 0.022559 -0.256588
1422101180 0.014024 -0.246114
1424975313 0.011812 -0.260046
1427849446 0.002348 -0.26204
1430723579 -0.015873 -0.265531
1433597712 -0.02601 -0.251445
1436471845 -0.023146 -0.249288
1439345978 -0.026528 -0.255594
1442220111 -0.040793 -0.262487
1445094244 -0.05728 -0.252648
1447968377 -0.063816 -0.251784
1450842510 -0.079932 -0.233456
1453716643 -0.074509 -0.220812
1456590776 -0.070982 -0.211816
1459464909 -0.063153 -0.21168
1462339042 -0.06697 -0.210855
1465213175 -0.065048 -0.218289
1468087308 -0.073558 -0.215024
1470961441 -0.076005 -0.211799
1473835574 -0.079814 -0.208657
1476709707 -0.081594 -0.204477
1479583840 -0.082366 -0.214335
1482457973 -0.100156 -0.202728
1485332106 -0.10903 -0.19807
1488206239 -0.114629 -0.174597
1491080372 -0.106717 -0.162799
1493954505 -0.094513 -0.148726
1496828638 -0.072373 -0.139352
1499702771 -0.048538 -0.166963
1502576904 -0.059558 -0.183968
1505451037 -0.082358 -0.199982
1508325170 -0.108336 -0.185074
1511199303 -0.110292 -0.166221
1514073436 -0.110628 -0.14996
1516947569 -0.098188 -0.129981
1519821702 -0.080861 -0.13142
1522695835 -0.06698 -0.139695
1525569968 -0.068055 -0.149188
1528444101 -0.064018 -0.156067
1531318234 -0.073235 -0.162862
1534192367 -0.078455 -0.16331
1537066500 -0.08047 -0.152214
1539940633 -0.073377 -0.149801
1542814766 -0.067839 -0.153043
1545688899 -0.066933 -0.159637
1548563032 -0.072089 -0.161751
1551437165 -0.069494 -0.158872
1554311298 -0.069407 -0.165577
1557185431 -0.084704 -0.170117
1560059564 -0.090274 -0.143514
1562933697 -0.062917 -0.145503
1565807830 -0.06163 -0.161494
1568681963 -0.067733 -0.161016
1571556096 -0.054545 -0.16166
1574430229 -0.052444 -0.167372
1577304362 -0.058966 -0.185989
1580178495 -0.073782 -0.182459
1583052628 -0.070692 -0.185704
1585926761 -0.074283 -0.191365
1588800894 -0.091239 -0.194812
1591675027 -0.092306 -0.184605
1594549160 -0.079495 -0.188689
1597423293 -0.097591 -0.199389
1600297426 -0.103436 -0.186594
1603171559 -0.101663 -0.185099
1606045692 -0.09367 -0.18076
1608919825 -0.089009 -0.191617
1611793958 -0.08303 -0.213108
1614668091 -0.108833 -0.229876
1617542224 -0.136844 -0.229857
1620416357 -0.153109 -0.199567
1623290490 -0.145105 -0.18417
1626164623 -0.125673 -0.160483
1629038756 -0.113099 -0.191251
1631912889 -0.127333 -0.20324
1634787022 -0.136384 -0.208518
1637661155 -0.143627 -0.210141
1640535288 -0.146099 -0.216179
1643409421 -0.169879 -0.213323
1646283554 -0.173718 -0.196857
1649157687 -0.168876 -0.190369
1652031820 -0.167538 -0.200465
1654905953 -0.18201 -0.198947
1657780086 -0.190585 -0.192899
1660654219 -0.192832 -0.180811
1663528352 -0.192785 -0.18776
1666402485 -0.207431 -0.18001
1669276618 -0.206709 -0.165322
1672150751 -0.199644 -0.161015
1675024884 -0.192255 -0.164936
1677899017 -0.204073 -0.175352
1680773150 -0.217285 -0.16576
1683647283 -0.218199 -0.154241
1686521416 -0.211076 -0.157482
1689395549 -0.219716 -0.158058
1692269682 -0.216725 -0.151799
1695143815 -0.217891 -0.159718
1698017948 -0.228774 -0.163919
1700892081 -0.245847 -0.151864
1703766214 -0.246407 -0.144477
1706640347 -0.24902 -0.125967
1709514480 -0.244923 -0.118592
1712388613 -0.231934 -0.107503
1715262746 -0.210509 -0.111835
1718136879 -0.212192 -0.142206
1721011012 -0.237222 -0.152718
1723885145 -0.254055 -0.134613
1726759278 -0.253815 -0.127779
1729633411 -0.261408 -0.117887
1732507544 -0.26609 -0.098639
1735381677 -0.241201 -0.083733
1738255810 -0.225921 -0.097859
1741129943 -0.227616 -0.114672
1744004076 -0.251329 -0.12558
1746878209 -0.263461 -0.107614
1749752342 -0.258404 -0.099089
1752626475 -0.258331 -0.095625
1755500608 -0.257114 -0.09283
1758374741 -0.254268 -0.094245
1761248874 -0.264909 -0.097182
1764123007 -0.261721 -0.08719
1766997140 -0.260198 -0.093554
1769871273 -0.268651 -0.094411
1772745406 -0.275655 -0.093911
1775619539 -0.291896 -0.084545
1778493672 -0.275957 -0.064713
1781367805 -0.265881 -0.073257
1784241938 -0.269186 -0.086838
1787116071 -0.277509 -0.087433
1789990204 -0.284367 -0.086057
1792864337 -0.286695 -0.083941
1795738470 -0.298138 -0.095566
1798612603 -0.319998 -0.077972
1801486736 -0.316032 -0.060663
1804360869 -0.313593 -0.055481
1807235002 -0.310306 -0.051233
1810109135 -0.31202 -0.044217
1812983268 -0.32176 -0.050683
1815857401 -0.320043 -0.044264
1818731534 -0.316535 -0.042768
1821605667 -0.322034 -0.045185
1824479800 -0.328084 -0.036691
1827353933 -0.331782 -0.037587
1830228066 -0.345369 -0.038776
1833102199 -0.353538 -0.023427
1835976332 -0.356677 -0.013704
1838850465 -0.363892 0.001802
1841724598 -0.356535 0.017994
1844598731 -0.34721 0.017109
1847472864 -0.343233 0.013848
1850346997 -0.348401 0.006327
1853221130 -0.366176 0.013247
1856095263 -0.371864 0.02353
1858969396 -0.371347 0.034079
1861843529 -0.376663 0.039912
1864717662 -0.381898 0.059322
1867591795 -0.366077 0.071735
1870465928 -0.362136 0.064773
1873340061 -0.374007 0.063998
1876214194 -0.382436 0.072301
1879088327 -0.383881 0.085896
1881962460 -0.383236 0.102039
1884836593 -0.374635 0.116485
1887710726 -0.367388 0.119649
1890584859 -0.370416 0.122547
1893458992 -0.362817 0.131662
1896333125 -0.361281 0.129825
1899207258 -0.362059 0.136622
1902081391 -0.365019 0.138394
1904955524 -0.372992 0.143054
1907829657 -0.369074 0.16243
1910703790 -0.366721 0.162787
1913577923 -0.364266 0.171981
1916452056 -0.359106 0.180434
1919326189 -0.356568 0.183587
1922200322 -0.350842 0.188647
1925074455 -0.354561 0.198912
1927948588 -0.349355 0.207759
1930822721 -0.340864 0.209116
1933696854 -0.342518 0.221535
1936570987 -0.322924 0.228511
1939445120 -0.315213 0.215522
1942319253 -0.331645 0.208154
1945193386 -0.342872 0.228742
1948067519 -0.322875 0.265218
1950941652 -0.324927 0.244118
1953815785 -0.321695 0.250629
1956689918 -0.324266 0.251391
1959564051 -0.321883 0.272621
1962438184 -0.303911 0.277602
1965312317 -0.296632 0.28051
1968186450 -0.288617 0.275429
1971060583 -0.291934 0.266481
1973934716 -0.297821 0.271152
1976808849 -0.299278 0.284741
1979682982 -0.284451 0.305155
1982557115 -0.287543 0.294205
1985431248 -0.28548 0.301729
1988305381 -0.277601 0.302802
1991179514 -0.277456 0.305099
1994053647 -0.283119 0.307664
1996927780 -0.263587 0.320271
1999801913 -0.269298 0.314854
2002676046 -0.254174 0.320898
2005550179 -0.26495 0.316783
2008424312 -0.257237 0.326226
2011298445 -0.269474 0.330754
2014172578 -0.25122 0.33023
2017046711 -0.246523 0.336302
2019920844 -0.249492 0.336638
2022794977 -0.252363 0.346128
2025669110 -0.247617 0.359807
2028543243 -0.239858 0.367788
2031417376 -0.226261 0.36241
2034291509 -0.236441 0.365609
2037165642 -0.230474 0.385585
