# HZ S RI R 50
100000000 0.24641141402285383 -0.9705259968703865
102874133 0.19474355694972023 -0.986580828540962
105748266 0.16057605193469057 -0.9932346516498846
108622399 0.12439307755708223 -1.0001753351747271
111496532 0.09162856129221533 -1.0059712319373346
114370665 -0.020011302918680106 -0.9939896534816128
117244798 0.019337654151018582 -1.0103903108585988
120118931 -0.016707806702081676 -1.0069757036777032
122993064 -0.05297358797289117 -1.0018937974542406
125867197 -0.0906749047769094 -0.9926847648431493
128741330 -0.1090374574638735 -0.9854543779368043
131615463 -0.16263756506819183 -0.9848356897791071
134489596 -0.20275597562781267 -0.9849710658756499
137363729 -0.23825468592987736 -0.963142702063643
140237862 -0.2746982195700914 -0.958131443866144
143111995 -0.310597908930005 -0.9515959483952778
145986128 -0.3440904266461712 -0.9406490287224326
148860261 -0.36314713915866315 -0.9364839014216307
151734394 -0.41000840376428466 -0.9111046411585572
154608527 -0.4427199621326 -0.8938441842811918
157482660 -0.47348185890926875 -0.8721770034235157
160356793 -0.5086747813441725 -0.8577708676893021
163230926 -0.5401498309465418 -0.8458583182362294
166105059 -0.5734514045000875 -0.8305910474637185
168979192 -0.6030216551914401 -0.8124940644898128
171853325 -0.6308163335942483 -0.7937544516641845
174727458 -0.658032212888328 -0.7693016485737503
177601591 -0.6813783828901605 -0.7427546846994569
180475724 -0.7043652530299709 -0.7164446882551542
183349857 -0.726154924978317 -0.6846098844581012
186223990 -0.7438844393245213 -0.6536560960197975
189098123 -0.7696037204357871 -0.627600179576452
191972256 -0.7961834670220086 -0.6063972213077944
194846389 -0.8236579013457249 -0.5803692391923923
197720522 -0.8451579076642602 -0.5545779342108464
200594655 -0.8658775581109381 -0.526650114011987
203468788 -0.8839171252174194 -0.4961288286285861
206342921 -0.8957584888706677 -0.46421789880199327
209217054 -0.908486596777226 -0.43274550666313566
212091187 -0.9160661404229501 -0.39801849542904405
214965320 -0.9240935885013404 -0.36222386256390576
217839453 -0.9365120609449524 -0.329009885580415
220713586 -0.9542606466686061 -0.2998219572706668
223587719 -0.9682244841864949 -0.26498446301207135
226461852 -0.9807384473465405 -0.23192405293607865
229335985 -0.9893654470894817 -0.20065758092190294
232210118 -0.9952507537484921 -0.16635956969185248
235084251 -0.9969527759273483 -0.13251541418172513
237958384 -0.99730121090835 -0.09864668305492555
240832517 -0.9939528224656952 -0.06399403366313353
243706650 -0.9876671151489245 -0.02991888578141319
246580783 -0.9876586068518225 0.005250022049193781
249454916 -0.9925520661294843 0.041271602720170456
252329049 -0.9968428487648324 0.07521585986621075
255203182 -0.9955431187360927 0.11023824896202841
258077315 -0.9940620617821838 0.14271157565647477
260951448 -0.9873933643678875 0.17820932425735855
263825581 -0.9790756864766875 0.21036799679182006
266699714 -0.9658385479175776 0.24182568476790267
269573847 -0.9530405575732934 0.27259642600442513
272447980 -0.9367875688114677 0.30091065025568575
275322113 -0.9237916632664539 0.33450633909748073
278196246 -0.9171969577128805 0.3674351584310305
281070379 -0.907943474769301 0.4006435476802886
283944512 -0.8968300889939316 0.433518591726049
286818645 -0.8835463602990901 0.46370154082473175
289692778 -0.8671838855478821 0.495663755869922
292566911 -0.8499106050344152 0.5244227664575922
295441044 -0.8288518905508371 0.5492429441142626
298315177 -0.8039766631796532 0.5752638091454306
301189310 -0.7779086309223162 0.6004268337062957
304063443 -0.7534300212915985 0.6261573620884301
306937576 -0.7343614068860049 0.6571454593896296
309811709 -0.7122275662039155 0.6852989240493869
312685842 -0.69396147569846 0.7095787481938954
315559975 -0.6668517820990381 0.7373496987951762
318434108 -0.6421077585293974 0.7589172242651718
321308241 -0.6141781196360538 0.779775053505382
324182374 -0.5836247311592088 0.8001312832462816
327056507 -0.5498449547547852 0.8156643913649217
329930640 -0.5180796227850235 0.8288189310234942
332804773 -0.48229442780353693 0.8449920267349621
335678906 -0.45630540592958857 0.8693957259984854
338553039 -0.4255561338748023 0.8903042566693319
341427172 -0.3961405334763004 0.9087331882913224
344301305 -0.35959507846295563 0.9232433267488158
347175438 -0.3281625069916713 0.9381813305491329
350049571 -0.29247648667710224 0.9461521246591474
352923704 -0.2575326319010906 0.9552163148664795
355797837 -0.2195264974818735 0.9576531862304541
358671970 -0.17814340450727098 0.9598600906629876
361546103 -0.13991833445429963 0.9624761985340389
364420236 -0.10417190454298711 0.975371202353692
367294369 -0.06488188217565347 0.9826300898982
370168502 -0.02676806501919063 0.9880001142029936
373042635 0.01142506461011844 0.9908896471957181
375916768 0.04715578129940182 0.9890557348532201
378790901 0.08421518028432723 0.9839132056526523
381665034 0.12491467006045315 0.9755841610889796
384539167 0.1629503851957629 0.9637802244669438
387413300 0.1993809564810731 0.9503955404134072
390287433 0.23581353573342706 0.9325066583788556
393161566 0.27564903571416893 0.932018497703693
396035699 0.3167739318227194 0.9222079248974036
398909832 0.3435361440152177 0.9294674152847723
401783965 0.39565311130531755 0.901288460164903
404658098 0.4316330081851357 0.8833819528114951
407532231 0.4663977684307028 0.865208575440547
410406364 0.5038595467746046 0.8441519535273789
413280497 0.5365036328624527 0.8171007888567912
416154630 0.5644969951295224 0.7837487286176227
419028763 0.5929219987748762 0.7542021874310667
421902896 0.631647476535919 0.7294368284517896
424777029 0.6666949747885555 0.7062060289948587
427651162 0.6995134555899869 0.6763410021435603
430525295 0.730166614759314 0.6467695858154769
433399428 0.7594937454699336 0.6153289571863587
436273561 0.7828545864956339 0.5807249484289013
439147694 0.8067281337387316 0.5421451479072951
442021827 0.8252621127768716 0.5025698236932399
444895960 0.8382431748220494 0.4607682171083973
447770093 0.8516500699887027 0.4157998231279537
450644226 0.8766980663533783 0.37703422886555993
453518359 0.9010378376684859 0.3386321766898405
456392492 0.9174287421604097 0.30065242662245173
459266625 0.9308486388253482 0.25515727088405005
462140758 0.9420533137850469 0.20957798984772247
465014891 0.9498447362405645 0.16649407214700535
467889024 0.9529090360593779 0.12102605322981932
470763157 0.9521127271334091 0.07371349151669787
473637290 0.9479269263198824 0.025739590881369068
476511423 0.9404765742853756 -0.018734110452447217
479385556 0.942354228771008 -0.06788447945884557
482259689 0.9440176300329889 -0.11570817355268731
485133822 0.9394681818723871 -0.16338782315518857
488007955 0.9331329341181613 -0.21264298712403124
490882088 0.9214923882814531 -0.25624960554963544
493756221 0.9060236567622807 -0.30374722430189366
496630354 0.8876003859495741 -0.34825823996592975
499504487 0.8641955149347452 -0.3896829258854827
502378620 0.8364255698421706 -0.43182398578610737
505252753 0.8066188385301153 -0.47183751840684285
508126886 0.7833422142551743 -0.5134961188945841
511001019 0.7578975459934392 -0.5581035265442448
513875152 0.7314082642904918 -0.599471011904304
516749285 0.6989631946973209 -0.640475964700874
519623418 0.6676830477997223 -0.6747056505668778
522497551 0.6292950216198157 -0.7082439498354475
525371684 0.5911184945073916 -0.735918510177122
528245817 0.5479818450917466 -0.7619223487336784
531119950 0.5022193754106323 -0.7857817592965329
533994083 0.45535976092212105 -0.8044442444134638
536868216 0.41165972729084843 -0.8289136667903505
539742349 0.37147875115899 -0.8581526665094954
542616482 0.32702803076260845 -0.8819287772283715
545490615 0.28035305803864236 -0.8991615012156502
548364748 0.2328481491420811 -0.9172425634378875
551238881 0.1857748868855439 -0.9279048492187458
554113014 0.1373097028827509 -0.9328867944816512
556987147 0.09057373028498178 -0.9368105704843768
559861280 0.03991653477335022 -0.9346938499881595
562735413 -0.008819205816253062 -0.9276870629074065
565609546 -0.058265978777114036 -0.9259518174587406
568483679 -0.10916625139285763 -0.929726055413008
571357812 -0.15663286102810006 -0.9278631555925432
574231945 -0.20614912747055086 -0.9202550937930909
577106078 -0.2523358399835715 -0.9125452628033228
579980211 -0.30256988148887615 -0.8986077399737927
582854344 -0.34399742039180525 -0.8804080416169445
585728477 -0.3878502138157762 -0.8602759341327972
588602610 -0.4296253953929628 -0.836288530034605
591476743 -0.4663560145922503 -0.8073511103247663
594350876 -0.5053541979155013 -0.7831770984663561
597225009 -0.5479337305960886 -0.7603271833224516
600099142 -0.5890932181279167 -0.7343721079593742
602973275 -0.6258457171929579 -0.7110937292567218
605847408 -0.6610409921994708 -0.6797220694614373
608721541 -0.6936317079156202 -0.6486172739652096
611595674 -0.7246041238854833 -0.6121007763670546
614469807 -0.7489866429342122 -0.5738783331509727
617343940 -0.7738239478750205 -0.5391925369987213
620218073 -0.7893062416169992 -0.4960836443226555
623092206 -0.8150029463358948 -0.4559294672477426
625966339 -0.8398177064004899 -0.4215248715132007
628840472 -0.8652833603722985 -0.3804695235663732
631714605 -0.886169850549092 -0.34204962998196586
634588738 -0.9039311238913013 -0.30186518778853755
637462871 -0.9181939680629216 -0.258127910708754
640337004 -0.9298564945432537 -0.2153012480240929
643211137 -0.933585662267536 -0.1749200159515376
646085270 -0.9358146937925381 -0.13161937008654195
648959403 -0.9404205594183771 -0.08795249264930827
651833536 -0.9398264382629158 -0.04239756257194233
654707669 -0.9442301425596498 -0.0008394973397066741
657581802 -0.9490036029510869 0.04130243765028929
660455935 -0.9518534682107974 0.079116396404769
663330068 -0.9486147429915389 0.12251719366316188
666204201 -0.9483571554329387 0.159653961495307
669078334 -0.935181910355236 0.2027973133656645
671952467 -0.9244838686233752 0.24462231440152393
674826600 -0.9086213885311352 0.2817474044312596
677700733 -0.891362709299392 0.3196896890274187
680574866 -0.8699580315002404 0.35716423527031194
683448999 -0.8585665142349896 0.3976908305284134
686323132 -0.8443092948574183 0.44002749509021494
689197265 -0.8280737237186842 0.4759535184360679
692071398 -0.8121466937615067 0.5111562377133368
694945531 -0.7904335784055055 0.5472868750975739
697819664 -0.7644054665253053 0.5764728032008365
700693797 -0.7367585984634109 0.6043311742813129
703567930 -0.7066840701939827 0.6328669376291244
706442063 -0.6707259122562961 0.6625148838237217
709316196 -0.6370235220732765 0.6794796873780392
712190329 -0.6065821171345123 0.715800973002002
715064462 -0.5744734062568091 0.7488936852268813
717938595 -0.5449646267824332 0.7781438761860708
720812728 -0.5155011370354576 0.8059963391822262
723686861 -0.478354472954815 0.8272485763137469
726560994 -0.44008987405713884 0.8472898628464594
729435127 -0.4035030110904332 0.8598178260922216
732309260 -0.36029954080281507 0.8744949890458382
735183393 -0.31666500558986455 0.8840888748105424
738057526 -0.26977912870089393 0.8915088017385956
740931659 -0.228512767652776 0.9079921877663202
743805792 -0.18536801337247666 0.9215177925896718
746679925 -0.13439056817689105 0.9295544040082282
749554058 -0.0907036773274425 0.9354550916475249
752428191 -0.04153398815649301 0.9370434577375888
755302324 0.010084492795193967 0.9324128230215754
758176457 0.05710849956888597 0.9242578038437059
761050590 0.11180398966881588 0.9107160936285991
763924723 0.16157021020444046 0.8939015187454896
766798856 0.21443371315230225 0.8654684545543623
769672989 0.2671380703791168 0.8526675097704393
772547122 0.3232946792038173 0.8330990996997301
775421255 0.38553920325264157 0.8025959878670702
778295388 0.43881606103330506 0.7670167446446098
781169521 0.4926555771819165 0.7228293694362127
784043654 0.5461755468215044 0.6669247321131753
786917787 0.5955688461300623 0.5999859027846456
789791920 0.6362042372715375 0.5213856933775046
792666053 0.6717265291043808 0.4361594361393337
795540186 0.6927091084805872 0.3317518524213996
798414319 0.704307020106488 0.22266598076428049
801288452 0.7020430545078276 0.10461799563803209
804162585 0.6702263987311282 -0.02764640891513309
807036718 0.6039848512988445 -0.1602360570081301
809910851 0.49822564730053925 -0.28172286227063403
812784984 0.3471562489834257 -0.38223977078890914
815659117 0.1644747574691481 -0.437826271254324
818533250 -0.03488295111958398 -0.43300644446265313
821407383 -0.2219650392388326 -0.368656798473463
824281516 -0.3798947441400631 -0.2468581521780392
827155649 -0.4879485900816131 -0.0938305456307586
830029782 -0.543915399941825 0.07863036266051796
832903915 -0.5491753163861688 0.24585805258350082
835778048 -0.5166920135201865 0.39452347891279615
838652181 -0.4531819174201137 0.5173587173436136
841526314 -0.37233599808430096 0.6169713667736674
844400447 -0.2800228965936021 0.6866260275290537
847274580 -0.18411470920652423 0.7350581615047868
850148713 -0.08714365826472331 0.7619930067554697
853022846 0.0005216814258532931 0.7714360799609323
855896979 0.08850282115796745 0.771551134188189
858771112 0.17255159004218837 0.7618505403941856
861645245 0.2522659287169571 0.7429919722537863
864519378 0.32279290954335693 0.7097053031882559
867393511 0.38965443167913827 0.6679767404796425
870267644 0.44192509565299815 0.6200833220157502
873141777 0.4890588525384351 0.5563351322564387
876015910 0.5234243491003706 0.4941577686588094
878890043 0.5447899355994404 0.4208585043331755
881764176 0.5555360828131019 0.35281556248226126
884638309 0.5624746282884013 0.2800247782051166
887512442 0.5588651391725024 0.2127298965958937
890386575 0.5431841881080478 0.14761664400195867
893260708 0.5129830202676204 0.08555512547539226
896134841 0.47244728241490186 0.03080112005713434
899008974 0.4240065884609191 -0.013390196067749632
901883107 0.36681960604821073 -0.04577722467161466
904757240 0.3077178560780977 -0.06457151219925977
907631373 0.24736287285273148 -0.07639041566874355
910505506 0.1892572780835333 -0.07005324589490589
913379639 0.1357968680463385 -0.05764701136056695
916253772 0.0914175699478888 -0.037232213657300284
919127905 0.05330833638453034 -0.00800712694502579
922002038 0.021634409529698785 0.02380350243769346
924876171 -0.001852045268568303 0.06074819222267584
927750304 -0.016999569020212747 0.0988647154101352
930624437 -0.02572910650905745 0.1354134173678723
933498570 -0.026341159985757062 0.17076679881816825
936372703 -0.02388891150950885 0.2051780620336659
939246836 -0.01360586453916647 0.23577634722368115
942120969 -0.0038405773540893945 0.2613735673888759
944995102 0.012792058072890744 0.2870023552782447
947869235 0.031537008466827485 0.3084601461242007
950743368 0.050355424209065414 0.32745098074784423
953617501 0.07262247843063196 0.34217631980397534
956491634 0.09283537040380417 0.35394807274795054
959365767 0.11400509023634246 0.361125429647655
962239900 0.1370814589704573 0.36495947779381044
965114033 0.1546942548780016 0.36838583746629
967988166 0.17400299545684964 0.3644909721749547
970862299 0.19400079651269542 0.36117707454576864
973736432 0.21467691387419222 0.36046442798486045
976610565 0.23626402485956458 0.3573125753764609
979484698 0.2593829124058052 0.31946652179670154
982358831 0.2714899792476053 0.34455393739897217
985232964 0.2865944319455497 0.337410372777435
988107097 0.3015358971831274 0.3250848740867013
990981230 0.3100712978957494 0.3166236120099785
993855363 0.3200685955932711 0.3032578846789496
996729496 0.3282674357419047 0.288444841376015
999603629 0.3356658800775892 0.2737147590243126
1002477762 0.3470669531623079 0.2610341221136278
1005351895 0.3572484644452619 0.24873867142143866
1008226028 0.36458375652922304 0.2393467474711955
1011100161 0.369622437665027 0.22452615213503124
1013974294 0.37239050851926664 0.21232311792586786
1016848427 0.375929141224809 0.1988553376376344
1019722560 0.3752923794548579 0.18198576347920997
1022596693 0.37414583980426286 0.17373205787695856
1025470826 0.37224686192358203 0.1578467298775797
1028344959 0.368508334574603 0.14519869732904775
1031219092 0.36875496817131526 0.13572415798954962
1034093225 0.36796549415330726 0.12482826345628781
1036967358 0.3677634754822522 0.11368404613759528
1039841491 0.36639437625914084 0.10247676961963198
1042715624 0.35898620475025683 0.09574908881554267
1045589757 0.355751993418938 0.08788143712099772
1048463890 0.3484669144483985 0.0794593747761238
1051338023 0.34322004827609043 0.0723340451057323
1054212156 0.3339544327273387 0.06547694784243868
1057086289 0.3260474821347277 0.05776132514584875
1059960422 0.3204198159026376 0.05435310534753163
1062834555 0.3175521031850862 0.04977777412388357
1065708688 0.3109591413384236 0.04770491269324656
1068582821 0.3069849776737469 0.04371253737372299
1071456954 0.30092351007279994 0.04131646652928436
1074331087 0.2944784253994315 0.0401624341801073
1077205220 0.2890930676234862 0.03551713071241064
1080079353 0.28390077412699743 0.03719213080870207
1082953486 0.2755028054440838 0.0367719461742146
1085827619 0.2700380677580541 0.0367990783375967
1088701752 0.26693945342265213 0.040221562219980134
1091575885 0.26375802607980114 0.04043526953646964
1094450018 0.2614673578355376 0.045646052529248735
1097324151 0.25670584405826413 0.04719723181855262
1100198284 0.25792230632472546 0.050589462303274824
1103072417 0.2560827190809395 0.05309573691091059
1105946550 0.25180738644259476 0.05927335697385262
1108820683 0.24790825685083664 0.0581503774121855
1111694816 0.2450845354380483 0.06580340460885004
1114568949 0.245878004658928 0.06976490073055491
1117443082 0.24651744865086433 0.07450006882995783
1120317215 0.24774494091467775 0.07710529507227658
1123191348 0.25074286220569314 0.08042419164590207
1126065481 0.2557373176379848 0.08374489713008475
1128939614 0.25910559221117513 0.09316871207597673
1131813747 0.2611818411387924 0.08973690975485296
1134687880 0.26519793449173323 0.09335394838633446
1137562013 0.2660391268446231 0.09466215235114056
1140436146 0.27067466317790445 0.09435986720808788
1143310279 0.2769312366671978 0.09800319863645504
1146184412 0.27905240348073856 0.10033356359974006
1149058545 0.29131429016789795 0.10064746686317419
1151932678 0.2972922105178113 0.1059117285546476
1154806811 0.30236472928624514 0.1034772080830156
1157680944 0.31120249264771227 0.1036636981679247
1160555077 0.3184154346259635 0.10170524912687028
1163429210 0.32440369395428637 0.10178698533119891
1166303343 0.3259094369485301 0.09996303915393978
1169177476 0.33374606674079726 0.09582143164786944
1172051609 0.34104696782133337 0.0934246946683498
1174925742 0.34485261582692417 0.0920798659714917
1177799875 0.35500127596019704 0.08729924139207634
1180674008 0.3666179945012896 0.08265450902311616
1183548141 0.3735472871688571 0.08074499889025563
1186422274 0.38097988278238537 0.0710381724224369
1189296407 0.38770138881390337 0.06761269224613448
1192170540 0.38999885851089006 0.062004170901664046
1195044673 0.3980788471466844 0.054071258228070046
1197918806 0.40242408961581466 0.04658711725233439
1200792939 0.40618711521238593 0.03839601330138151
1203667072 0.41132588195258474 0.03161091679987002
1206541205 0.42025096042043375 0.022076873481157916
1209415338 0.42719874236868227 0.01623550022685563
1212289471 0.4338109919496871 0.005913595913527664
1215163604 0.43771270831679737 -0.002039231956957127
1218037737 0.4462426764497599 -0.011952599715330692
1220911870 0.44620789514407055 -0.017914660814487865
1223786003 0.4488035568534672 -0.028913493401467233
1226660136 0.44742439439962267 -0.03837833160952753
1229534269 0.44789595702432183 -0.04951373605644055
1232408402 0.45128089653615644 -0.058620471360463305
1235282535 0.4578100677503677 -0.07169282914911143
1238156668 0.46106986666741345 -0.08199718250826435
1241030801 0.46140993088005655 -0.09614195426171357
1243904934 0.46121364447099866 -0.1084140422444399
1246779067 0.4610818714831204 -0.11437791361370098
1249653200 0.4620132819238195 -0.12666471944460794
1252527333 0.4592510117840798 -0.14060021035296846
