# HZ S RI R 50
100000000 -0.31572 -0.905553
102874133 -0.347223 -0.899395
105748266 -0.39169 -0.882439
108622399 -0.442979 -0.845654
111496532 -0.435009 -0.871966
114370665 -0.483747 -0.836662
117244798 -0.483683 -0.845155
120118931 -0.50848 -0.82588
122993064 -0.532404 -0.810149
125867197 -0.54956 -0.789946
128741330 -0.571856 -0.766789
131615463 -0.598265 -0.757242
134489596 -0.621862 -0.743732
137363729 -0.637631 -0.719545
140237862 -0.657103 -0.706387
143111995 -0.676284 -0.691817
145986128 -0.693647 -0.675026
148860261 -0.709953 -0.657709
151734394 -0.724078 -0.637437
154608527 -0.737343 -0.617887
157482660 -0.750463 -0.597013
160356793 -0.767404 -0.58177
163230926 -0.785742 -0.567214
166105059 -0.801458 -0.55205
168979192 -0.815445 -0.535864
171853325 -0.827848 -0.518575
174727458 -0.838959 -0.500719
177601591 -0.848134 -0.483154
180475724 -0.857363 -0.462678
183349857 -0.863845 -0.441902
186223990 -0.869619 -0.420765
189098123 -0.881318 -0.403101
191972256 -0.89426 -0.388032
194846389 -0.906272 -0.371033
197720522 -0.915868 -0.35486
200594655 -0.924712 -0.336981
203468788 -0.931807 -0.319579
206342921 -0.936618 -0.301191
209217054 -0.940292 -0.282891
212091187 -0.942811 -0.263449
214965320 -0.944385 -0.243896
217839453 -0.951293 -0.225636
220713586 -0.961247 -0.208629
223587719 -0.968889 -0.19127
226461852 -0.975414 -0.173858
229335985 -0.98143 -0.15736
232210118 -0.984733 -0.13953
235084251 -0.987414 -0.122343
237958384 -0.987993 -0.103785
240832517 -0.987431 -0.086191
243706650 -0.985771 -0.067339
246580783 -0.989285 -0.048194
249454916 -0.995156 -0.02981
252329049 -0.999485 -0.012607
255203182 -1.003046 0.006478
258077315 -1.004941 0.024389
260951448 -1.006073 0.042487
263825581 -1.006202 0.060967
266699714 -1.003684 0.079411
269573847 -1.000013 0.096461
272447980 -0.995352 0.116391
275322113 -0.994905 0.135222
278196246 -0.996693 0.154293
281070379 -0.997679 0.174174
283944512 -1.000059 0.19278
286818645 -0.99865 0.21182
289692778 -0.996583 0.23144
292566911 -0.992767 0.251415
295441044 -0.987941 0.270784
298315177 -0.981887 0.290767
301189310 -0.973175 0.310173
304063443 -0.967673 0.328344
306937576 -0.966199 0.351248
309811709 -0.963387 0.373213
312685842 -0.960839 0.394065
315559975 -0.956379 0.415265
318434108 -0.948109 0.434622
321308241 -0.940504 0.454726
324182374 -0.930433 0.476881
327056507 -0.918 0.497241
329930640 -0.90401 0.516467
332804773 -0.891332 0.538778
335678906 -0.886679 0.564089
338553039 -0.877178 0.588063
341427172 -0.866857 0.610751
344301305 -0.85676 0.633695
347175438 -0.843748 0.655888
350049571 -0.825159 0.678628
352923704 -0.808374 0.701999
355797837 -0.787973 0.720197
358671970 -0.765064 0.742548
361546103 -0.742679 0.761996
364420236 -0.727058 0.789541
367294369 -0.707401 0.816269
370168502 -0.687852 0.841646
373042635 -0.666483 0.865048
375916768 -0.640632 0.888006
378790901 -0.614302 0.910634
381665034 -0.583691 0.928167
384539167 -0.55028 0.944237
387413300 -0.5132 0.959767
390287433 -0.475918 0.970544
393161566 -0.445194 0.998256
396035699 -0.411826 1.020309
398909832 -0.372896 1.045455
401783965 -0.329776 1.062999
404658098 -0.289096 1.077402
407532231 -0.244615 1.089049
410406364 -0.201771 1.098651
413280497 -0.151216 1.094917
416154630 -0.097289 1.094696
419028763 -0.043915 1.087885
421902896 0.01117 1.096482
424777029 0.070903 1.102445
427651162 0.128627 1.099154
430525295 0.188942 1.093288
433399428 0.247127 1.081721
436273561 0.308141 1.058704
439147694 0.369535 1.030401
442021827 0.424014 0.998929
444895960 0.477764 0.954153
447770093 0.526349 0.901298
450644226 0.592463 0.868187
453518359 0.652214 0.827443
456392492 0.707387 0.777522
459266625 0.753701 0.722268
462140758 0.802454 0.655995
465014891 0.840202 0.589438
467889024 0.867501 0.514862
470763157 0.888528 0.439653
473637290 0.895925 0.360493
476511423 0.896839 0.280413
479385556 0.913429 0.200505
482259689 0.926093 0.120418
485133822 0.927537 0.046598
488007955 0.921274 -0.033525
490882088 0.900808 -0.112301
493756221 0.874018 -0.183757
496630354 0.842264 -0.250828
499504487 0.803561 -0.314738
502378620 0.755446 -0.371493
505252753 0.706442 -0.419298
508126886 0.662228 -0.478904
511001019 0.625581 -0.532732
513875152 0.576647 -0.581338
516749285 0.528258 -0.622869
519623418 0.471889 -0.659926
522497551 0.419829 -0.688787
525371684 0.359923 -0.710239
528245817 0.305729 -0.726394
531119950 0.25087 -0.735792
533994083 0.19386 -0.740948
536868216 0.141705 -0.755043
539742349 0.089663 -0.771492
542616482 0.042309 -0.780529
545490615 -0.00422 -0.786273
548364748 -0.051352 -0.789212
551238881 -0.098324 -0.785875
554113014 -0.14028 -0.77978
556987147 -0.180336 -0.768433
559861280 -0.221903 -0.757688
562735413 -0.259459 -0.741429
565609546 -0.299661 -0.73131
568483679 -0.337495 -0.725367
571357812 -0.375921 -0.717638
574231945 -0.410091 -0.706292
577106078 -0.443203 -0.6944
579980211 -0.475687 -0.678792
582854344 -0.505842 -0.659721
585728477 -0.529799 -0.640238
588602610 -0.560033 -0.619706
591476743 -0.58185 -0.599364
594350876 -0.607875 -0.578882
597225009 -0.633652 -0.565364
600099142 -0.660897 -0.545943
602973275 -0.681294 -0.527825
605847408 -0.703145 -0.509472
608721541 -0.722591 -0.489943
611595674 -0.739434 -0.467115
614469807 -0.757728 -0.444486
617343940 -0.773728 -0.419793
620218073 -0.785724 -0.395771
623092206 -0.800152 -0.375426
625966339 -0.819504 -0.35532
628840472 -0.836728 -0.334439
631714605 -0.85083 -0.31497
634588738 -0.86566 -0.295184
637462871 -0.877927 -0.271355
640337004 -0.888279 -0.250209
643211137 -0.897044 -0.226422
646085270 -0.904508 -0.202408
648959403 -0.911003 -0.179181
651833536 -0.917743 -0.15656
654707669 -0.929963 -0.132148
657581802 -0.941042 -0.113296
660455935 -0.951935 -0.089076
663330068 -0.958937 -0.066635
666204201 -0.965693 -0.042194
669078334 -0.970255 -0.017859
671952467 -0.972014 0.007112
674826600 -0.974696 0.02989
677700733 -0.974829 0.057651
680574866 -0.972958 0.081251
683448999 -0.982741 0.108365
686323132 -0.986127 0.131149
689197265 -0.991833 0.154814
692071398 -0.9925 0.181728
694945531 -0.994792 0.205888
697819664 -0.992645 0.231215
700693797 -0.988875 0.259754
703567930 -0.98166 0.282293
706442063 -0.976582 0.308881
709316196 -0.966432 0.335597
712190329 -0.970904 0.333662
715064462 -0.966729 0.397474
717938595 -0.959526 0.42627
720812728 -0.955689 0.455285
723686861 -0.946918 0.483418
726560994 -0.937016 0.511659
729435127 -0.923797 0.541009
732309260 -0.90725 0.570637
735183393 -0.889218 0.599814
738057526 -0.865638 0.628839
740931659 -0.853047 0.663099
743805792 -0.834897 0.701401
746679925 -0.816286 0.734063
749554058 -0.795803 0.765634
752428191 -0.768145 0.799455
755302324 -0.737293 0.829806
758176457 -0.699127 0.862344
761050590 -0.659125 0.890189
763924723 -0.612858 0.916667
766798856 -0.561644 0.939788
769672989 -0.506784 0.975737
772547122 -0.449411 1.003152
775421255 -0.38264 1.031007
778295388 -0.306363 1.049765
781169521 -0.223032 1.05591
784043654 -0.129918 1.052443
786917787 -0.024942 1.034573
789791920 0.109122 0.981805
792666053 0.194492 0.919255
795540186 0.302734 0.815647
798414319 0.401028 0.692786
801288452 0.470709 0.534833
804162585 0.493117 0.343011
807036718 0.457837 0.140834
809910851 0.358447 -0.040972
812784984 0.201211 -0.185354
815659117 0.018078 -0.268186
818533250 -0.168722 -0.290795
821407383 -0.339999 -0.261617
824281516 -0.484184 -0.197706
827155649 -0.597894 -0.111362
830029782 -0.684872 -0.010136
832903915 -0.743248 0.093899
835778048 -0.779735 0.201757
838652181 -0.79351 0.304913
841526314 -0.792793 0.403857
844400447 -0.775014 0.493913
847274580 -0.744553 0.57676
850148713 -0.697308 0.651099
853022846 -0.649471 0.716845
855896979 -0.589256 0.779071
858771112 -0.523656 0.833156
861645245 -0.453302 0.878046
864519378 -0.372804 0.913301
867393511 -0.291187 0.929947
870267644 -0.206235 0.93039
873141777 -0.113125 0.916909
876015910 -0.027166 0.884679
878890043 0.052191 0.833505
881764176 0.122513 0.766523
884638309 0.183671 0.690807
887512442 0.224743 0.610022
890386575 0.250937 0.522225
893260708 0.253372 0.431631
896134841 0.23452 0.345747
899008974 0.200956 0.2674
901883107 0.148232 0.207607
904757240 0.090425 0.159812
907631373 0.026465 0.124365
910505506 -0.034895 0.103588
913379639 -0.09454 0.099963
916253772 -0.151334 0.103119
919127905 -0.200366 0.118518
922002038 -0.244847 0.140779
924876171 -0.281295 0.166087
927750304 -0.312231 0.197592
930624437 -0.336343 0.229122
933498570 -0.351839 0.263348
936372703 -0.363558 0.294417
939246836 -0.369356 0.324498
942120969 -0.368375 0.356083
944995102 -0.367169 0.389133
947869235 -0.360426 0.418305
950743368 -0.34961 0.445375
953617501 -0.337888 0.469506
956491634 -0.323468 0.489939
959365767 -0.30518 0.507146
962239900 -0.286186 0.523584
965114033 -0.269759 0.533928
967988166 -0.247545 0.542461
970862299 -0.226118 0.548468
973736432 -0.203422 0.557213
976610565 -0.185657 0.56641
979484698 -0.162428 0.569888
982358831 -0.145276 0.57042
985232964 -0.124227 0.568924
988107097 -0.109194 0.563706
990981230 -0.093529 0.560599
993855363 -0.07732 0.55038
996729496 -0.064049 0.538964
999603629 -0.052175 0.528601
1002477762 -0.036606 0.524333
1005351895 -0.021687 0.515648
1008226028 -0.013745 0.507252
1011100161 -0.004262 0.497245
1013974294 0.001791 0.487949
1016848427 0.009444 0.476641
1019722560 0.014482 0.466999
1022596693 0.019446 0.45615
1025470826 0.017597 0.446187
1028344959 0.01822 0.434211
1031219092 0.021746 0.429483
1034093225 0.026373 0.42214
1036967358 0.028259 0.413994
1039841491 0.026158 0.409923
1042715624 0.029992 0.402361
1045589757 0.030212 0.39919
1048463890 0.027569 0.389577
1051338023 0.029401 0.382382
1054212156 0.026572 0.376245
1057086289 0.053153 0.355494
1059960422 0.027269 0.365221
1062834555 0.029078 0.363507
1065708688 0.030336 0.361944
1068582821 0.031296 0.358891
1071456954 0.032885 0.356367
1074331087 0.034049 0.352045
1077205220 0.029175 0.348312
1080079353 0.030914 0.34424
1082953486 0.028454 0.338025
1085827619 0.028767 0.334468
1088701752 0.029163 0.334543
1091575885 0.028315 0.330931
1094450018 0.026566 0.325358
1097324151 0.025778 0.32195
1100198284 0.022153 0.319883
1103072417 0.020147 0.317654
1105946550 0.017737 0.312771
1108820683 0.011683 0.312151
1111694816 0.010444 0.308692
1114568949 0.003157 0.305456
1117443082 0.002366 0.303436
1120317215 0.003803 0.306556
1123191348 -0.000293 0.305837
1126065481 0.00099 0.310137
1128939614 -0.001826 0.314379
1131813747 -0.006649 0.316636
1134687880 -0.009034 0.320603
1137562013 -0.012302 0.32284
1140436146 -0.016353 0.325926
1143310279 -0.015449 0.329875
1146184412 -0.017776 0.336898
1149058545 -0.014325 0.342807
1151932678 -0.014767 0.352396
1154806811 -0.013176 0.356163
1157680944 -0.009111 0.366057
1160555077 -0.005728 0.3696
1163429210 -0.000614 0.378601
1166303343 -0.002349 0.380573
1169177476 0.005575 0.385488
1172051609 0.015426 0.377973
1174925742 0.015575 0.395594
1177799875 0.027662 0.406697
1180674008 0.03947 0.414047
1183548141 0.052624 0.41871
1186422274 0.062169 0.426975
1189296407 0.076393 0.431533
1192170540 0.104476 0.429741
1195044673 0.099473 0.43325
1197918806 0.112178 0.434636
1200792939 0.126155 0.430859
1203667072 0.140022 0.429405
1206541205 0.155932 0.43088
1209415338 0.172695 0.42743
1212289471 0.190643 0.421431
1215163604 0.199853 0.423015
1218037737 0.213449 0.412189
1220911870 0.225408 0.404287
1223786003 0.237131 0.392579
1226660136 0.245991 0.379649
1229534269 0.250264 0.365429
1232408402 0.260664 0.354388
1235282535 0.277895 0.347697
1238156668 0.292316 0.334765
1241030801 0.304828 0.321056
1243904934 0.309628 0.307391
1246779067 0.321462 0.296074
1249653200 0.325157 0.278581
1252527333 0.328625 0.265278
1255401466 0.32812 0.247876
1258275599 0.326438 0.235125
1261149732 0.326272 0.220983
1264023865 0.335287 0.200363
1266897998 0.337155 0.186872
1269772131 0.342796 0.170415
1272646264 0.339572 0.138265
1275520397 0.345346 0.143372
1278394530 0.338749 0.122612
1281268663 0.335093 0.108159
1284142796 0.331881 0.099087
1287016929 0.320052 0.083591
1289891062 0.317489 0.073632
1292765195 0.315967 0.060679
1295639328 0.312093 0.047812
1298513461 0.309774 0.038643
1301387594 0.302154 0.028274
1304261727 0.298884 0.019696
1307135860 0.291081 0.011288
1310009993 0.281986 0.006975
1312884126 0.275564 -0.001823
1315758259 0.262698 -0.00582
1318632392 0.255556 -0.014366
1321506525 0.25192 -0.022848
1324380658 0.246052 -0.029874
1327254791 0.243222 -0.037354
1330128924 0.241304 -0.039532
1333003057 0.232446 -0.04716
1335877190 0.229045 -0.046412
1338751323 0.221604 -0.047136
1341625456 0.212565 -0.052516
1344499589 0.205877 -0.055284
1347373722 0.198385 -0.055463
1350247855 0.193336 -0.06425
1353121988 0.187263 -0.068769
1355996121 0.189499 -0.071905
1358870254 0.184369 -0.07939
1361744387 0.180017 -0.082263
1364618520 0.176451 -0.084515
1367492653 0.171889 -0.088262
1370366786 0.164675 -0.09163
1373240919 0.157632 -0.091921
1376115052 0.153375 -0.095991
1378989185 0.148598 -0.104076
1381863318 0.146116 -0.108237
1384737451 0.144836 -0.117815
1387611584 0.139744 -0.118196
1390485717 0.137555 -0.124429
1393359850 0.12725 -0.128176
1396233983 0.12401 -0.131215
1399108116 0.114244 -0.133921
1401982249 0.109594 -0.13311
1404856382 0.101071 -0.137459
1407730515 0.09717 -0.14292
1410604648 0.089254 -0.149112
1413478781 0.082913 -0.153927
1416352914 0.080199 -0.156988
1419227047 0.072694 -0.162351
1422101180 0.065075 -0.164399
1424975313 0.05739 -0.162092
1427849446 0.049025 -0.163506
1430723579 0.039062 -0.161478
1433597712 0.03097 -0.159386
1436471845 0.02267 -0.164306
1439345978 0.014658 -0.165108
1442220111 0.009146 -0.164387
1445094244 0.002326 -0.164776
1447968377 -0.005489 -0.162642
1450842510 -0.011627 -0.158876
1453716643 -0.019727 -0.154542
1456590776 -0.025039 -0.148939
1459464909 -0.035631 -0.145113
1462339042 -0.03926 -0.137513
1465213175 -0.044618 -0.134306
1468087308 -0.048286 -0.130821
1470961441 -0.051158 -0.126952
1473835574 -0.053969 -0.122288
1476709707 -0.054911 -0.117103
1479583840 -0.055751 -0.108998
1482457973 -0.056762 -0.102616
1485332106 -0.057643 -0.097524
1488206239 -0.058729 -0.088805
1491080372 -0.05929 -0.081774
1493954505 -0.055559 -0.077009
1496828638 -0.052597 -0.076368
1499702771 -0.048305 -0.074483
1502576904 -0.043211 -0.069566
1505451037 -0.036826 -0.068098
1508325170 -0.032732 -0.066875
1511199303 -0.026111 -0.06613
1514073436 -0.024541 -0.066182
1516947569 -0.014389 -0.065256
1519821702 -0.010997 -0.063479
1522695835 -0.003503 -0.067156
1525569968 0.002904 -0.073786
1528444101 0.010879 -0.079741
1531318234 0.014894 -0.0876
1534192367 0.023883 -0.094199
1537066500 0.02476 -0.101967
1539940633 0.031557 -0.108294
1542814766 0.030519 -0.116582
1545688899 0.033156 -0.123566
1548563032 0.033018 -0.132559
1551437165 0.036075 -0.139906
1554311298 0.033938 -0.156323
1557185431 0.035591 -0.166937
1560059564 0.033907 -0.179251
1562933697 0.029596 -0.189189
1565807830 0.02572 -0.200869
1568681963 0.022352 -0.208968
1571556096 0.012003 -0.219078
1574430229 0.012653 -0.225881
1577304362 -0.002263 -0.231423
1580178495 -0.011829 -0.240359
1583052628 -0.021908 -0.252322
1585926761 -0.028137 -0.261467
1588800894 -0.038428 -0.27075
1591675027 -0.046937 -0.278023
1594549160 -0.057974 -0.284286
1597423293 -0.071533 -0.290205
1600297426 -0.029122 -0.28629
1603171559 -0.092887 -0.291129
1606045692 -0.108186 -0.293799
1608919825 -0.118593 -0.293141
1611793958 -0.13115 -0.298796
1614668091 -0.142428 -0.304655
1617542224 -0.153905 -0.308631
1620416357 -0.162505 -0.307285
1623290490 -0.146245 -0.298961
1626164623 -0.187812 -0.306491
1629038756 -0.204208 -0.301084
1631912889 -0.207608 -0.298748
1634787022 -0.218602 -0.294939
1637661155 -0.22667 -0.288841
1640535288 -0.242534 -0.288936
1643409421 -0.250582 -0.286624
1646283554 -0.258967 -0.284184
1649157687 -0.265816 -0.27851
1652031820 -0.274309 -0.271756
1654905953 -0.283229 -0.267426
1657780086 -0.289596 -0.260011
1660654219 -0.295562 -0.252084
1663528352 -0.299814 -0.241315
1666402485 -0.3068 -0.234505
1669276618 -0.313483 -0.234121
1672150751 -0.31784 -0.229266
1675024884 -0.323392 -0.224592
1677899017 -0.325101 -0.22092
1680773150 -0.328289 -0.214629
1683647283 -0.331449 -0.206885
1686521416 -0.333901 -0.202416
1689395549 -0.334006 -0.19525
1692269682 -0.331869 -0.19019
1695143815 -0.333382 -0.183759
1698017948 -0.33793 -0.181575
1700892081 -0.339858 -0.181667
1703766214 -0.343789 -0.17935
1706640347 -0.3435 -0.178791
1709514480 -0.347872 -0.175026
1712388613 -0.34398 -0.175524
1715262746 -0.34736 -0.170121
1718136879 -0.350566 -0.168851
1721011012 -0.349635 -0.166629
1723885145 -0.350677 -0.160763
1726759278 -0.354815 -0.164731
1729633411 -0.358319 -0.165442
1732507544 -0.360776 -0.167374
1735381677 -0.366191 -0.168609
1738255810 -0.369307 -0.167903
1741129943 -0.37467 -0.168345
1744004076 -0.376175 -0.166751
1746878209 -0.380029 -0.163154
1749752342 -0.382282 -0.159936
1752626475 -0.386059 -0.156147
1755500608 -0.390814 -0.157343
1758374741 -0.396712 -0.157848
1761248874 -0.406126 -0.158388
1764123007 -0.409462 -0.156395
1766997140 -0.41607 -0.155816
1769871273 -0.420441 -0.150113
1772745406 -0.426111 -0.147186
1775619539 -0.422288 -0.127463
1778493672 -0.432386 -0.135004
1781367805 -0.436625 -0.128566
1784241938 -0.442757 -0.124455
1787116071 -0.446829 -0.121804
1789990204 -0.453837 -0.12073
1792864337 -0.458009 -0.113967
1795738470 -0.46095 -0.11398
1798612603 -0.463531 -0.106082
1801486736 -0.464763 -0.102515
1804360869 -0.468711 -0.100911
1807235002 -0.46702 -0.092526
1810109135 -0.465712 -0.08189
1812983268 -0.469179 -0.081543
1815857401 -0.470999 -0.078959
1818731534 -0.473301 -0.077751
1821605667 -0.479786 -0.080284
1824479800 -0.476056 -0.073865
1827353933 -0.477865 -0.067553
1830228066 -0.475783 -0.066453
1833102199 -0.475919 -0.063692
1835976332 -0.473904 -0.063859
1838850465 -0.474016 -0.059786
1841724598 -0.476107 -0.058814
1844598731 -0.480057 -0.05922
1847472864 -0.485977 -0.056016
1850346997 -0.489688 -0.062355
1853221130 -0.493373 -0.06597
1856095263 -0.498224 -0.068788
1858969396 -0.503196 -0.066613
1861843529 -0.507408 -0.068251
1864717662 -0.511066 -0.069765
1867591795 -0.517794 -0.066681
1870465928 -0.523428 -0.068499
1873340061 -0.555165 -0.023921
1876214194 -0.546047 -0.070924
1879088327 -0.557978 -0.070133
1881962460 -0.568253 -0.069196
1884836593 -0.578124 -0.069016
1887710726 -0.588687 -0.063406
1890584859 -0.598489 -0.055921
1893458992 -0.605145 -0.056322
1896333125 -0.612008 -0.046242
1899207258 -0.626621 -0.03818
1902081391 -0.639949 -0.030363
1904955524 -0.652797 -0.02308
1907829657 -0.664176 -0.01524
1910703790 -0.673702 -0.007025
1913577923 -0.687322 0.007385
1916452056 -0.695077 0.016555
1919326189 -0.702176 0.032938
1922200322 -0.708964 0.04822
1925074455 -0.711415 0.060136
1927948588 -0.715867 0.075848
1930822721 -0.727857 0.094159
1933696854 -0.738457 0.102265
1936570987 -0.744899 0.122902
1939445120 -0.749136 0.133146
1942319253 -0.748655 0.151137
1945193386 -0.752597 0.17396
1948067519 -0.749953 0.188944
1950941652 -0.745018 0.203601
1953815785 -0.742257 0.218062
1956689918 -0.734442 0.239552
1959564051 -0.737033 0.255414
1962438184 -0.732318 0.273681
1965312317 -0.729257 0.289023
1968186450 -0.720703 0.298605
1971060583 -0.713199 0.315668
1973934716 -0.701942 0.328617
1976808849 -0.691162 0.339173
1979682982 -0.6743 0.348856
1982557115 -0.657211 0.356865
1985431248 -0.642073 0.36131
1988305381 -0.63648 0.367564
1991179514 -0.626477 0.369484
1994053647 -0.616554 0.367476
1996927780 -0.608508 0.360347
1999801913 -0.601608 0.357759
2002676046 -0.595758 0.347834
2005550179 -0.591392 0.336362
2008424312 -0.588002 0.324121
2011298445 -0.590792 0.313533
2014172578 -0.593359 0.300204
2017046711 -0.609238 0.296184
2019920844 -0.625993 0.294481
2022794977 -0.646401 0.288395
2025669110 -0.66718 0.286751
2028543243 -0.688365 0.294956
2031417376 -0.707974 0.29727
2034291509 -0.72776 0.3083
2037165642 -0.747667 0.320356
2040039775 -0.760802 0.332213
2042913908 -0.770788 0.358046
