# HZ S RI R 50
100000000 -0.31572 -0.905553 4.3e-05 6.1e-05 0 0 0 0
102874133 -0.347223 -0.899395 8.6e-05 5.7e-05 0 0 0 0
105748266 -0.39169 -0.882439 1.4e-05 5.2e-05 0 0 0 0
108622399 -0.442979 -0.845654 4.4e-05 5.7e-05 0 0 0 0
111496532 -0.435009 -0.871966 5.1e-05 0.000108 0 0 0 0
114370665 -0.483747 -0.836662 7.1e-05 5.5e-05 0 0 0 0
117244798 -0.483683 -0.845155 3.8e-05 7.9e-05 0 0 0 0
120118931 -0.50848 -0.82588 4.1e-05 4e-05 0 0 0 0
122993064 -0.532404 -0.810149 -2.8e-05 4.6e-05 0 0 0 0
125867197 -0.54956 -0.789946 4.3e-05 5.6e-05 0 0 0 0
128741330 -0.571856 -0.766789 2.8e-05 9.8e-05 0 0 0 0
131615463 -0.598265 -0.757242 5.4e-05 -1e-05 0 0 0 0
134489596 -0.621862 -0.743732 4.4e-05 -6e-06 0 0 0 0
137363729 -0.637631 -0.719545 6.9e-05 2.9e-05 0 0 0 0
140237862 -0.657103 -0.706387 6e-05 -3.2e-05 0 0 0 0
143111995 -0.676284 -0.691817 6e-06 2.9e-05 0 0 0 0
145986128 -0.693647 -0.675026 3.4e-05 6.6e-05 0 0 0 0
148860261 -0.709953 -0.657709 1e-05 4.2e-05 0 0 0 0
151734394 -0.724078 -0.637437 -8e-06 -2e-05 0 0 0 0
154608527 -0.737343 -0.617887 -9e-06 2.7e-05 0 0 0 0
157482660 -0.750463 -0.597013 0.000113 0.000253 0 0 0 0
160356793 -0.767404 -0.58177 8e-06 6.2e-05 0 0 0 0
163230926 -0.785742 -0.567214 -9.6e-05 9e-06 0 0 0 0
166105059 -0.801458 -0.55205 -4.1e-05 -4.4e-05 0 0 0 0
168979192 -0.815445 -0.535864 -9.6e-05 3.5e-05 0 0 0 0
171853325 -0.827848 -0.518575 -4.6e-05 9e-06 0 0 0 0
174727458 -0.838959 -0.500719 -4.6e-05 -9e-06 0 0 0 0
177601591 -0.848134 -0.483154 -3.8e-05 1.8e-05 0 0 0 0
180475724 -0.857363 -0.462678 -5.6e-05 7.5e-05 0 0 0 0
183349857 -0.863845 -0.441902 -0.000133 0.000102 0 0 0 0
186223990 -0.869619 -0.420765 -0.00014 0.000125 0 0 0 0
189098123 -0.881318 -0.403101 -8.2e-05 6.7e-05 0 0 0 0
191972256 -0.89426 -0.388032 -9e-05 6.2e-05 0 0 0 0
194846389 -0.906272 -0.371033 -0.000212 3.4e-05 0 0 0 0
197720522 -0.915868 -0.35486 -0.000182 5.4e-05 0 0 0 0
200594655 -0.924712 -0.336981 -0.000166 0.000106 0 0 0 0
203468788 -0.931807 -0.319579 -5.4e-05 0.000128 0 0 0 0
206342921 -0.936618 -0.301191 -0.000239 7.6e-05 0 0 0 0
209217054 -0.940292 -0.282891 -0.000146 0.000122 0 0 0 0
212091187 -0.942811 -0.263449 -0.000159 0.000135 0 0 0 0
214965320 -0.944385 -0.243896 -0.000285 9e-05 0 0 0 0
217839453 -0.951293 -0.225636 -0.000152 0.000102 0 0 0 0
220713586 -0.961247 -0.208629 -0.000348 0.000163 0 0 0 0
223587719 -0.968889 -0.19127 -0.000349 0.000206 0 0 0 0
226461852 -0.975414 -0.173858 -0.000269 0.000312 0 0 0 0
229335985 -0.98143 -0.15736 -0.000305 0.00012 0 0 0 0
232210118 -0.984733 -0.13953 -0.000438 0.000239 0 0 0 0
235084251 -0.987414 -0.122343 -0.00036 0.000222 0 0 0 0
237958384 -0.987993 -0.103785 -0.000319 0.000223 0 0 0 0
240832517 -0.987431 -0.086191 -0.000399 0.000262 0 0 0 0
243706650 -0.985771 -0.067339 -0.00034 0.000322 0 0 0 0
246580783 -0.989285 -0.048194 -0.00038 0.000351 0 0 0 0
249454916 -0.995156 -0.02981 -0.000509 0.000342 0 0 0 0
252329049 -0.999485 -0.012607 -0.000387 0.00036 0 0 0 0
255203182 -1.003046 0.006478 -0.000362 0.000424 0 0 0 0
258077315 -1.004941 0.024389 -0.000408 0.000422 0 0 0 0
260951448 -1.006073 0.042487 -0.000399 0.000438 0 0 0 0
263825581 -1.006202 0.060967 -0.000425 0.000368 0 0 0 0
266699714 -1.003684 0.079411 -0.0004 0.000463 0 0 0 0
269573847 -1.000013 0.096461 -0.000381 0.000467 0 0 0 0
272447980 -0.995352 0.116391 -0.00048 0.000474 0 0 0 0
275322113 -0.994905 0.135222 -0.000286 0.000547 0 0 0 0
278196246 -0.996693 0.154293 -0.000393 0.000474 0 0 0 0
281070379 -0.997679 0.174174 -0.000513 0.000614 0 0 0 0
283944512 -1.000059 0.19278 -0.00048 0.000756 0 0 0 0
286818645 -0.99865 0.21182 -0.000565 0.000816 0 0 0 0
289692778 -0.996583 0.23144 -0.000476 0.001053 0 0 0 0
292566911 -0.992767 0.251415 -0.000418 0.001123 0 0 0 0
295441044 -0.987941 0.270784 -0.000365 0.001047 0 0 0 0
298315177 -0.981887 0.290767 -0.000346 0.001053 0 0 0 0
301189310 -0.973175 0.310173 -8.2e-05 0.001025 0 0 0 0
304063443 -0.967673 0.328344 0.000185 0.000827 0 0 0 0
306937576 -0.966199 0.351248 0.000168 0.000985 0 0 0 0
309811709 -0.963387 0.373213 6.1e-05 0.000777 0 0 0 0
312685842 -0.960839 0.394065 -0.000104 0.000892 0 0 0 0
315559975 -0.956379 0.415265 1.2e-05 0.000356 0 0 0 0
318434108 -0.948109 0.434622 -0.000121 0.000704 0 0 0 0
321308241 -0.940504 0.454726 -0.000205 0.000525 0 0 0 0
324182374 -0.930433 0.476881 -0.000525 0.000844 0 0 0 0
327056507 -0.918 0.497241 -0.000317 0.000678 0 0 0 0
329930640 -0.90401 0.516467 -0.000527 0.000965 0 0 0 0
332804773 -0.891332 0.538778 -0.000565 0.000922 0 0 0 0
335678906 -0.886679 0.564089 -0.000605 0.001355 0 0 0 0
338553039 -0.877178 0.588063 -0.000475 0.000861 0 0 0 0
341427172 -0.866857 0.610751 -0.000455 0.000838 0 0 0 0
344301305 -0.85676 0.633695 -0.000506 0.00165 0 0 0 0
347175438 -0.843748 0.655888 -0.000578 0.001643 0 0 0 0
350049571 -0.825159 0.678628 -0.000571 0.001271 0 0 0 0
352923704 -0.808374 0.701999 -0.000706 0.001443 0 0 0 0
355797837 -0.787973 0.720197 -0.000433 0.001835 0 0 0 0
358671970 -0.765064 0.742548 -0.00066 0.002016 0 0 0 0
361546103 -0.742679 0.761996 -0.000326 0.001959 0 0 0 0
364420236 -0.727058 0.789541 -0.000277 0.001923 0 0 0 0
367294369 -0.707401 0.816269 -0.000222 0.002052 0 0 0 0
370168502 -0.687852 0.841646 -0.00019 0.001936 0 0 0 0
373042635 -0.666483 0.865048 5.4e-05 0.002074 0 0 0 0
375916768 -0.640632 0.888006 0.000136 0.002393 0 0 0 0
378790901 -0.614302 0.910634 -1.7e-05 0.002238 0 0 0 0
381665034 -0.583691 0.928167 1e-06 0.002083 0 0 0 0
384539167 -0.55028 0.944237 0.00029 0.002299 0 0 0 0
387413300 -0.5132 0.959767 0.0004 0.002263 0 0 0 0
390287433 -0.475918 0.970544 0.000255 0.002279 0 0 0 0
393161566 -0.445194 0.998256 0.000584 0.002296 0 0 0 0
396035699 -0.411826 1.020309 0.000479 0.002241 0 0 0 0
398909832 -0.372896 1.045455 0.000614 0.002287 0 0 0 0
401783965 -0.329776 1.062999 0.000603 0.002241 0 0 0 0
404658098 -0.289096 1.077402 0.000744 0.002336 0 0 0 0
407532231 -0.244615 1.089049 0.000818 0.002226 0 0 0 0
410406364 -0.201771 1.098651 0.001072 0.002291 0 0 0 0
413280497 -0.151216 1.094917 0.001378 0.002153 0 0 0 0
416154630 -0.097289 1.094696 0.000708 0.002058 0 0 0 0
419028763 -0.043915 1.087885 0.001189 0.002167 0 0 0 0
421902896 0.01117 1.096482 0.00108 0.002145 0 0 0 0
424777029 0.070903 1.102445 0.001362 0.002225 0 0 0 0
427651162 0.128627 1.099154 0.001608 0.002265 0 0 0 0
430525295 0.188942 1.093288 0.001483 0.00224 0 0 0 0
433399428 0.247127 1.081721 0.001811 0.002216 0 0 0 0
436273561 0.308141 1.058704 0.001796 0.00219 0 0 0 0
439147694 0.369535 1.030401 0.00177 0.002324 0 0 0 0
442021827 0.424014 0.998929 0.00218 0.00249 0 0 0 0
444895960 0.477764 0.954153 0.002026 0.00242 0 0 0 0
447770093 0.526349 0.901298 0.001984 0.002569 0 0 0 0
450644226 0.592463 0.868187 0.002187 0.002288 0 0 0 0
453518359 0.652214 0.827443 0.002519 0.002451 0 0 0 0
456392492 0.707387 0.777522 0.002637 0.002219 0 0 0 0
459266625 0.753701 0.722268 0.002858 0.001946 0 0 0 0
462140758 0.802454 0.655995 0.003028 0.002168 0 0 0 0
465014891 0.840202 0.589438 0.003166 0.002092 0 0 0 0
467889024 0.867501 0.514862 0.003041 0.002172 0 0 0 0
470763157 0.888528 0.439653 0.003284 0.002019 0 0 0 0
473637290 0.895925 0.360493 0.003403 0.002036 0 0 0 0
476511423 0.896839 0.280413 0.003641 0.001855 0 0 0 0
479385556 0.913429 0.200505 0.003722 0.001599 0 0 0 0
482259689 0.926093 0.120418 0.003837 0.001553 0 0 0 0
485133822 0.927537 0.046598 0.004054 0.001481 0 0 0 0
488007955 0.921274 -0.033525 0.004086 0.001223 0 0 0 0
490882088 0.900808 -0.112301 0.004223 0.001284 0 0 0 0
493756221 0.874018 -0.183757 0.004343 0.000963 0 0 0 0
496630354 0.842264 -0.250828 0.004579 0.000911 0 0 0 0
499504487 0.803561 -0.314738 0.004581 0.000697 0 0 0 0
502378620 0.755446 -0.371493 0.004651 0.0005 0 0 0 0
505252753 0.706442 -0.419298 0.004667 0.00049 0 0 0 0
508126886 0.662228 -0.478904 0.004771 0.000121 0 0 0 0
511001019 0.625581 -0.532732 0.00472 -0.000291 0 0 0 0
513875152 0.576647 -0.581338 0.004932 -0.000244 0 0 0 0
516749285 0.528258 -0.622869 0.004918 -0.000687 0 0 0 0
519623418 0.471889 -0.659926 0.004741 -0.000656 0 0 0 0
522497551 0.419829 -0.688787 0.00465 -0.000858 0 0 0 0
525371684 0.359923 -0.710239 0.004522 -0.001142 0 0 0 0
528245817 0.305729 -0.726394 0.004439 -0.00139 0 0 0 0
531119950 0.25087 -0.735792 0.00433 -0.001537 0 0 0 0
533994083 0.19386 -0.740948 0.004542 -0.001722 0 0 0 0
536868216 0.141705 -0.755043 0.00415 -0.001773 0 0 0 0
539742349 0.089663 -0.771492 0.004403 -0.001862 0 0 0 0
542616482 0.042309 -0.780529 0.004215 -0.002081 0 0 0 0
545490615 -0.00422 -0.786273 0.003933 -0.002267 0 0 0 0
548364748 -0.051352 -0.789212 0.003927 -0.002452 0 0 0 0
551238881 -0.098324 -0.785875 0.003722 -0.002635 0 0 0 0
554113014 -0.14028 -0.77978 0.003892 -0.002845 0 0 0 0
556987147 -0.180336 -0.768433 0.003525 -0.002806 0 0 0 0
559861280 -0.221903 -0.757688 0.0035 -0.003013 0 0 0 0
562735413 -0.259459 -0.741429 0.003346 -0.003222 0 0 0 0
565609546 -0.299661 -0.73131 0.003056 -0.003256 0 0 0 0
568483679 -0.337495 -0.725367 0.002955 -0.003231 0 0 0 0
571357812 -0.375921 -0.717638 0.002824 -0.003599 0 0 0 0
574231945 -0.410091 -0.706292 0.003014 -0.003531 0 0 0 0
577106078 -0.443203 -0.6944 0.002225 -0.00366 0 0 0 0
579980211 -0.475687 -0.678792 0.002274 -0.003694 0 0 0 0
582854344 -0.505842 -0.659721 0.002112 -0.003973 0 0 0 0
585728477 -0.529799 -0.640238 0.00198 -0.003595 0 0 0 0
588602610 -0.560033 -0.619706 0.001702 -0.003985 0 0 0 0
591476743 -0.58185 -0.599364 0.001543 -0.003873 0 0 0 0
594350876 -0.607875 -0.578882 0.001069 -0.003654 0 0 0 0
597225009 -0.633652 -0.565364 0.001083 -0.003585 0 0 0 0
600099142 -0.660897 -0.545943 0.001359 -0.004013 0 0 0 0
602973275 -0.681294 -0.527825 0.001183 -0.003735 0 0 0 0
605847408 -0.703145 -0.509472 0.000689 -0.00413 0 0 0 0
608721541 -0.722591 -0.489943 0.001046 -0.00392 0 0 0 0
611595674 -0.739434 -0.467115 0.000585 -0.003967 0 0 0 0
614469807 -0.757728 -0.444486 0.00058 -0.003856 0 0 0 0
617343940 -0.773728 -0.419793 0.000465 -0.004017 0 0 0 0
620218073 -0.785724 -0.395771 -0.000143 -0.003924 0 0 0 0
623092206 -0.800152 -0.375426 -0.000133 -0.003772 0 0 0 0
625966339 -0.819504 -0.35532 -0.000143 -0.003632 0 0 0 0
628840472 -0.836728 -0.334439 -0.000322 -0.003468 0 0 0 0
631714605 -0.85083 -0.31497 -0.00055 -0.003579 0 0 0 0
634588738 -0.86566 -0.295184 -0.000574 -0.003566 0 0 0 0
637462871 -0.877927 -0.271355 -0.000976 -0.003284 0 0 0 0
640337004 -0.888279 -0.250209 -0.000901 -0.003362 0 0 0 0
643211137 -0.897044 -0.226422 -0.001008 -0.003796 0 0 0 0
646085270 -0.904508 -0.202408 -0.001219 -0.003648 0 0 0 0
648959403 -0.911003 -0.179181 -0.001352 -0.003411 0 0 0 0
651833536 -0.917743 -0.15656 -0.001574 -0.00342 0 0 0 0
654707669 -0.929963 -0.132148 -0.001344 -0.003134 0 0 0 0
657581802 -0.941042 -0.113296 -0.001896 -0.002938 0 0 0 0
660455935 -0.951935 -0.089076 -0.001653 -0.002976 0 0 0 0
663330068 -0.958937 -0.066635 -0.001766 -0.002822 0 0 0 0
666204201 -0.965693 -0.042194 -0.001989 -0.003062 0 0 0 0
669078334 -0.970255 -0.017859 -0.001953 -0.002441 0 0 0 0
671952467 -0.972014 0.007112 -0.002843 -0.002734 0 0 0 0
674826600 -0.974696 0.02989 -0.002533 -0.003073 0 0 0 0
677700733 -0.974829 0.057651 -0.002622 -0.002534 0 0 0 0
680574866 -0.972958 0.081251 -0.002808 -0.002541 0 0 0 0
683448999 -0.982741 0.108365 -0.003132 -0.002438 0 0 0 0
686323132 -0.986127 0.131149 -0.003039 -0.002441 0 0 0 0
689197265 -0.991833 0.154814 -0.003106 -0.002475 0 0 0 0
692071398 -0.9925 0.181728 -0.003224 -0.002589 0 0 0 0
694945531 -0.994792 0.205888 -0.003441 -0.00244 0 0 0 0
697819664 -0.992645 0.231215 -0.00358 -0.002417 0 0 0 0
700693797 -0.988875 0.259754 -0.00377 -0.002315 0 0 0 0
703567930 -0.98166 0.282293 -0.003998 -0.002171 0 0 0 0
706442063 -0.976582 0.308881 -0.004003 -0.002088 0 0 0 0
709316196 -0.966432 0.335597 -0.004126 -0.002141 0 0 0 0
712190329 -0.970904 0.333662 -0.004296 -0.001844 0 0 0 0
715064462 -0.966729 0.397474 -0.004628 -0.001776 0 0 0 0
717938595 -0.959526 0.42627 -0.004782 -0.001752 0 0 0 0
720812728 -0.955689 0.455285 -0.005091 -0.001612 0 0 0 0
723686861 -0.946918 0.483418 -0.005258 -0.001473 0 0 0 0
726560994 -0.937016 0.511659 -0.00546 -0.001327 0 0 0 0
729435127 -0.923797 0.541009 -0.005615 -0.001181 0 0 0 0
732309260 -0.90725 0.570637 -0.005748 -0.001011 0 0 0 0
735183393 -0.889218 0.599814 -0.005981 -0.000966 0 0 0 0
738057526 -0.865638 0.628839 -0.006184 -0.000868 0 0 0 0
740931659 -0.853047 0.663099 -0.006429 -0.000714 0 0 0 0
743805792 -0.834897 0.701401 -0.006786 -0.000493 0 0 0 0
746679925 -0.816286 0.734063 -0.006922 -0.000233 0 0 0 0
749554058 -0.795803 0.765634 -0.007139 4.7e-05 0 0 0 0
752428191 -0.768145 0.799455 -0.007331 0.000229 0 0 0 0
755302324 -0.737293 0.829806 -0.007375 0.000489 0 0 0 0
758176457 -0.699127 0.862344 -0.007397 0.000764 0 0 0 0
761050590 -0.659125 0.890189 -0.007401 0.001013 0 0 0 0
763924723 -0.612858 0.916667 -0.007297 0.001283 0 0 0 0
766798856 -0.561644 0.939788 -0.00704 0.001384 0 0 0 0
769672989 -0.506784 0.975737 -0.00656 0.001488 0 0 0 0
772547122 -0.449411 1.003152 -0.006108 0.00137 0 0 0 0
775421255 -0.38264 1.031007 -0.005449 0.001199 0 0 0 0
778295388 -0.306363 1.049765 -0.00445 0.000639 0 0 0 0
781169521 -0.223032 1.05591 -0.003358 -0.00028 0 0 0 0
784043654 -0.129918 1.052443 -0.002263 -0.001748 0 0 0 0
786917787 -0.024942 1.034573 -0.001087 -0.003942 0 0 0 0
789791920 0.109122 0.981805 0.000189 -0.006909 0 0 0 0
792666053 0.194492 0.919255 0.001268 -0.010874 0 0 0 0
795540186 0.302734 0.815647 0.001843 -0.016057 0 0 0 0
798414319 0.401028 0.692786 0.00164 -0.022877 0 0 0 0
801288452 0.470709 0.534833 -0.000176 -0.031592 0 0 0 0
804162585 0.493117 0.343011 -0.004132 -0.041964 0 0 0 0
807036718 0.457837 0.140834 -0.012097 -0.053556 0 0 0 0
809910851 0.358447 -0.040972 -0.023824 -0.065588 0 0 0 0
812784984 0.201211 -0.185354 -0.042184 -0.076076 0 0 0 0
815659117 0.018078 -0.268186 -0.064859 -0.083032 0 0 0 0
818533250 -0.168722 -0.290795 -0.090092 -0.0853 0 0 0 0
821407383 -0.339999 -0.261617 -0.119756 -0.078639 0 0 0 0
824281516 -0.484184 -0.197706 -0.146968 -0.063832 0 0 0 0
827155649 -0.597894 -0.111362 -0.171203 -0.042352 0 0 0 0
830029782 -0.684872 -0.010136 -0.191993 -0.016024 0 0 0 0
832903915 -0.743248 0.093899 -0.206079 0.011924 0 0 0 0
835778048 -0.779735 0.201757 -0.216409 0.043035 0 0 0 0
838652181 -0.79351 0.304913 -0.220706 0.072732 0 0 0 0
841526314 -0.792793 0.403857 -0.222928 0.102518 0 0 0 0
844400447 -0.775014 0.493913 -0.222003 0.13232 0 0 0 0
847274580 -0.744553 0.57676 -0.21829 0.161007 0 0 0 0
850148713 -0.697308 0.651099 -0.211772 0.191292 0 0 0 0
853022846 -0.649471 0.716845 -0.202336 0.220774 0 0 0 0
855896979 -0.589256 0.779071 -0.19311 0.252476 0 0 0 0
858771112 -0.523656 0.833156 -0.179594 0.285059 0 0 0 0
861645245 -0.453302 0.878046 -0.162936 0.318839 0 0 0 0
864519378 -0.372804 0.913301 -0.143124 0.352027 0 0 0 0
867393511 -0.291187 0.929947 -0.118568 0.385978 0 0 0 0
870267644 -0.206235 0.93039 -0.088201 0.419579 0 0 0 0
873141777 -0.113125 0.916909 -0.051934 0.452244 0 0 0 0
876015910 -0.027166 0.884679 -0.009219 0.482057 0 0 0 0
878890043 0.052191 0.833505 0.03999 0.509285 0 0 0 0
881764176 0.122513 0.766523 0.092994 0.532729 0 0 0 0
884638309 0.183671 0.690807 0.154514 0.550875 0 0 0 0
887512442 0.224743 0.610022 0.223564 0.563384 0 0 0 0
890386575 0.250937 0.522225 0.2986 0.566394 0 0 0 0
893260708 0.253372 0.431631 0.375747 0.557507 0 0 0 0
896134841 0.23452 0.345747 0.455053 0.534354 0 0 0 0
899008974 0.200956 0.2674 0.53298 0.500472 0 0 0 0
901883107 0.148232 0.207607 0.604935 0.452922 0 0 0 0
904757240 0.090425 0.159812 0.670825 0.39481 0 0 0 0
907631373 0.026465 0.124365 0.726467 0.319834 0 0 0 0
910505506 -0.034895 0.103588 0.770768 0.247027 0 0 0 0
913379639 -0.09454 0.099963 0.804026 0.166571 0 0 0 0
916253772 -0.151334 0.103119 0.828462 0.082192 0 0 0 0
919127905 -0.200366 0.118518 0.841315 -0.001964 0 0 0 0
922002038 -0.244847 0.140779 0.845297 -0.084817 0 0 0 0
924876171 -0.281295 0.166087 0.835174 -0.16501 0 0 0 0
927750304 -0.312231 0.197592 0.817034 -0.240443 0 0 0 0
930624437 -0.336343 0.229122 0.7923 -0.31257 0 0 0 0
933498570 -0.351839 0.263348 0.760656 -0.376259 0 0 0 0
936372703 -0.363558 0.294417 0.726223 -0.434461 0 0 0 0
939246836 -0.369356 0.324498 0.681087 -0.490989 0 0 0 0
942120969 -0.368375 0.356083 0.637266 -0.542215 0 0 0 0
944995102 -0.367169 0.389133 0.59767 -0.585499 0 0 0 0
947869235 -0.360426 0.418305 0.551906 -0.628225 0 0 0 0
950743368 -0.34961 0.445375 0.505515 -0.663266 0 0 0 0
953617501 -0.337888 0.469506 0.45574 -0.696166 0 0 0 0
956491634 -0.323468 0.489939 0.406001 -0.726261 0 0 0 0
959365767 -0.30518 0.507146 0.354788 -0.751993 0 0 0 0
962239900 -0.286186 0.523584 0.303201 -0.768346 0 0 0 0
965114033 -0.269759 0.533928 0.25361 -0.785646 0 0 0 0
967988166 -0.247545 0.542461 0.202781 -0.794346 0 0 0 0
970862299 -0.226118 0.548468 0.153628 -0.802806 0 0 0 0
973736432 -0.203422 0.557213 0.102183 -0.816222 0 0 0 0
976610565 -0.185657 0.56641 0.056025 -0.821032 0 0 0 0
979484698 -0.162428 0.569888 0.007687 -0.824512 0 0 0 0
982358831 -0.145276 0.57042 -0.044852 -0.825025 0 0 0 0
985232964 -0.124227 0.568924 -0.094072 -0.821368 0 0 0 0
988107097 -0.109194 0.563706 -0.13896 -0.813573 0 0 0 0
990981230 -0.093529 0.560599 -0.183904 -0.803686 0 0 0 0
993855363 -0.07732 0.55038 -0.24394 -0.784555 0 0 0 0
996729496 -0.064049 0.538964 -0.272845 -0.774807 0 0 0 0
999603629 -0.052175 0.528601 -0.314481 -0.755765 0 0 0 0
1002477762 -0.036606 0.524333 -0.359098 -0.739386 0 0 0 0
1005351895 -0.021687 0.515648 -0.400959 -0.719857 0 0 0 0
1008226028 -0.013745 0.507252 -0.438552 -0.700617 0 0 0 0
1011100161 -0.004262 0.497245 -0.479315 -0.67463 0 0 0 0
1013974294 0.001791 0.487949 -0.514871 -0.649363 0 0 0 0
1016848427 0.009444 0.476641 -0.546046 -0.62091 0 0 0 0
1019722560 0.014482 0.466999 -0.577664 -0.59015 0 0 0 0
1022596693 0.019446 0.45615 -0.607388 -0.55627 0 0 0 0
1025470826 0.017597 0.446187 -0.630303 -0.528753 0 0 0 0
1028344959 0.01822 0.434211 -0.656028 -0.489876 0 0 0 0
1031219092 0.021746 0.429483 -0.681383 -0.4617 0 0 0 0
1034093225 0.026373 0.42214 -0.705632 -0.42877 0 0 0 0
1036967358 0.028259 0.413994 -0.727105 -0.394495 0 0 0 0
1039841491 0.026158 0.409923 -0.746515 -0.361209 0 0 0 0
1042715624 0.029992 0.402361 -0.764363 -0.32272 0 0 0 0
1045589757 0.030212 0.39919 -0.780675 -0.284526 0 0 0 0
1048463890 0.027569 0.389577 -0.791901 -0.250857 0 0 0 0
1051338023 0.029401 0.382382 -0.804759 -0.209686 0 0 0 0
1054212156 0.026572 0.376245 -0.808149 -0.174302 0 0 0 0
1057086289 0.053153 0.355494 -0.818148 -0.109978 0 0 0 0
1059960422 0.027269 0.365221 -0.824373 -0.099154 0 0 0 0
1062834555 0.029078 0.363507 -0.835073 -0.057825 0 0 0 0
1065708688 0.030336 0.361944 -0.839842 -0.02221 0 0 0 0
1068582821 0.031296 0.358891 -0.842212 0.018642 0 0 0 0
1071456954 0.032885 0.356367 -0.843491 0.057027 0 0 0 0
1074331087 0.034049 0.352045 -0.824206 0.175892 0 0 0 0
1077205220 0.029175 0.348312 -0.839081 0.138491 0 0 0 0
1080079353 0.030914 0.34424 -0.830634 0.182535 0 0 0 0
1082953486 0.028454 0.338025 -0.823604 0.222813 0 0 0 0
1085827619 0.028767 0.334468 -0.808405 0.261952 0 0 0 0
1088701752 0.029163 0.334543 -0.803729 0.298554 0 0 0 0
1091575885 0.028315 0.330931 -0.793579 0.338203 0 0 0 0
1094450018 0.026566 0.325358 -0.781864 0.377852 0 0 0 0
1097324151 0.025778 0.32195 -0.768984 0.41395 0 0 0 0
1100198284 0.022153 0.319883 -0.750229 0.45013 0 0 0 0
1103072417 0.020147 0.317654 -0.72971 0.486903 0 0 0 0
1105946550 0.017737 0.312771 -0.706376 0.522965 0 0 0 0
1108820683 0.011683 0.312151 -0.683922 0.549941 0 0 0 0
1111694816 0.010444 0.308692 -0.655341 0.583256 0 0 0 0
1114568949 0.003157 0.305456 -0.624596 0.611001 0 0 0 0
1117443082 0.002366 0.303436 -0.594952 0.646138 0 0 0 0
1120317215 0.003803 0.306556 -0.568515 0.674125 0 0 0 0
1123191348 -0.000293 0.305837 -0.535241 0.703767 0 0 0 0
1126065481 0.00099 0.310137 -0.502587 0.727486 0 0 0 0
1128939614 -0.001826 0.314379 -0.467378 0.749687 0 0 0 0
