# HZ S RI R 50
100000000 0.8594505941820384 -0.5216495317357631
102874133 0.855535303473924 -0.5329065346698055
105748266 0.8485226040938673 -0.5489944970068118
108622399 0.8417371749154745 -0.56395916925458
111496532 0.8072077647180576 -0.599569728685394
114370665 0.8299479530546956 -0.5891303507971056
117244798 0.8167489227695903 -0.6001394333542112
120118931 0.8334584674086912 -0.5839787793796581
122993064 0.7635274549003485 -0.6410567463675868
125867197 0.7792335677071501 -0.6250551505974383
128741330 0.7692411347025903 -0.635096916728834
131615463 0.7561138863675925 -0.6522394808550732
134489596 0.7553507495159785 -0.6724594532718307
137363729 0.7273024812696809 -0.6820685102502282
140237862 0.7205762262106621 -0.6971834062153235
143111995 0.7155547437574094 -0.7079462634630317
145986128 0.7026366776404955 -0.7205662273006737
148860261 0.690897582128454 -0.7300926074561063
151734394 0.6798656024396542 -0.7394680462902816
154608527 0.6668883376258186 -0.7486092184181758
157482660 0.6522615775384861 -0.7567223401664612
160356793 0.6394519004034998 -0.7718666521461804
163230926 0.6344917779827758 -0.783870361680588
166105059 0.6257146310315902 -0.7978917398833006
168979192 0.6132733230999329 -0.8095195749220432
171853325 0.5994333153556951 -0.820088769645506
174727458 0.588199599311325 -0.8282741305171837
177601591 0.5746114368575416 -0.8358084057165921
180475724 0.5576323613082745 -0.8406829874731365
183349857 0.5399472615087019 -0.8465776104092604
186223990 0.5221381805016487 -0.850851632382772
189098123 0.5097970975444609 -0.8631374021326172
191972256 0.5004557374641472 -0.8769004305799015
194846389 0.4898026771934743 -0.8884780548297776
197720522 0.47751792628052236 -0.8978851863516568
200594655 0.4648319849212176 -0.9085595604153868
203468788 0.45217798710688467 -0.9145164272116527
206342921 0.41881015833916946 -0.9260169805062538
209217054 0.4013909240013831 -0.9282757915589073
212091187 0.40149291276098437 -0.9257761491357943
214965320 0.39848140222685036 -0.9193547706540294
217839453 0.3662428667610233 -0.9334182475367981
220713586 0.3389667415326586 -0.9517331755842767
223587719 0.34060024558424784 -0.9579228166031697
226461852 0.3446322720344689 -0.962179324746879
229335985 0.329939423726743 -0.9699858014016827
232210118 0.29789295200946664 -0.9782762680393947
235084251 0.28052495772049685 -0.9799819734877339
237958384 0.2632364741299811 -0.9806194742220938
240832517 0.24533952583948793 -0.9800964648160176
243706650 0.22647986014828697 -0.9763571321274876
246580783 0.2088721325958562 -0.9811978292545591
249454916 0.19443194909912265 -0.9914321957040311
252329049 0.1789773758243769 -0.999873169894572
255203182 0.1636806206429972 -1.0092157336763647
258077315 0.14758975457816628 -1.01242061491139
260951448 0.1314358880299646 -1.0144461955051014
263825581 0.1148088777971937 -1.015977120087332
266699714 0.09672773027423881 -1.0111482237639515
269573847 0.08085334040757339 -1.0068013915261227
272447980 0.06310916486955367 -1.0005887323838238
275322113 0.04532483863992198 -1.0001660942994746
278196246 0.026472036120901293 -1.0090317358104322
281070379 0.010824505795151762 -1.0158685852354579
283944512 -0.0032253589991472487 -1.0190553129758593
286818645 -0.02165529002651137 -1.0198611954427266
289692778 -0.037444572926247366 -1.0201324793708761
292566911 -0.05316683591166248 -1.0154405548057168
295441044 -0.06967810253032906 -1.0112829184341903
298315177 -0.08302751433308538 -1.0020719933780553
301189310 -0.09826430872747327 -0.9939424417874065
304063443 -0.11782564416626301 -0.9902864093568109
306937576 -0.13679038720850425 -0.9940137943974156
309811709 -0.15589079514665302 -0.9972712366926785
312685842 -0.17145460242917224 -0.9986847521149276
315559975 -0.1898687103879285 -0.9978972104583842
318434108 -0.20609471115174022 -0.9961802584272993
321308241 -0.22005355047713948 -0.9905875723465366
324182374 -0.23596157951221897 -0.9835711338703971
327056507 -0.2514387546487731 -0.9745329342847652
329930640 -0.2631851534975471 -0.9649610384779649
332804773 -0.2801251576749667 -0.9546200105474298
335678906 -0.2976613036988518 -0.9553509542342541
338553039 -0.3171772653725038 -0.9572880876626536
341427172 -0.3329597135341626 -0.9514276923320281
344301305 -0.35110142718555976 -0.9500603034425043
347175438 -0.36891088257178195 -0.9457433766028229
350049571 -0.3828267006458024 -0.9361357454966931
352923704 -0.39793646254433523 -0.9259425133898438
355797837 -0.41144954161622616 -0.9161439298040441
358671970 -0.425611087483002 -0.8997442066840645
361546103 -0.4406969189640061 -0.8877624534934063
364420236 -0.4589688111432977 -0.8873949257995044
367294369 -0.47807283889864916 -0.8821642972714245
370168502 -0.49363243238919435 -0.879141878253179
373042635 -0.512036138047107 -0.8729397334981401
375916768 -0.526798334070634 -0.8634510828092143
378790901 -0.5407132894781859 -0.8537077623623202
381665034 -0.5543317897699862 -0.8405598120612262
384539167 -0.5669396857869965 -0.8299933647504308
387413300 -0.5772342403600346 -0.8149194080103712
390287433 -0.5888475366393735 -0.8030925399900947
393161566 -0.6085496247941231 -0.7926852788389173
396035699 -0.62351180780252 -0.7882104956519124
398909832 -0.6630066800872871 -0.7457185165701825
401783965 -0.6568107941743435 -0.7669781111538113
404658098 -0.6694592058317735 -0.7555027162367393
407532231 -0.6820553455411968 -0.7410611557217655
410406364 -0.6947703686955348 -0.7260557640737182
413280497 -0.7024010782329351 -0.7133282383217492
416154630 -0.7118990624119831 -0.6937449228044408
419028763 -0.7191957634000186 -0.6742476708394808
421902896 -0.7378485723219672 -0.664625665224745
424777029 -0.7536565270361354 -0.6567371547132315
427651162 -0.7597707364531038 -0.6750816912274458
430525295 -0.7857037319577708 -0.6317965294045477
433399428 -0.7963106679251755 -0.6209436991149528
436273561 -0.8080665631347579 -0.60437855022542
439147694 -0.8147794403344477 -0.5918174399029518
442021827 -0.8216798256073531 -0.5744108207884578
444895960 -0.8299314489067506 -0.5551235997068953
447770093 -0.8320415382858826 -0.5355851967445162
450644226 -0.8474620541406007 -0.522269968526617
453518359 -0.864141440569371 -0.5084690678622369
456392492 -0.8775278787092345 -0.4924396571693542
459266625 -0.8883989094684457 -0.4793049727003429
462140758 -0.8979777549380101 -0.46203629360959403
465014891 -0.9051002612639973 -0.44546580576722605
467889024 -0.910077417730376 -0.4263741665371046
470763157 -0.9127282989147814 -0.40449392651080657
473637290 -0.9156487656894708 -0.3845912833273117
476511423 -0.9163763325948482 -0.36208113100521583
479385556 -0.9297609789809445 -0.3464611546918295
482259689 -0.9419664929546341 -0.3291216979427933
485133822 -0.9538177384427533 -0.3132914546870875
488007955 -0.9631639796610846 -0.2967495754528078
490882088 -0.9716912077150196 -0.27819592036247864
493756221 -0.9737218981806249 -0.259600176094934
496630354 -0.9777538989570987 -0.2401770890222286
499504487 -0.978856842025115 -0.21805646544099305
502378620 -0.9769689951735916 -0.19759506857840053
505252753 -0.9735808941823069 -0.17533113100410824
508126886 -0.9805351664719139 -0.156195767426317
511001019 -0.9902652649053428 -0.13754405946441706
513875152 -0.9994607325667664 -0.11984135372275567
516749285 -1.0044864038495616 -0.09966966982676168
519623418 -1.0071413245899379 -0.07867430322046409
522497551 -1.0097369899778588 -0.05902562406661843
525371684 -1.006396495449905 -0.03729013985156859
528245817 -1.0024249928230478 -0.020220960158027768
531119950 -0.997269938534884 -0.0010494568256806391
533994083 -0.9923516299650362 0.021199454420707697
536868216 -0.9935686230237286 0.03882244654490308
539742349 -0.9966738349935138 0.06473825543156267
542616482 -0.9997750920702229 0.0843528426372073
545490615 -1.0028326156142027 0.10712628669648319
548364748 -1.0012809718495126 0.1292413717897472
551238881 -0.9974282763474023 0.14911446234235615
554113014 -0.9961844333959745 0.16842850981214919
556987147 -0.985711606690076 0.18679158980390187
559861280 -0.9762538052088302 0.2124394613255256
562735413 -0.962864700704325 0.2308182562917648
565609546 -0.9584431637152482 0.25325986110022625
568483679 -0.9603520040816287 0.27914664301832426
571357812 -0.9588480943432649 0.2967496855875156
574231945 -0.954582358821087 0.31814152513082833
577106078 -0.9492980838982301 0.34178726863379333
579980211 -0.9421404291453594 0.35886978471696146
582854344 -0.9351730794773262 0.3774313318762688
585728477 -0.9188635511395014 0.39741318712305584
588602610 -0.9069763191130292 0.4157582817710077
591476743 -0.8921818550855456 0.4329821818286689
594350876 -0.8782297214711587 0.45435564389769734
597225009 -0.8777711745082999 0.47552936564245907
600099142 -0.8684880078253285 0.49702093614715265
602973275 -0.8591653363888846 0.5220282342563232
605847408 -0.8498649659524208 0.5404002672942443
608721541 -0.8381138558722758 0.5570646733189119
611595674 -0.8244303345457514 0.5772619918639892
614469807 -0.806488803248506 0.5938934179790113
617343940 -0.7899308024730143 0.6088207945810817
620218073 -0.7691427235166218 0.6242448879337605
623092206 -0.7532535383615719 0.6411883009192945
625966339 -0.7404843483328452 0.6652288157890347
628840472 -0.7303219158904364 0.6853896016975469
631714605 -0.7148553678017525 0.7033838694191255
634588738 -0.695293370838914 0.724083095112336
637462871 -0.681138452129061 0.7389713396581947
640337004 -0.6570757166124952 0.756962652638937
643211137 -0.6387012748175038 0.7697192506826729
646085270 -0.6168924102897589 0.7767390378865295
648959403 -0.5921376970742522 0.7895311942796188
651833536 -0.5688168243904332 0.7991882715282944
654707669 -0.5521079680596409 0.8205335391701272
657581802 -0.5333557198820479 0.8419233806196991
660455935 -0.5150430722155442 0.8547672927076548
663330068 -0.49129346400774065 0.8717532545229039
666204201 -0.4704740420213275 0.8842175582706523
669078334 -0.44761969357978615 0.8948899508456549
671952467 -0.4225261648988021 0.9016285543997097
674826600 -0.41484299834409843 0.9039530194085743
677700733 -0.36983181857856706 0.9151122490584801
680574866 -0.3354402639188378 0.9220787019002556
683448999 -0.31952198853994435 0.9333119506443062
686323132 -0.29388035690106434 0.9481142531761154
689197265 -0.26739913589141107 0.9600165832992296
692071398 -0.24378740543162208 0.9678453851529788
694945531 -0.21561040792836061 0.9731387579096652
697819664 -0.18816454220262563 0.9736607302400955
700693797 -0.15887375516322194 0.9789701708966094
703567930 -0.12987535839996517 0.9755289206714891
706442063 -0.10457714534297996 0.974111193321334
709316196 -0.06577405908191097 0.9614034463787247
712190329 -0.045479411645304 0.9749334460533174
715064462 -0.009900216830104502 0.9828512778832394
717938595 0.012517811870285167 0.9921472573902426
720812728 0.04684139875176124 0.9942212260739449
723686861 0.07360390847683329 0.9949258591261632
726560994 0.10844026816772234 0.9888206610875971
729435127 0.1361412448880232 0.9837792860160959
732309260 0.16738320579208382 0.9761964718819491
735183393 0.19193623625100292 0.9638134450441117
738057526 0.22118960163810536 0.9496223928968694
740931659 0.25592926757923207 0.9472751184267207
743805792 0.28470479081088923 0.9462037285084686
746679925 0.3205148543856788 0.9375983410523544
749554058 0.35073399787852805 0.9296617045770708
752428191 0.37921081880534274 0.9175262208520154
755302324 0.4096035330722006 0.9051040276226654
758176457 0.43520230937443327 0.8867335452937145
761050590 0.4620177749811873 0.8660986263968052
763924723 0.4873058013000585 0.8428940159778736
766798856 0.5101412586334704 0.8163267031457803
769672989 0.5453934740185733 0.8031549584077482
772547122 0.5799447848775579 0.786009778981994
775421255 0.6087672433246327 0.7691113252494254
778295388 0.637883539617934 0.7472802468053705
781169521 0.6652685423544176 0.722534670679981
784043654 0.6951224104031308 0.6982588358054206
786917787 0.7164342507026227 0.6702653642119452
789791920 0.7396885903599897 0.6394024881944482
792666053 0.7589228003541454 0.6023938798059141
795540186 0.7780562158380084 0.5690254584118697
798414319 0.8027238922367067 0.5352492376177214
801288452 0.8299956759145168 0.5032553822943222
804162585 0.8516369668240289 0.471468473601118
807036718 0.8709563266999496 0.43323320522131087
809910851 0.8793405181275027 0.3916809485439076
812784984 0.8862939150590224 0.3520156235443966
815659117 0.8956783077268224 0.32162200325788576
818533250 0.9043567408846089 0.28851657558374083
821407383 0.9143038853851101 0.24423678317913405
824281516 0.9222459645602211 0.19421624682911398
827155649 0.9362981714063008 0.15148057011451127
830029782 0.948911694918395 0.10594653847624697
832903915 0.9536899366322573 0.05548048653680954
835778048 0.9544972629454966 0.004152581553143964
838652181 0.9530876741247212 -0.04736687577336468
841526314 0.9457096066602773 -0.10240241651183601
844400447 0.9320792557326588 -0.16256540706390418
847274580 0.9135812815895831 -0.21596395716446515
850148713 0.8845681855561092 -0.2685122902810465
853022846 0.8554096228450203 -0.32585221584199786
855896979 0.823451741187988 -0.3884448626310701
858771112 0.7905266144580221 -0.44851915321816266
861645245 0.7502709600302276 -0.5153642736204369
864519378 0.6941032947480008 -0.5717743130851279
867393511 0.6273720836464021 -0.6259804581943208
870267644 0.545533893139076 -0.6755196819497736
873141777 0.45162352588062593 -0.7170254703538443
876015910 0.338933107091902 -0.7453312065370867
878890043 0.20761352609739342 -0.7521617498539838
881764176 0.06600659198566655 -0.7257668424063183
884638309 -0.08429275815713538 -0.6686214015033192
887512442 -0.23495931678108795 -0.5575901980368417
890386575 -0.353763128091482 -0.37909569338483606
893260708 -0.3932336611593542 -0.14153320685694284
896134841 -0.32545786260137893 0.10508913856313587
899008974 -0.15245793992438017 0.2966967127876783
901883107 0.0804908391865272 0.385817840369064
904757240 0.29943123547743916 0.37363376847182106
907631373 0.4784105309048695 0.2860831308262004
910505506 0.5923412182388712 0.1596447836457237
913379639 0.6624582392335978 0.025856783278694173
916253772 0.6954661327286435 -0.1006334448007461
919127905 0.7014529882920222 -0.2298183762826469
922002038 0.6823512185372769 -0.33888764378432784
924876171 0.6378917161396954 -0.43330024698972214
927750304 0.5787117562140489 -0.5175904955084194
930624437 0.5208780703554996 -0.5811753847168092
933498570 0.447571324030391 -0.6395153288840563
936372703 0.37379447862404835 -0.6832185760941925
939246836 0.2883262115427557 -0.714614625362791
942120969 0.19871889588938824 -0.7294327909331348
944995102 0.1144611965514375 -0.7396353852412777
947869235 0.03645692195100325 -0.7349049951625437
950743368 -0.033936930432085344 -0.7331475059425954
953617501 -0.115719889184343 -0.7143366878448589
956491634 -0.19074972736391527 -0.6827890010234434
959365767 -0.26429482741171684 -0.6364594975302127
962239900 -0.32413543858829186 -0.5823138618538766
965114033 -0.37336437874528783 -0.5133093640341517
967988166 -0.4109162077440216 -0.4489905921845936
970862299 -0.44633466470812555 -0.3784167864787253
973736432 -0.4854098820269393 -0.27630153103374744
976610565 -0.47878136842176855 -0.22713610659069325
979484698 -0.4763577438263948 -0.1525620785274861
982358831 -0.4659833652871147 -0.08286570547998362
985232964 -0.43689831413884517 -0.016124416877361603
988107097 -0.40749968074245513 0.04755027717897303
990981230 -0.3629253958385826 0.09860694791143357
993855363 -0.3176531121745903 0.1509118487389149
996729496 -0.2480767937868921 0.18091464527344323
999603629 -0.20571116000975437 0.19913926836372892
1002477762 -0.1510906160809964 0.23228263688933992
1005351895 -0.07237436372651468 0.23975593711143453
1008226028 -0.012196833287118708 0.22444911780572055
1011100161 0.02326744458986936 0.20290923029339342
1013974294 0.07127177062227333 0.19594900090167863
1016848427 0.11946785803705634 0.17718049277795161
1019722560 0.1678966798575501 0.14060620749387748
1022596693 0.19656552711519443 0.10537042716021307
1025470826 0.24321633964354283 0.06758308850886309
1028344959 0.26635123760139784 -0.012621659368075258
1031219092 0.2621888208737719 -0.05924253601780709
1034093225 0.2605295349006938 -0.11755155222041158
1036967358 0.25238995241660445 -0.16368049468444357
1039841491 0.22795884739088274 -0.2303989410592424
1042715624 0.1733812708354175 -0.25399864320207616
1045589757 0.15261115858406477 -0.2701863288781086
1048463890 0.12423407391808555 -0.2894578132711495
1051338023 0.10682489208564584 -0.30714696973255345
1054212156 0.0701708875977376 -0.33386965316833705
1057086289 0.03526755005857671 -0.35283956914420156
1059960422 -0.018915773863932728 -0.3732772954026652
1062834555 -0.06116638799333904 -0.3684368451035378
1065708688 -0.10997221878917957 -0.3727207204752438
1068582821 -0.1615792414085191 -0.3614485581695513
1071456954 -0.21039067177567183 -0.33256906444193135
1074331087 -0.23478319911213721 -0.2934473819829895
1077205220 -0.2634726043844798 -0.26501455123041723
1080079353 -0.2727248699113898 -0.23442200441045533
1082953486 -0.28903899218836 -0.2092826887626809
1085827619 -0.3078681178514173 -0.1870878441284356
1088701752 -0.3361127140280622 -0.15909652270458355
1091575885 -0.3596508530248663 -0.1138909152587951
1094450018 -0.3671514694990476 -0.07023080965423886
1097324151 -0.36921391552069116 -0.02618430682450676
1100198284 -0.3658425019384487 0.015243696186164973
1103072417 -0.35895166068437 0.053295756162501984
1105946550 -0.34957860333911694 0.09220619381295556
1108820683 -0.32960501699836836 0.1384942485286133
1111694816 -0.30914230391506786 0.17872389793780746
1114568949 -0.26793779960624386 0.22111814011555972
1117443082 -0.21763151448883478 0.25293302793881245
1120317215 -0.1715618810907224 0.25516066439522533
1123191348 -0.15367799388999442 0.2632331737223613
1126065481 -0.12287198769975523 0.28719618223213067
1128939614 -0.08369211761499686 0.30428066124733844
1131813747 -0.031407557963069155 0.325663110756801
1134687880 0.024043344878052125 0.3165701993746016
1137562013 0.06997852547999667 0.2942112859436998
1140436146 0.10689622455723662 0.28054648491187484
1143310279 0.14577368599191787 0.2520605629552742
1146184412 0.173010425043822 0.2335499429161909
1149058545 0.2135143889561525 0.21282137377312652
1151932678 0.2489986614848834 0.17703659325613008
1154806811 0.26194156855999395 0.1375404135384578
1157680944 0.27495914344499894 0.10805070119620933
1160555077 0.2884672353029696 0.07754255641040698
1163429210 0.30368965563909966 0.0549148914940662
1166303343 0.33367457262147815 0.014353238097164128
1169177476 0.338208092061412 -0.045248530906312145
1172051609 0.3314895106674425 -0.09580638543677335
1174925742 0.31040078893481693 -0.13739222566667741
1177799875 0.2971152988589321 -0.16038293697575015
1180674008 0.28952000506081493 -0.1932144145207228
1183548141 0.27988460147907446 -0.2283293171866015
1186422274 0.26376471647961736 -0.26734587184474545
1189296407 0.23520020558383647 -0.30149341262674556
1192170540 0.20568527195916603 -0.31572560238929614
1195044673 0.18782436562280155 -0.3403001085635915
1197918806 0.1493136321576482 -0.3634736690736903
1200792939 0.115143212955084 -0.3772822566188081
1203667072 0.09095609538020227 -0.38106354350578797
1206541205 0.06331474319010819 -0.39469023930643465
1209415338 0.044580436189795625 -0.40565102549990867
1212289471 0.016806071985183135 -0.4204464591472127
1215163604 -0.010070957432944921 -0.42423659719828966
1218037737 -0.03211314931738099 -0.43941098904888526
1220911870 -0.06751862547905851 -0.44768957917112456
1223786003 -0.10794169556986791 -0.44847253566021406
1226660136 -0.1360885928775073 -0.4403885047655309
1229534269 -0.16626494373241052 -0.42676446118984457
1232408402 -0.19479487557461744 -0.42478212641525925
1235282535 -0.22969264308824308 -0.42602348015119657
1238156668 -0.2671469987799173 -0.41080254015631745
1241030801 -0.2981977006636672 -0.3929154064934358
1243904934 -0.321541972619135 -0.3822816418155539
1246779067 -0.35709926524495955 -0.3583959643278786
