# HZ S RI R 50
100000000 0.970695 -0.240882
102874133 0.974478 -0.25011
105748266 0.98014 -0.260064
108622399 0.982888 -0.267658
111496532 0.984684 -0.273402
114370665 0.983552 -0.2797
117244798 0.981062 -0.283904
120118931 0.973436 -0.288454
122993064 0.968662 -0.292587
125867197 0.961814 -0.294453
128741330 0.95087 -0.303165
131615463 0.956778 -0.308041
134489596 0.961569 -0.317978
137363729 0.947448 -0.335117
140237862 0.950386 -0.341843
143111995 0.948792 -0.347167
145986128 0.949058 -0.352792
148860261 0.945762 -0.357734
151734394 0.958374 -0.320339
154608527 0.899748 -0.441351
157482660 0.926415 -0.369883
160356793 0.927966 -0.376919
163230926 0.928907 -0.388052
166105059 0.929242 -0.396095
168979192 0.928634 -0.404392
171853325 0.925378 -0.413119
174727458 0.922034 -0.418769
177601591 0.914591 -0.424386
180475724 0.906449 -0.431507
183349857 0.896237 -0.439193
186223990 0.885502 -0.44457
189098123 0.886704 -0.453402
191972256 0.892135 -0.461359
194846389 0.895921 -0.470169
197720522 0.897772 -0.47569
200594655 0.898345 -0.480681
203468788 0.895906 -0.484933
206342921 0.892959 -0.48966
209217054 0.887763 -0.493163
212091187 0.879742 -0.495417
214965320 0.869174 -0.499157
217839453 0.868775 -0.506847
220713586 0.8724 -0.515995
223587719 0.87565 -0.524303
226461852 0.875212 -0.531786
229335985 0.874149 -0.536431
232210118 0.870737 -0.542644
235084251 0.865904 -0.546412
237958384 0.859583 -0.549999
240832517 0.848708 -0.553061
243706650 0.836894 -0.55569
246580783 0.833673 -0.56359
249454916 0.837324 -0.573818
252329049 0.838052 -0.585078
255203182 0.838637 -0.591808
258077315 0.837499 -0.596738
260951448 0.833789 -0.602013
263825581 0.826993 -0.606937
266699714 0.819872 -0.609721
269573847 0.811297 -0.612379
272447980 0.799417 -0.61505
275322113 0.792747 -0.619597
278196246 0.796845 -0.631965
281070379 0.801035 -0.641551
283944512 0.800558 -0.649384
286818645 0.798469 -0.653797
289692778 0.797485 -0.656778
292566911 0.791135 -0.661824
295441044 0.784182 -0.662401
298315177 0.775187 -0.662683
301189310 0.765248 -0.663599
304063443 0.756875 -0.666905
306937576 0.756333 -0.678661
309811709 0.754903 -0.69067
312685842 0.751908 -0.699149
315559975 0.748548 -0.705604
318434108 0.74172 -0.712566
321308241 0.736394 -0.714988
324182374 0.728123 -0.719956
327056507 0.717156 -0.72041
329930640 0.704522 -0.721525
332804773 0.694022 -0.725485
335678906 0.693718 -0.737136
338553039 0.693171 -0.747598
341427172 0.691645 -0.755157
344301305 0.687108 -0.760872
347175438 0.682325 -0.768161
350049571 0.677631 -0.771884
352923704 0.669056 -0.771404
355797837 0.660798 -0.771876
358671970 0.650927 -0.772114
361546103 0.639829 -0.772222
364420236 0.636936 -0.785464
367294369 0.637258 -0.793969
370168502 0.633205 -0.80308
373042635 0.628662 -0.811034
375916768 0.623325 -0.816782
378790901 0.6192 -0.818157
381665034 0.61328 -0.822363
384539167 0.604997 -0.820126
387413300 0.591758 -0.821889
390287433 0.582685 -0.816959
393161566 0.580506 -0.829902
396035699 0.578137 -0.836008
398909832 0.576603 -0.846397
401783965 0.571816 -0.851379
404658098 0.56587 -0.854875
407532231 0.562638 -0.857733
410406364 0.552508 -0.856924
413280497 0.546615 -0.854367
416154630 0.535597 -0.853898
419028763 0.52235 -0.848467
421902896 0.520072 -0.863254
424777029 0.51592 -0.872515
427651162 0.513077 -0.878953
430525295 0.508741 -0.8853
433399428 0.503486 -0.890297
436273561 0.497008 -0.893179
439147694 0.49261 -0.894011
442021827 0.479761 -0.895747
444895960 0.472651 -0.893134
447770093 0.460747 -0.888819
450644226 0.458153 -0.897909
453518359 0.45349 -0.905601
456392492 0.431738 -0.919606
459266625 0.445455 -0.916888
462140758 0.438817 -0.921084
465014891 0.433068 -0.921197
467889024 0.425566 -0.919848
470763157 0.417694 -0.915379
473637290 0.404414 -0.912201
476511423 0.393765 -0.906455
479385556 0.387997 -0.91533
482259689 0.384874 -0.923197
485133822 0.380678 -0.932555
488007955 0.377301 -0.936026
490882088 0.370052 -0.939091
493756221 0.36457 -0.941158
496630354 0.356145 -0.939873
499504487 0.346944 -0.9379
502378620 0.338701 -0.933541
505252753 0.329919 -0.928434
508126886 0.319709 -0.934521
511001019 0.314481 -0.946049
513875152 0.308124 -0.953066
516749285 0.299375 -0.958826
519623418 0.293788 -0.962588
522497551 0.284772 -0.963477
525371684 0.275455 -0.963494
528245817 0.266262 -0.96236
531119950 0.257571 -0.958985
533994083 0.247773 -0.952805
536868216 0.238344 -0.9563
539742349 0.229775 -0.965347
542616482 0.222849 -0.974552
545490615 0.216014 -0.979574
548364748 0.209062 -0.983832
551238881 0.200403 -0.984496
554113014 0.192486 -0.983425
556987147 0.183998 -0.980634
559861280 0.177535 -0.973132
562735413 0.170458 -0.968627
565609546 0.164773 -0.970279
568483679 0.158223 -0.981746
571357812 0.149815 -0.988202
574231945 0.146291 -0.994521
577106078 0.136808 -0.998666
579980211 0.132237 -1.003062
582854344 0.125554 -1.001233
585728477 0.119121 -0.999332
588602610 0.126591 -0.994147
591476743 0.098301 -0.987938
594350876 0.090607 -0.990603
597225009 0.08292 -1.001759
600099142 0.075866 -1.008263
602973275 0.070056 -1.013593
605847408 0.060974 -1.017008
608721541 0.053821 -1.016596
611595674 0.050274 -1.01771
614469807 0.040742 -1.016475
617343940 0.034812 -1.011728
620218073 0.026304 -1.005267
623092206 0.020687 -1.003084
625966339 0.011286 -1.011378
628840472 0.004592 -1.018088
631714605 -0.005919 -1.025083
634588738 -0.015224 -1.029073
637462871 -0.017212 -1.030074
640337004 -0.024988 -1.027648
643211137 -0.033998 -1.0243
646085270 -0.046836 -1.020628
648959403 -0.050349 -1.014755
651833536 -0.060694 -1.010183
654707669 -0.06627 -1.018222
657581802 -0.077818 -1.02369
660455935 -0.08608 -1.025552
663330068 -0.094994 -1.025714
666204201 -0.103936 -1.025849
669078334 -0.106672 -1.02281
671952467 -0.09599 -1.035783
674826600 -0.125824 -1.010457
677700733 -0.134536 -0.999349
680574866 -0.142598 -0.99461
683448999 -0.152843 -1.001274
686323132 -0.163439 -1.00834
689197265 -0.17122 -1.010275
692071398 -0.162795 -1.017292
694945531 -0.19011 -1.011162
697819664 -0.19676 -1.007812
700693797 -0.20326 -1.000446
703567930 -0.208873 -0.996293
706442063 -0.221865 -0.983913
709316196 -0.226867 -0.977656
712190329 -0.23968 -0.984389
715064462 -0.254322 -0.985958
717938595 -0.260468 -0.994872
720812728 -0.274535 -0.989754
723686861 -0.285629 -0.990204
726560994 -0.291978 -0.985411
729435127 -0.30088 -0.978113
732309260 -0.310454 -0.970971
735183393 -0.318168 -0.961753
738057526 -0.325153 -0.94725
740931659 -0.33798 -0.953474
743805792 -0.351954 -0.957186
746679925 -0.365073 -0.957176
749554058 -0.372485 -0.957433
752428191 -0.38296 -0.953527
755302324 -0.39024 -0.948533
758176457 -0.395803 -0.942326
761050590 -0.404974 -0.931459
763924723 -0.410572 -0.923612
766798856 -0.416406 -0.908589
769672989 -0.431405 -0.90895
772547122 -0.444245 -0.909588
775421255 -0.453511 -0.913339
778295388 -0.466831 -0.910689
781169521 -0.476118 -0.906033
784043654 -0.477959 -0.902374
786917787 -0.487843 -0.895406
789791920 -0.489696 -0.885224
792666053 -0.501732 -0.871329
795540186 -0.504529 -0.857499
798414319 -0.518129 -0.856403
801288452 -0.530904 -0.85369
804162585 -0.547127 -0.852357
807036718 -0.549323 -0.851783
809910851 -0.563371 -0.849847
812784984 -0.565421 -0.844369
815659117 -0.571428 -0.833351
818533250 -0.574403 -0.825481
821407383 -0.574511 -0.810343
824281516 -0.58168 -0.79464
827155649 -0.592346 -0.791255
830029782 -0.601303 -0.791929
832903915 -0.612323 -0.789339
835778048 -0.620301 -0.789126
838652181 -0.625051 -0.783601
841526314 -0.631085 -0.773056
844400447 -0.629837 -0.765825
847274580 -0.629693 -0.760095
850148713 -0.63559 -0.745276
853022846 -0.637736 -0.729333
855896979 -0.642675 -0.719249
858771112 -0.663349 -0.715595
861645245 -0.643024 -0.72603
864519378 -0.689041 -0.702224
867393511 -0.698147 -0.69129
870267644 -0.708831 -0.68426
873141777 -0.718116 -0.672551
876015910 -0.725584 -0.662008
878890043 -0.729825 -0.642245
881764176 -0.732541 -0.630489
884638309 -0.740443 -0.619964
887512442 -0.755101 -0.609111
890386575 -0.770121 -0.5936
893260708 -0.779107 -0.581771
896134841 -0.787431 -0.565594
899008974 -0.792997 -0.556567
901883107 -0.801333 -0.536338
904757240 -0.802931 -0.517367
907631373 -0.802905 -0.498996
910505506 -0.807139 -0.479983
913379639 -0.809121 -0.464369
916253772 -0.819041 -0.450851
919127905 -0.824725 -0.436341
922002038 -0.830001 -0.425048
924876171 -0.845612 -0.398177
927750304 -0.83961 -0.393685
930624437 -0.83483 -0.387991
933498570 -0.83809 -0.338075
936372703 -0.821276 -0.352217
939246836 -0.824779 -0.305433
942120969 -0.809237 -0.318469
944995102 -0.818761 -0.283756
947869235 -0.817874 -0.267975
950743368 -0.813078 -0.259054
953617501 -0.808249 -0.246104
956491634 -0.800479 -0.229196
959365767 -0.786051 -0.223599
962239900 -0.775674 -0.216154
965114033 -0.772336 -0.217013
967988166 -0.771559 -0.189512
970862299 -0.759646 -0.17294
973736432 -0.757898 -0.164377
976610565 -0.752774 -0.144706
979484698 -0.737326 -0.139332
982358831 -0.73152 -0.137164
985232964 -0.717763 -0.134812
988107097 -0.714338 -0.132419
990981230 -0.701224 -0.12203
993855363 -0.691435 -0.122458
996729496 -0.677345 -0.113718
999603629 -0.664725 -0.116068
1002477762 -0.673566 -0.118097
1005351895 -0.680618 -0.10331
1008226028 -0.679838 -0.095691
1011100161 -0.678371 -0.083311
1013974294 -0.668056 -0.074928
1016848427 -0.656642 -0.069928
1019722560 -0.647363 -0.073957
1022596693 -0.641646 -0.073631
1025470826 -0.642131 -0.071113
1028344959 -0.642713 -0.066971
1031219092 -0.64922 -0.04551
1034093225 -0.640296 -0.034853
1036967358 -0.639481 -0.039246
1039841491 -0.6507 -0.027728
1042715624 -0.64745 -0.013065
1045589757 -0.638296 0.006637
1048463890 -0.617487 0.005597
1051338023 -0.609962 0.005707
1054212156 -0.599555 0.012017
1057086289 -0.591992 0.012662
1059960422 -0.595345 0.029704
1062834555 -0.59131 0.035256
1065708688 -0.584184 0.046288
1068582821 -0.590523 0.048114
1071456954 -0.594641 0.073034
1074331087 -0.570053 0.093868
1077205220 -0.54047 0.101867
1080079353 -0.517136 0.083275
1082953486 -0.530752 0.080209
1085827619 -0.518829 0.103106
1088701752 -0.510666 0.105087
1091575885 -0.506757 0.113997
1094450018 -0.506297 0.126955
1097324151 -0.483402 0.145068
1100198284 -0.455743 0.131456
1103072417 -0.457461 0.119097
1105946550 -0.462257 0.118148
1108820683 -0.458216 0.129583
1111694816 -0.425278 0.134898
1114568949 -0.413648 0.130105
1117443082 -0.41635 0.136884
1120317215 -0.403824 0.139126
1123191348 -0.392094 0.135979
1126065481 -0.379098 0.132053
1128939614 -0.375303 0.119106
1131813747 -0.374016 0.112302
1134687880 -0.373087 0.114887
1137562013 -0.372135 0.106226
1140436146 -0.373123 0.123853
1143310279 -0.351166 0.127831
1146184412 -0.340409 0.120734
1149058545 -0.347834 0.121303
1151932678 -0.345928 0.132369
1154806811 -0.329637 0.139451
1157680944 -0.31632 0.138954
1160555077 -0.30611 0.142057
1163429210 -0.258906 0.136992
1166303343 -0.242689 0.091727
1169177476 -0.263125 0.055831
1172051609 -0.291217 0.059314
1174925742 -0.292322 0.076628
1177799875 -0.277949 0.086126
1180674008 -0.278118 0.083418
1183548141 -0.284042 0.084231
1186422274 -0.267864 0.091196
1189296407 -0.250642 0.079044
1192170540 -0.253634 0.06058
1195044673 -0.256768 0.07064
1197918806 -0.240518 0.052641
1200792939 -0.24153 0.050874
1203667072 -0.250968 0.040675
1206541205 -0.269152 0.037372
1209415338 -0.279204 0.044357
1212289471 -0.273575 0.064234
1215163604 -0.259135 0.066113
1218037737 -0.247691 0.059886
1220911870 -0.238532 0.03341
1223786003 -0.270943 0.02252
1226660136 -0.274863 0.057108
1229534269 -0.254215 0.059357
1232408402 -0.244327 0.050719
1235282535 -0.246911 0.043526
1238156668 -0.263414 0.049649
1241030801 -0.249185 0.05769
1243904934 -0.250591 0.054473
1246779067 -0.24684 0.053986
1249653200 -0.241544 0.055212
1252527333 -0.242286 0.052465
1255401466 -0.240756 0.058808
1258275599 -0.237087 0.059587
1261149732 -0.247696 0.070797
1264023865 -0.23852 0.097966
1266897998 -0.211158 0.111419
1269772131 -0.187422 0.097428
1272646264 -0.177009 0.082769
1275520397 -0.177238 0.070129
1278394530 -0.174037 0.065693
1281268663 -0.183691 0.06491
1284142796 -0.162719 0.068635
1287016929 -0.16643 0.052089
1289891062 -0.164742 0.069573
1292765195 -0.156871 0.066801
1295639328 -0.14237 0.063267
1298513461 -0.131996 0.05941
1301387594 -0.118678 0.049598
1304261727 -0.114689 0.036011
1307135860 -0.108127 0.018049
1310009993 -0.116923 0.004043
1312884126 -0.123445 0.005732
1315758259 -0.114128 0.008722
1318632392 -0.104438 0.00793
1321506525 -0.088465 0.003792
1324380658 -0.075522 -0.019676
1327254791 -0.072045 -0.041405
1330128924 -0.075885 -0.067858
1333003057 -0.104544 -0.087511
1335877190 -0.113188 -0.083406
1338751323 -0.130505 -0.082038
1341625456 -0.124049 -0.070044
1344499589 -0.101899 -0.079942
1347373722 -0.113044 -0.106791
1350247855 -0.131638 -0.093389
1353121988 -0.129128 -0.099516
1355996121 -0.136628 -0.098265
1358870254 -0.135911 -0.109603
1361744387 -0.142672 -0.114812
1364618520 -0.156872 -0.119508
1367492653 -0.154744 -0.121203
1370366786 -0.169297 -0.121995
1373240919 -0.174885 -0.106808
1376115052 -0.163697 -0.106506
1378989185 -0.160561 -0.109055
1381863318 -0.157559 -0.130678
1384737451 -0.179422 -0.151035
1387611584 -0.197807 -0.141522
1390485717 -0.207814 -0.143593
1393359850 -0.219734 -0.136687
1396233983 -0.222643 -0.127141
1399108116 -0.223957 -0.118878
1401982249 -0.220082 -0.121003
1404856382 -0.230119 -0.12089
1407730515 -0.246573 -0.107292
1410604648 -0.236899 -0.087708
1413478781 -0.231673 -0.096648
1416352914 -0.237056 -0.101562
1419227047 -0.247984 -0.096626
1422101180 -0.24656 -0.085992
1424975313 -0.246125 -0.084017
1427849446 -0.237972 -0.085577
1430723579 -0.259591 -0.083961
1433597712 -0.249162 -0.067064
1436471845 -0.250221 -0.068886
1439345978 -0.254651 -0.068581
1442220111 -0.267518 -0.057396
1445094244 -0.255547 -0.04148
1447968377 -0.236155 -0.043793
1450842510 -0.240388 -0.046484
1453716643 -0.232228 -0.057648
1456590776 -0.245863 -0.055842
1459464909 -0.251715 -0.053341
1462339042 -0.247366 -0.029714
1465213175 -0.238247 -0.033625
1468087308 -0.237744 -0.026459
1470961441 -0.2357 -0.026484
1473835574 -0.234716 -0.018705
1476709707 -0.219216 -0.012682
1479583840 -0.21161 -0.02199
1482457973 -0.212996 -0.029487
1485332106 -0.209748 -0.019126
1488206239 -0.205747 -0.027879
1491080372 -0.199907 -0.019896
1493954505 -0.192681 -0.025237
1496828638 -0.196895 -0.026621
1499702771 -0.191672 -0.025539
1502576904 -0.184455 -0.020469
1505451037 -0.171178 -0.032477
1508325170 -0.177542 -0.049974
1511199303 -0.178966 -0.055161
1514073436 -0.199432 -0.054248
1516947569 -0.198003 -0.029381
1519821702 -0.172184 -0.035258
1522695835 -0.172374 -0.047298
1525569968 -0.182995 -0.037432
1528444101 -0.167234 -0.033183
1531318234 -0.155462 -0.05256
1534192367 -0.165711 -0.060637
1537066500 -0.175788 -0.053171
1539940633 -0.163526 -0.048497
1542814766 -0.147415 -0.065008
1545688899 -0.159942 -0.07629
1548563032 -0.169253 -0.074621
1551437165 -0.163133 -0.067721
1554311298 -0.166757 -0.075678
1557185431 -0.174469 -0.069758
1560059564 -0.159601 -0.065374
1562933697 -0.14641 -0.081042
1565807830 -0.168059 -0.104223
1568681963 -0.180018 -0.083782
1571556096 -0.168682 -0.085941
1574430229 -0.173186 -0.085106
1577304362 -0.158558 -0.086704
1580178495 -0.169547 -0.095834
1583052628 -0.162425 -0.087583
1585926761 -0.150837 -0.105883
1588800894 -0.165027 -0.13036
1591675027 -0.190542 -0.130446
1594549160 -0.198933 -0.121986
1597423293 -0.186 -0.11339
1600297426 -0.196436 -0.10406
1603171559 -0.190103 -0.108253
1606045692 -0.190534 -0.107498
1608919825 -0.18835 -0.112877
1611793958 -0.196477 -0.12144
1614668091 -0.194794 -0.117049
1617542224 -0.189167 -0.133334
1620416357 -0.213668 -0.152389
1623290490 -0.229518 -0.144352
1626164623 -0.235698 -0.128981
1629038756 -0.228219 -0.125883
1631912889 -0.231506 -0.128763
1634787022 -0.237099 -0.121299
1637661155 -0.229827 -0.11191
1640535288 -0.229723 -0.124432
1643409421 -0.239646 -0.125774
1646283554 -0.236734 -0.122098
1649157687 -0.240069 -0.126044
1652031820 -0.238264 -0.1255
1654905953 -0.241738 -0.143391
1657780086 -0.262562 -0.142787
1660654219 -0.272614 -0.127978
1663528352 -0.284415 -0.120358
1666402485 -0.276445 -0.088222
1669276618 -0.251487 -0.08742
1672150751 -0.250245 -0.106181
1675024884 -0.26556 -0.119917
1677899017 -0.277934 -0.105596
1680773150 -0.265801 -0.101901
1683647283 -0.271905 -0.108164
1686521416 -0.279407 -0.106253
1689395549 -0.278291 -0.088647
1692269682 -0.25544 -0.083732
1695143815 -0.249528 -0.094706
1698017948 -0.254919 -0.108852
1700892081 -0.269977 -0.110067
1703766214 -0.286576 -0.10552
1706640347 -0.286001 -0.091497
1709514480 -0.271886 -0.081526
1712388613 -0.267314 -0.098629
1715262746 -0.276501 -0.09954
1718136879 -0.285181 -0.093701
1721011012 -0.277584 -0.077071
1723885145 -0.259878 -0.072246
1726759278 -0.249116 -0.082041
1729633411 -0.250933 -0.102382
1732507544 -0.271843 -0.108909
1735381677 -0.27663 -0.101131
1738255810 -0.279874 -0.11005
1741129943 -0.300379 -0.097999
1744004076 -0.297363 -0.077388
1746878209 -0.274365 -0.066771
1749752342 -0.252647 -0.077716
1752626475 -0.255422 -0.095505
1755500608 -0.267558 -0.092184
1758374741 -0.257757 -0.092489
1761248874 -0.256679 -0.106289
1764123007 -0.271809 -0.122555
1766997140 -0.290714 -0.118637
1769871273 -0.295908 -0.110179
1772745406 -0.296853 -0.131057
1775619539 -0.284385 -0.096934
1778493672 -0.282362 -0.101286
1781367805 -0.283439 -0.100517
1784241938 -0.278832 -0.101991
1787116071 -0.281819 -0.099803
1789990204 -0.280925 -0.103896
1792864337 -0.279959 -0.117151
1795738470 -0.291506 -0.125367
1798612603 -0.307419 -0.127729
1801486736 -0.31988 -0.106262
1804360869 -0.303039 -0.102263
1807235002 -0.297138 -0.113977
1810109135 -0.299676 -0.113666
1812983268 -0.307553 -0.129856
1815857401 -0.317507 -0.116646
1818731534 -0.322061 -0.131392
1821605667 -0.334575 -0.109796
1824479800 -0.341324 -0.12636
1827353933 -0.35218 -0.100157
1830228066 -0.341345 -0.106597
1833102199 -0.335459 -0.098465
1835976332 -0.330197 -0.10983
1838850465 -0.332356 -0.110765
1841724598 -0.338866 -0.113372
1844598731 -0.349061 -0.118948
1847472864 -0.358354 -0.121628
1850346997 -0.37561 -0.115112
1853221130 -0.371415 -0.099237
1856095263 -0.372061 -0.096709
1858969396 -0.364094 -0.097979
1861843529 -0.359962 -0.105121
1864717662 -0.366257 -0.102107
1867591795 -0.368029 -0.100547
1870465928 -0.366806 -0.091865
1873340061 -0.36689 -0.08915
1876214194 -0.367911 -0.103637
1879088327 -0.385118 -0.105891
1881962460 -0.388671 -0.097498
1884836593 -0.392937 -0.094668
1887710726 -0.398517 -0.091404
1890584859 -0.408765 -0.082762
1893458992 -0.39697 -0.070422
1896333125 -0.390378 -0.073703
1899207258 -0.394372 -0.077534
1902081391 -0.399601 -0.077422
1904955524 -0.405999 -0.075453
1907829657 -0.412553 -0.072972
1910703790 -0.408452 -0.063474
1913577923 -0.409646 -0.06372
1916452056 -0.408034 -0.069188
1919326189 -0.41624 -0.067054
1922200322 -0.41027 -0.049054
1925074455 -0.392792 -0.054339
1927948588 -0.390258 -0.066425
1930822721 -0.408901 -0.067491
1933696854 -0.431746 -0.061262
1936570987 -0.447828 -0.043817
1939445120 -0.425854 -0.041733
1942319253 -0.427696 -0.030069
1945193386 -0.421555 -0.025905
1948067519 -0.410439 -0.024266
1950941652 -0.398803 -0.030566
1953815785 -0.40383 -0.035642
1956689918 -0.411091 -0.040672
1959564051 -0.418667 -0.033625
1962438184 -0.424034 -0.031634
1965312317 -0.436569 -0.03
1968186450 -0.439429 -0.016373
1971060583 -0.428419 -0.014211
1973934716 -0.430571 -0.026409
1976808849 -0.444731 -0.017945
1979682982 -0.435102 0.004139
1982557115 -0.419524 0.01019
1985431248 -0.40276 -0.001036
1988305381 -0.410499 -0.008344
1991179514 -0.412947 -0.014345
1994053647 -0.422909 -0.029763
1996927780 -0.440275 -0.023071
1999801913 -0.455361 -0.00628
2002676046 -0.448515 0.00802
2005550179 -0.430785 0.01428
2008424312 -0.416282 0.002292
2011298445 -0.426063 -0.00826
2014172578 -0.424501 0.007915
2017046711 -0.418777 0.001682
