!Created: 01-29-2015 at 11:57:58
!Mini-Circuits Laboratories
!S-parameters
!MODEL: ZX60-P33ULN+
!S/N: Unit 1
# MHZ S DB R 50
!Frequency        S11 dB  S11 DEG   S21 dB  S21 DEG   S12 dB  S12 DEG   S22 dB  S22 DEG
  10.0000     -1.252514E-001 -3.599392E+001 -2.138762E+001 -3.416696E+000 -6.416090E+001  1.344910E+002 -3.175535E-001 -3.641019E+001
  10.3000     -1.329900E-001 -3.705681E+001 -2.080394E+001 -3.784650E+000 -6.348888E+001 -1.147641E+001 -3.455979E-001 -3.746986E+001
  10.6000     -1.436904E-001 -3.806227E+001 -2.035964E+001 -4.122944E+000 -8.167511E+001  8.152885E+001 -3.609203E-001 -3.849516E+001
  10.9000     -1.548286E-001 -3.908648E+001 -1.982803E+001 -4.226420E+000 -7.716690E+001  1.977620E+001 -3.825634E-001 -3.953793E+001
  11.2000     -1.640469E-001 -4.011600E+001 -1.933525E+001 -4.258138E+000 -8.154663E+001  6.879909E+001 -3.983389E-001 -4.055002E+001
  11.5000     -1.664109E-001 -4.116231E+001 -1.880588E+001 -4.761253E+000 -6.770703E+001 -5.874741E+001 -4.133794E-001 -4.163829E+001
  11.8000     -1.738357E-001 -4.216406E+001 -1.835463E+001 -4.885966E+000 -7.807564E+001  2.889967E+001 -4.404562E-001 -4.262874E+001
  12.1000     -1.949617E-001 -4.327883E+001 -1.792901E+001 -5.259694E+000 -6.834917E+001  2.500164E+001 -4.573081E-001 -4.361809E+001
  12.4000     -1.933528E-001 -4.425760E+001 -1.744734E+001 -5.608764E+000 -6.916857E+001 -2.088156E+001 -4.718082E-001 -4.462997E+001
  12.7000     -2.015830E-001 -4.522029E+001 -1.703776E+001 -5.713533E+000 -8.336661E+001 -8.624930E+001 -4.995735E-001 -4.560191E+001
  13.0000     -2.100734E-001 -4.620364E+001 -1.658571E+001 -5.769779E+000 -6.668406E+001 -1.411916E+002 -5.168437E-001 -4.659834E+001
  13.3000     -2.137508E-001 -4.718547E+001 -1.618149E+001 -6.230589E+000 -8.224786E+001  9.352764E+001 -5.397106E-001 -4.759757E+001
  13.6000     -2.188837E-001 -4.815708E+001 -1.578498E+001 -6.202127E+000 -7.451189E+001 -3.654098E+001 -5.582428E-001 -4.859485E+001
  13.9000     -2.361765E-001 -4.921105E+001 -1.538906E+001 -6.770897E+000 -6.572153E+001 -1.139748E+002 -5.813331E-001 -4.956566E+001
  14.2000     -2.287364E-001 -5.022408E+001 -1.498131E+001 -6.816608E+000 -7.270770E+001 -1.139135E+002 -5.942782E-001 -5.056976E+001
  14.5000     -2.549219E-001 -5.121644E+001 -1.460456E+001 -7.190048E+000 -6.831707E+001 -1.027378E+002 -6.205812E-001 -5.152119E+001
  14.8000     -2.686411E-001 -5.215081E+001 -1.426337E+001 -7.455116E+000 -6.385273E+001 -1.637457E+002 -6.521518E-001 -5.241797E+001
  15.1000     -2.780132E-001 -5.317747E+001 -1.387576E+001 -7.960760E+000 -6.450535E+001 -2.717194E+001 -6.701713E-001 -5.340346E+001
  15.4000     -2.819334E-001 -5.410599E+001 -1.350502E+001 -7.980752E+000 -7.404674E+001  1.720845E+002 -6.892803E-001 -5.436152E+001
  15.7000     -2.850401E-001 -5.501822E+001 -1.316597E+001 -8.247985E+000 -6.626909E+001 -1.426994E+002 -7.159075E-001 -5.531024E+001
  16.0000     -2.919996E-001 -5.602880E+001 -1.281682E+001 -8.666500E+000 -6.537884E+001 -6.719129E+001 -7.380642E-001 -5.625038E+001
  16.3000     -3.045630E-001 -5.696310E+001 -1.248546E+001 -8.909456E+000 -7.483921E+001  1.692616E+002 -7.658752E-001 -5.721245E+001
  16.6000     -3.118522E-001 -5.789729E+001 -1.214076E+001 -9.136105E+000 -7.510728E+001  1.229494E+002 -7.902926E-001 -5.813107E+001
  16.9000     -3.218772E-001 -5.882800E+001 -1.183395E+001 -9.421950E+000 -8.590663E+001  4.132079E+001 -8.095430E-001 -5.909325E+001
  17.2000     -3.283092E-001 -5.976179E+001 -1.149381E+001 -9.635897E+000 -6.492058E+001 -1.516405E+002 -8.330132E-001 -5.993655E+001
  17.5000     -3.366728E-001 -6.071402E+001 -1.121178E+001 -9.941382E+000 -6.724900E+001 -2.986499E+001 -8.490458E-001 -6.089047E+001
  17.8000     -3.532715E-001 -6.169791E+001 -1.088733E+001 -1.028988E+001 -7.423132E+001  7.329081E+001 -8.705912E-001 -6.187187E+001
  18.1000     -3.542267E-001 -6.266256E+001 -1.056567E+001 -1.055325E+001 -7.480672E+001 -1.730717E+002 -9.036966E-001 -6.273799E+001
  18.4000     -3.686947E-001 -6.348740E+001 -1.027655E+001 -1.085934E+001 -8.313696E+001 -1.066065E+002 -9.229651E-001 -6.354723E+001
  18.7000     -3.898664E-001 -6.448991E+001 -9.978605E+000 -1.128881E+001 -6.620969E+001 -1.308241E+002 -9.552716E-001 -6.446264E+001
  19.0000     -3.794737E-001 -6.524687E+001 -9.681171E+000 -1.147021E+001 -6.557124E+001  1.733526E+002 -9.657191E-001 -6.533961E+001
  19.3000     -3.925294E-001 -6.624919E+001 -9.416107E+000 -1.174696E+001 -6.840176E+001 -1.407105E+002 -1.004336E+000 -6.626640E+001
  19.6000     -4.177355E-001 -6.710194E+001 -9.141964E+000 -1.208129E+001 -7.177332E+001  4.868879E+001 -1.020476E+000 -6.704185E+001
  19.9000     -4.216991E-001 -6.798390E+001 -8.868620E+000 -1.233124E+001 -6.852754E+001 -1.619126E+002 -1.044096E+000 -6.799849E+001
  20.2000     -4.323914E-001 -6.887852E+001 -8.602935E+000 -1.260441E+001 -6.616886E+001  1.657211E+002 -1.074402E+000 -6.883204E+001
  20.5000     -4.407903E-001 -6.982224E+001 -8.315350E+000 -1.291502E+001 -6.813950E+001  1.345706E+002 -1.098922E+000 -6.967830E+001
  20.8000     -4.418277E-001 -7.074004E+001 -8.057257E+000 -1.334391E+001 -7.560309E+001  1.609720E+002 -1.131437E+000 -7.053214E+001
  21.1000     -4.576307E-001 -7.163667E+001 -7.802252E+000 -1.365111E+001 -6.198318E+001 -1.216462E+001 -1.140340E+000 -7.140849E+001
  21.4000     -4.567137E-001 -7.244656E+001 -7.545196E+000 -1.394295E+001 -6.575045E+001 -1.119960E+002 -1.169110E+000 -7.223004E+001
  21.7000     -4.852049E-001 -7.332842E+001 -7.306570E+000 -1.422064E+001 -6.673049E+001  1.366020E+002 -1.204087E+000 -7.311208E+001
  22.0000     -4.943264E-001 -7.417566E+001 -7.048583E+000 -1.454553E+001 -7.450858E+001 -1.395817E+002 -1.217015E+000 -7.389192E+001
  22.3000     -4.899855E-001 -7.501720E+001 -6.801296E+000 -1.484040E+001 -6.866890E+001 -2.963149E+001 -1.244959E+000 -7.473905E+001
  22.6000     -4.997538E-001 -7.584140E+001 -6.569798E+000 -1.517854E+001 -6.285481E+001 -1.296197E+002 -1.268121E+000 -7.561173E+001
  22.9000     -5.197706E-001 -7.679232E+001 -6.332989E+000 -1.551982E+001 -6.702076E+001 -1.374117E+002 -1.284775E+000 -7.638374E+001
  23.2000     -5.263904E-001 -7.756583E+001 -6.103708E+000 -1.576261E+001 -6.651087E+001 -1.065787E+002 -1.318238E+000 -7.713829E+001
  23.5000     -5.430403E-001 -7.851605E+001 -5.883481E+000 -1.616220E+001 -5.999621E+001 -1.773400E+002 -1.348203E+000 -7.796935E+001
  23.8000     -5.505121E-001 -7.924822E+001 -5.636414E+000 -1.637061E+001 -6.800645E+001  1.533329E+002 -1.366899E+000 -7.871735E+001
  24.1000     -5.599866E-001 -8.011084E+001 -5.413194E+000 -1.670004E+001 -6.954208E+001 -1.528953E+002 -1.383948E+000 -7.957697E+001
  24.4000     -5.667997E-001 -8.091349E+001 -5.196600E+000 -1.704291E+001 -6.652579E+001 -1.769796E+002 -1.402891E+000 -8.036136E+001
  24.7000     -5.733142E-001 -8.180097E+001 -4.986192E+000 -1.735321E+001 -7.596252E+001 -1.729839E+002 -1.440796E+000 -8.104543E+001
  25.0000     -5.847993E-001 -8.252525E+001 -4.768042E+000 -1.766926E+001 -6.046848E+001 -1.478515E+002 -1.461055E+000 -8.184943E+001
  25.3000     -6.082054E-001 -8.348257E+001 -4.570415E+000 -1.808116E+001 -6.435365E+001 -1.790296E+002 -1.493437E+000 -8.266766E+001
  25.6000     -6.106132E-001 -8.416496E+001 -4.361142E+000 -1.841777E+001 -7.379011E+001 -3.711710E+001 -1.508322E+000 -8.338159E+001
  25.9000     -6.301560E-001 -8.500887E+001 -4.151319E+000 -1.866275E+001 -6.654488E+001 -7.990113E+001 -1.535478E+000 -8.411493E+001
  26.2000     -6.245524E-001 -8.582482E+001 -3.943004E+000 -1.899256E+001 -6.476894E+001 -1.269024E+002 -1.558357E+000 -8.490009E+001
  26.5000     -6.366389E-001 -8.656284E+001 -3.757688E+000 -1.940874E+001 -6.506480E+001 -1.289933E+002 -1.585020E+000 -8.566111E+001
  26.8000     -6.550164E-001 -8.739796E+001 -3.557486E+000 -1.966776E+001 -5.957205E+001  1.591129E+002 -1.606870E+000 -8.645126E+001
  27.1000     -6.493831E-001 -8.806461E+001 -3.355418E+000 -1.979444E+001 -6.306558E+001 -1.319198E+002 -1.632912E+000 -8.710317E+001
  27.4000     -6.793435E-001 -8.886156E+001 -3.186908E+000 -2.023786E+001 -6.510822E+001 -1.634182E+002 -1.657610E+000 -8.784148E+001
  27.7000     -6.876118E-001 -8.972276E+001 -3.003025E+000 -2.057667E+001 -6.458047E+001  1.247856E+002 -1.682254E+000 -8.860496E+001
  28.0000     -6.858826E-001 -9.051431E+001 -2.790720E+000 -2.098725E+001 -6.357241E+001 -1.556946E+002 -1.700819E+000 -8.928851E+001
  28.3000     -6.959442E-001 -9.123945E+001 -2.607384E+000 -2.128029E+001 -6.977051E+001  1.733657E+002 -1.731609E+000 -9.003575E+001
  28.6000     -7.129982E-001 -9.209403E+001 -2.431241E+000 -2.154834E+001 -6.647948E+001 -1.437337E+002 -1.736606E+000 -9.067336E+001
  28.9000     -7.230920E-001 -9.275127E+001 -2.258036E+000 -2.180712E+001 -6.639304E+001 -1.607797E+002 -1.769582E+000 -9.143947E+001
  29.2000     -7.361770E-001 -9.360328E+001 -2.069891E+000 -2.212980E+001 -6.510896E+001 -1.348522E+002 -1.785403E+000 -9.217551E+001
  29.5000     -7.331175E-001 -9.431835E+001 -1.874054E+000 -2.237059E+001 -7.073289E+001 -1.540507E+002 -1.823524E+000 -9.281304E+001
  29.8000     -7.484472E-001 -9.502711E+001 -1.722807E+000 -2.270729E+001 -7.136997E+001 -6.751825E+001 -1.836363E+000 -9.355342E+001
  30.1000     -7.609826E-001 -9.590359E+001 -1.541745E+000 -2.322639E+001 -7.024552E+001 -1.542008E+002 -1.860652E+000 -9.422638E+001
  30.4000     -7.679831E-001 -9.647780E+001 -1.378822E+000 -2.349254E+001 -7.734414E+001  1.040106E+002 -1.880632E+000 -9.490463E+001
  30.7000     -7.771974E-001 -9.729863E+001 -1.203721E+000 -2.380825E+001 -6.385629E+001 -1.283291E+002 -1.912875E+000 -9.559985E+001
  31.0000     -7.902222E-001 -9.801393E+001 -1.044188E+000 -2.404464E+001 -7.348959E+001 -1.726056E+002 -1.926315E+000 -9.623283E+001
  31.3000     -7.706414E-001 -9.868926E+001 -8.639889E-001 -2.430959E+001 -6.850312E+001 -1.661091E+002 -1.944509E+000 -9.697329E+001
  31.6000     -8.027126E-001 -9.933164E+001 -7.119845E-001 -2.463249E+001 -6.414544E+001 -1.679486E+002 -1.969795E+000 -9.765665E+001
  31.9000     -8.043194E-001 -1.000556E+002 -5.547808E-001 -2.492869E+001 -6.216579E+001  1.770391E+002 -2.003113E+000 -9.825507E+001
  32.2000     -8.130138E-001 -1.007950E+002 -3.939829E-001 -2.517488E+001 -9.092191E+001 -7.822430E+001 -2.022327E+000 -9.888129E+001
  32.5000     -8.259535E-001 -1.015616E+002 -2.219808E-001 -2.562626E+001 -6.500737E+001 -1.514152E+002 -2.046167E+000 -9.958465E+001
  32.8000     -8.132495E-001 -1.022313E+002 -7.610828E-002 -2.581692E+001 -6.898559E+001 -1.503253E+002 -2.066852E+000 -1.002908E+002
  33.1000     -8.456953E-001 -1.028483E+002  6.565533E-002 -2.616075E+001 -6.216027E+001 -1.515110E+002 -2.082583E+000 -1.008641E+002
  33.4000     -8.412932E-001 -1.035099E+002  2.224180E-001 -2.647417E+001 -6.384175E+001 -1.449688E+002 -2.100368E+000 -1.015376E+002
  33.7000     -8.683554E-001 -1.043204E+002  3.570967E-001 -2.684801E+001 -6.544796E+001 -1.720504E+002 -2.124073E+000 -1.021517E+002
  34.0000     -8.574218E-001 -1.050277E+002  5.287879E-001 -2.709023E+001 -6.186414E+001 -1.585057E+002 -2.146199E+000 -1.028498E+002
  34.3000     -8.835053E-001 -1.055906E+002  6.719384E-001 -2.737852E+001 -6.413274E+001 -1.539002E+002 -2.186510E+000 -1.034101E+002
  34.6000     -8.893242E-001 -1.063474E+002  8.147249E-001 -2.766209E+001 -6.065547E+001 -1.608673E+002 -2.187213E+000 -1.039939E+002
  34.9000     -8.925253E-001 -1.069137E+002  9.669749E-001 -2.783972E+001 -5.925956E+001 -1.599467E+002 -2.207608E+000 -1.047137E+002
  35.2000     -9.076722E-001 -1.077439E+002  1.107231E+000 -2.835602E+001 -6.043997E+001 -1.564415E+002 -2.227794E+000 -1.053010E+002
  35.5000     -9.002466E-001 -1.083383E+002  1.258935E+000 -2.852837E+001 -6.857543E+001 -1.530821E+002 -2.255533E+000 -1.058844E+002
  35.8000     -9.326857E-001 -1.089410E+002  1.379112E+000 -2.884306E+001 -7.980721E+001 -1.189254E+002 -2.278164E+000 -1.064816E+002
  36.1000     -9.401423E-001 -1.096414E+002  1.524364E+000 -2.915285E+001 -6.374304E+001  1.556875E+002 -2.295038E+000 -1.070916E+002
  36.4000     -9.538268E-001 -1.102588E+002  1.652119E+000 -2.941475E+001 -6.200821E+001 -1.588767E+002 -2.318174E+000 -1.076631E+002
  36.7000     -9.400831E-001 -1.109587E+002  1.803013E+000 -2.973674E+001 -6.220306E+001 -1.533498E+002 -2.332756E+000 -1.083138E+002
  37.0000     -9.563480E-001 -1.116159E+002  1.939596E+000 -3.012469E+001 -6.242480E+001  1.766317E+002 -2.355648E+000 -1.088839E+002
  37.3000     -9.645328E-001 -1.121616E+002  2.064745E+000 -3.033283E+001 -6.177629E+001 -1.417566E+002 -2.378479E+000 -1.094753E+002
  37.6000     -9.677720E-001 -1.128666E+002  2.189296E+000 -3.064616E+001 -6.215237E+001 -1.414318E+002 -2.390297E+000 -1.100771E+002
  37.9000     -9.730158E-001 -1.135847E+002  2.333965E+000 -3.102755E+001 -5.783216E+001 -1.622067E+002 -2.412777E+000 -1.107191E+002
  38.2000     -9.910787E-001 -1.141549E+002  2.455541E+000 -3.120424E+001 -6.046909E+001 -1.380898E+002 -2.428655E+000 -1.111868E+002
  38.5000     -1.008466E+000 -1.146987E+002  2.580823E+000 -3.146896E+001 -6.068716E+001 -1.633000E+002 -2.451118E+000 -1.117949E+002
  38.8000     -1.005432E+000 -1.154326E+002  2.720666E+000 -3.185891E+001 -5.773106E+001  1.794227E+002 -2.472370E+000 -1.124123E+002
  39.1000     -1.015858E+000 -1.159003E+002  2.843272E+000 -3.204505E+001 -5.745439E+001 -1.596644E+002 -2.487636E+000 -1.130194E+002
  39.4000     -1.028653E+000 -1.166241E+002  2.965400E+000 -3.236117E+001 -6.285367E+001  1.620386E+002 -2.525001E+000 -1.134934E+002
  39.7000     -1.028826E+000 -1.173146E+002  3.080717E+000 -3.267753E+001 -5.703795E+001 -1.698620E+002 -2.528451E+000 -1.141848E+002
  40.0000     -1.024149E+000 -1.179298E+002  3.228610E+000 -3.295050E+001 -5.970621E+001 -1.761013E+002 -2.552547E+000 -1.145390E+002
  40.3000     -1.034593E+000 -1.185109E+002  3.338006E+000 -3.330813E+001 -6.153814E+001  1.583189E+002 -2.569641E+000 -1.151464E+002
  40.6000     -1.051279E+000 -1.190535E+002  3.453285E+000 -3.345196E+001 -6.233609E+001  1.767584E+002 -2.589326E+000 -1.156973E+002
  40.9000     -1.063801E+000 -1.197171E+002  3.573714E+000 -3.380220E+001 -6.036359E+001 -1.393660E+002 -2.604682E+000 -1.162811E+002
  41.2000     -1.063948E+000 -1.203698E+002  3.692518E+000 -3.412219E+001 -5.915799E+001  1.643899E+002 -2.620981E+000 -1.168875E+002
  41.5000     -1.072428E+000 -1.208781E+002  3.795257E+000 -3.431347E+001 -6.004835E+001  1.594066E+002 -2.645536E+000 -1.174243E+002
  41.8000     -1.081302E+000 -1.215032E+002  3.929643E+000 -3.467733E+001 -5.855031E+001 -1.670153E+002 -2.656955E+000 -1.179187E+002
  42.1000     -1.097950E+000 -1.220510E+002  4.044451E+000 -3.490170E+001 -6.004234E+001 -1.535910E+002 -2.677465E+000 -1.184363E+002
  42.4000     -1.108307E+000 -1.225953E+002  4.154814E+000 -3.516235E+001 -5.975633E+001  1.756762E+002 -2.693749E+000 -1.189269E+002
  42.7000     -1.114234E+000 -1.232015E+002  4.253353E+000 -3.539565E+001 -6.377164E+001  1.574413E+002 -2.711519E+000 -1.195085E+002
  43.0000     -1.097398E+000 -1.238885E+002  4.388800E+000 -3.588125E+001 -5.992213E+001 -1.687135E+002 -2.727286E+000 -1.200396E+002
  43.3000     -1.129712E+000 -1.243474E+002  4.479002E+000 -3.594103E+001 -6.218390E+001  1.709574E+002 -2.751394E+000 -1.205581E+002
  43.6000     -1.136091E+000 -1.249275E+002  4.598516E+000 -3.621388E+001 -5.627921E+001 -1.763109E+002 -2.769899E+000 -1.210249E+002
  43.9000     -1.140615E+000 -1.255266E+002  4.720058E+000 -3.664243E+001 -6.127520E+001 -1.571338E+002 -2.784116E+000 -1.215414E+002
  44.2000     -1.155406E+000 -1.260773E+002  4.811193E+000 -3.680219E+001 -5.600953E+001  1.685408E+002 -2.801957E+000 -1.221061E+002
  44.5000     -1.146017E+000 -1.266122E+002  4.928460E+000 -3.707037E+001 -5.803038E+001 -1.635082E+002 -2.822718E+000 -1.225638E+002
  44.8000     -1.158303E+000 -1.271963E+002  5.042428E+000 -3.739034E+001 -5.703725E+001 -1.714197E+002 -2.833442E+000 -1.231018E+002
  45.1000     -1.174261E+000 -1.278374E+002  5.139914E+000 -3.762135E+001 -5.641969E+001 -1.536318E+002 -2.860002E+000 -1.235290E+002
  45.4000     -1.169024E+000 -1.282768E+002  5.255928E+000 -3.787344E+001 -5.703669E+001 -1.558306E+002 -2.874221E+000 -1.240424E+002
  45.7000     -1.183582E+000 -1.288885E+002  5.344155E+000 -3.818286E+001 -5.724933E+001  1.692060E+002 -2.890769E+000 -1.246079E+002
  46.0000     -1.195450E+000 -1.294240E+002  5.465107E+000 -3.836532E+001 -5.562221E+001 -1.684653E+002 -2.905107E+000 -1.250567E+002
  46.3000     -1.197677E+000 -1.300331E+002  5.551970E+000 -3.876295E+001 -5.710011E+001  1.793201E+002 -2.926796E+000 -1.255852E+002
  46.6000     -1.200245E+000 -1.305457E+002  5.644208E+000 -3.905640E+001 -5.767452E+001  1.795935E+002 -2.928622E+000 -1.261010E+002
  46.9000     -1.204266E+000 -1.310664E+002  5.777273E+000 -3.934154E+001 -5.999704E+001 -1.556950E+002 -2.950728E+000 -1.265061E+002
  47.2000     -1.220537E+000 -1.315484E+002  5.860720E+000 -3.944085E+001 -5.614958E+001 -1.629115E+002 -2.972697E+000 -1.270042E+002
  47.5000     -1.226666E+000 -1.320257E+002  5.960095E+000 -3.967700E+001 -5.750736E+001 -1.515594E+002 -2.988832E+000 -1.275071E+002
  47.8000     -1.235981E+000 -1.326779E+002  6.060347E+000 -4.011672E+001 -5.916265E+001  1.783133E+002 -3.004317E+000 -1.279693E+002
  48.1000     -1.234209E+000 -1.332511E+002  6.156671E+000 -4.031115E+001 -5.842940E+001 -1.413659E+002 -3.018892E+000 -1.284824E+002
  48.4000     -1.249949E+000 -1.337504E+002  6.243779E+000 -4.043736E+001 -5.634037E+001 -1.734981E+002 -3.030406E+000 -1.289195E+002
  48.7000     -1.246206E+000 -1.342537E+002  6.368083E+000 -4.087402E+001 -5.874581E+001 -1.787175E+002 -3.058830E+000 -1.293917E+002
  49.0000     -1.245480E+000 -1.348061E+002  6.465873E+000 -4.114460E+001 -5.703804E+001  1.781553E+002 -3.075593E+000 -1.297863E+002
  49.3000     -1.267594E+000 -1.352903E+002  6.540490E+000 -4.129242E+001 -6.103821E+001  1.645322E+002 -3.082226E+000 -1.303284E+002
  49.6000     -1.273444E+000 -1.357231E+002  6.646112E+000 -4.161577E+001 -5.603366E+001 -1.733790E+002 -3.092323E+000 -1.307781E+002
  49.9000     -1.265549E+000 -1.363657E+002  6.729664E+000 -4.182001E+001 -5.478191E+001 -1.715949E+002 -3.117730E+000 -1.312626E+002
  50.2000     -1.295345E+000 -1.368995E+002  6.825870E+000 -4.213469E+001 -5.788988E+001 -1.766431E+002 -3.128690E+000 -1.316557E+002
  50.5000     -1.286005E+000 -1.373290E+002  6.924316E+000 -4.245767E+001 -5.515417E+001  1.726179E+002 -3.149300E+000 -1.321457E+002
  50.8000     -1.312459E+000 -1.378483E+002  7.004951E+000 -4.277198E+001 -5.562845E+001 -1.713423E+002 -3.173572E+000 -1.326152E+002
  51.1000     -1.315764E+000 -1.384263E+002  7.086731E+000 -4.292130E+001 -5.642634E+001 -1.798333E+002 -3.184300E+000 -1.330541E+002
  51.4000     -1.308821E+000 -1.389131E+002  7.195762E+000 -4.309018E+001 -5.978212E+001 -1.730954E+002 -3.193394E+000 -1.334148E+002
  51.7000     -1.324158E+000 -1.393664E+002  7.287906E+000 -4.348389E+001 -5.482649E+001 -1.786286E+002 -3.207559E+000 -1.339668E+002
  52.0000     -1.339826E+000 -1.399708E+002  7.361329E+000 -4.365193E+001 -5.821452E+001 -1.709509E+002 -3.218999E+000 -1.343590E+002
  52.3000     -1.330464E+000 -1.403455E+002  7.464115E+000 -4.387394E+001 -5.544497E+001  1.774181E+002 -3.236676E+000 -1.348109E+002
  52.6000     -1.340857E+000 -1.408740E+002  7.547577E+000 -4.419248E+001 -5.407189E+001  1.780840E+002 -3.250462E+000 -1.352391E+002
  52.9000     -1.349247E+000 -1.413916E+002  7.638902E+000 -4.455473E+001 -5.496260E+001  1.743187E+002 -3.271039E+000 -1.356811E+002
  53.2000     -1.339370E+000 -1.418122E+002  7.728459E+000 -4.467845E+001 -5.596089E+001  1.757656E+002 -3.286707E+000 -1.361004E+002
  53.5000     -1.368628E+000 -1.422830E+002  7.812548E+000 -4.496088E+001 -5.559125E+001  1.792841E+002 -3.297322E+000 -1.365393E+002
  53.8000     -1.371404E+000 -1.427409E+002  7.890099E+000 -4.514350E+001 -5.531896E+001 -1.661547E+002 -3.314574E+000 -1.369217E+002
