# HZ S RI R 50
100000000 0.826606 -0.569951
102874133 0.891789 -0.526135
105748266 0.814638 -0.600886
108622399 0.806742 -0.618767
111496532 0.799519 -0.633951
114370665 0.787671 -0.649089
117244798 0.779387 -0.65718
120118931 0.763903 -0.670268
122993064 0.749432 -0.682001
125867197 0.73312 -0.690667
128741330 0.713895 -0.700192
131615463 0.671194 -0.743245
134489596 0.7048 -0.732389
137363729 0.67272 -0.746119
140237862 0.680504 -0.74935
143111995 0.655614 -0.772636
145986128 0.642555 -0.783134
148860261 0.632833 -0.792432
151734394 0.578917 -0.818159
154608527 0.580146 -0.817297
157482660 0.58115 -0.81557
160356793 0.604995 -0.818467
163230926 0.563044 -0.844139
166105059 0.550587 -0.856104
168979192 0.538984 -0.865872
171853325 0.523125 -0.879365
174727458 0.509796 -0.882718
177601591 0.492939 -0.89427
180475724 0.473466 -0.899183
183349857 0.454082 -0.901953
186223990 0.433609 -0.903606
189098123 0.419661 -0.914582
191972256 0.406461 -0.928982
194846389 0.394127 -0.941231
197720522 0.380275 -0.95184
200594655 0.365413 -0.959939
203468788 0.34933 -0.966952
206342921 0.349031 -0.966211
209217054 0.314583 -0.971572
212091187 0.293694 -0.970626
214965320 0.27319 -0.968894
217839453 0.25443 -0.974612
220713586 0.240648 -0.989283
223587719 0.225698 -0.998029
226461852 0.210198 -1.00475
229335985 0.194517 -1.009961
232210118 0.176122 -1.01229
235084251 0.159511 -1.012183
237958384 0.141423 -1.009537
240832517 0.206124 -1.014148
243706650 0.10302 -0.997788
246580783 0.083679 -1.000301
249454916 0.06642 -1.009176
252329049 0.048972 -1.017813
255203182 0.032374 -1.022081
258077315 0.013023 -1.024896
260951448 -0.002304 -1.025422
263825581 -0.019705 -1.022985
266699714 -0.036433 -1.017377
269573847 -0.053511 -1.010234
272447980 -0.070385 -0.999125
275322113 -0.089741 -0.997804
278196246 -0.109988 -1.002842
281070379 -0.129481 -1.008504
283944512 -0.14692 -1.00978
286818645 -0.164675 -1.011279
289692778 -0.183168 -1.006639
292566911 -0.200764 -1.002914
295441044 -0.215422 -0.995429
298315177 -0.229393 -0.986564
301189310 -0.245913 -0.974292
304063443 -0.264376 -0.966355
306937576 -0.283011 -0.968544
309811709 -0.302164 -0.971283
312685842 -0.319676 -0.969134
315559975 -0.337856 -0.965808
318434108 -0.352806 -0.960884
321308241 -0.368029 -0.952406
324182374 -0.382996 -0.9426
327056507 -0.396771 -0.930601
329930640 -0.409873 -0.91641
332804773 -0.422868 -0.907463
335678906 -0.443568 -0.904661
338553039 -0.463528 -0.902215
341427172 -0.478476 -0.898324
344301305 -0.495922 -0.892866
347175438 -0.510319 -0.883535
350049571 -0.527239 -0.873147
352923704 -0.538808 -0.861917
355797837 -0.548688 -0.847851
358671970 -0.559338 -0.830904
361546103 -0.575818 -0.815132
364420236 -0.592295 -0.812142
367294369 -0.610244 -0.806888
370168502 -0.62803 -0.798366
373042635 -0.640445 -0.789905
375916768 -0.654963 -0.779902
378790901 -0.66579 -0.767172
381665034 -0.678249 -0.755537
384539167 -0.687394 -0.739854
387413300 -0.697703 -0.719422
390287433 -0.703532 -0.7042
393161566 -0.722091 -0.69657
396035699 -0.738267 -0.689575
398909832 -0.755029 -0.679346
401783965 -0.768428 -0.666561
404658098 -0.77771 -0.652804
407532231 -0.788305 -0.639361
410406364 -0.797367 -0.624249
413280497 -0.801246 -0.603862
416154630 -0.808786 -0.589401
419028763 -0.812798 -0.568559
421902896 -0.830387 -0.55622
424777029 -0.845424 -0.544199
427651162 -0.860017 -0.533901
430525295 -0.872284 -0.519999
433399428 -0.879752 -0.507626
436273561 -0.887235 -0.489622
439147694 -0.893124 -0.476015
442021827 -0.896868 -0.455266
444895960 -0.896381 -0.439313
447770093 -0.899167 -0.414723
450644226 -0.913149 -0.405038
453518359 -0.926448 -0.390518
456392492 -0.938182 -0.375336
459266625 -0.9482 -0.358067
462140758 -0.954144 -0.343067
465014891 -0.969773 -0.293033
467889024 -0.962622 -0.310134
470763157 -0.962145 -0.29219
473637290 -0.955677 -0.289924
476511423 -0.959405 -0.236002
479385556 -0.968869 -0.237144
482259689 -0.977737 -0.221609
485133822 -0.987564 -0.202938
488007955 -0.9957 -0.168607
490882088 -0.999076 -0.189135
493756221 -1.002175 -0.136315
496630354 -1.002614 -0.151889
499504487 -1.000172 -0.084013
502378620 -0.994002 -0.116804
505252753 -0.987577 -0.06253
508126886 -0.994323 -0.078856
511001019 -1.000369 -0.026687
513875152 -1.009228 -0.04371
516749285 -1.007338 0.026456
519623418 -1.01601 0.006508
522497551 -1.013284 0.028204
525371684 -1.01079 0.044652
528245817 -1.003012 0.060485
531119950 -0.99573 0.078438
533994083 -0.987412 0.094758
536868216 -0.990185 0.094259
539742349 -0.990316 0.134075
542616482 -0.992183 0.150907
545490615 -0.992384 0.169955
548364748 -0.990565 0.189199
551238881 -0.985978 0.204439
554113014 -0.977569 0.221907
556987147 -0.970499 0.238084
559861280 -0.958849 0.250405
562735413 -0.947237 0.267368
565609546 -0.941322 0.285139
568483679 -0.942675 0.305253
571357812 -0.945076 0.321368
574231945 -0.941895 0.340365
577106078 -0.938047 0.357779
579980211 -0.93103 0.372831
582854344 -0.926065 0.388396
585728477 -0.91359 0.404546
588602610 -0.905568 0.41607
591476743 -0.891325 0.42618
594350876 -0.879884 0.44707
597225009 -0.878581 0.466971
600099142 -0.876141 0.485306
602973275 -0.871088 0.50267
605847408 -0.863199 0.519012
608721541 -0.854542 0.535091
611595674 -0.843736 0.547449
614469807 -0.828772 0.558477
617343940 -0.815175 0.573431
620218073 -0.799549 0.580794
623092206 -0.785567 0.59857
625966339 -0.780592 0.616401
628840472 -0.769836 0.637704
631714605 -0.763278 0.652519
634588738 -0.752321 0.669961
637462871 -0.740924 0.681044
640337004 -0.731225 0.693639
643211137 -0.714747 0.699856
646085270 -0.696371 0.714814
648959403 -0.674953 0.722781
651833536 -0.659422 0.731396
654707669 -0.653857 0.74945
657581802 -0.64317 0.767945
660455935 -0.630853 0.781507
663330068 -0.615099 0.800627
666204201 -0.533954 0.852462
669078334 -0.591496 0.817565
671952467 -0.572528 0.827484
674826600 -0.553297 0.831811
677700733 -0.534344 0.835642
680574866 -0.513164 0.842258
683448999 -0.501004 0.859901
686323132 -0.486411 0.874857
689197265 -0.472022 0.886533
692071398 -0.456848 0.899323
694945531 -0.442044 0.904683
697819664 -0.421738 0.914083
700693797 -0.404085 0.914678
703567930 -0.388123 0.917207
706442063 -0.362546 0.918138
709316196 -0.343468 0.917818
712190329 -0.324541 0.93515
715064462 -0.307743 0.948173
717938595 -0.29053 0.957052
720812728 -0.272074 0.967139
723686861 -0.257047 0.973045
726560994 -0.236345 0.976979
729435127 -0.219029 0.979133
732309260 -0.200416 0.975177
735183393 -0.179328 0.972323
738057526 -0.162467 0.970212
740931659 -0.173089 0.981786
743805792 -0.159551 0.990724
746679925 -0.102037 0.996085
749554058 -0.083924 0.999719
752428191 -0.067116 1.000786
755302324 -0.098624 1.015698
758176457 -0.027663 0.9913
761050590 -0.009212 0.997218
763924723 0.008882 0.98822
766798856 0.032277 0.983193
769672989 0.05287 0.98023
772547122 0.071485 0.992945
775421255 0.093155 0.99403
778295388 0.11299 0.996326
781169521 0.136432 0.99056
784043654 0.150076 0.990936
786917787 0.170251 0.986061
789791920 0.187291 0.978666
792666053 0.207442 0.968294
795540186 0.228014 0.958243
798414319 0.246215 0.957852
801288452 0.267468 0.956418
804162585 0.293267 0.95433
807036718 0.308293 0.948203
809910851 0.326146 0.941517
812784984 0.351365 0.936183
815659117 0.393392 0.907579
818533250 0.383808 0.912191
821407383 0.40245 0.895414
824281516 0.417253 0.879121
827155649 0.439669 0.871841
830029782 0.461289 0.871221
832903915 0.482662 0.865598
835778048 0.500426 0.85578
838652181 0.522889 0.849326
841526314 0.542982 0.838858
844400447 0.55985 0.824633
847274580 0.591701 0.81204
850148713 0.592891 0.788546
853022846 0.602045 0.770617
855896979 0.624397 0.754385
858771112 0.644881 0.745169
861645245 0.66264 0.734738
864519378 0.679666 0.723141
867393511 0.696995 0.706018
870267644 0.713015 0.688605
873141777 0.725966 0.66619
876015910 0.737468 0.648757
878890043 0.746947 0.621489
881764176 0.752394 0.595597
884638309 0.767925 0.574216
887512442 0.787451 0.558542
890386575 0.800564 0.541161
893260708 0.816838 0.525293
896134841 0.831223 0.503058
899008974 0.841494 0.484435
901883107 0.851893 0.454212
904757240 0.850902 0.428833
907631373 0.856528 0.404984
910505506 0.857032 0.373267
913379639 0.857916 0.345962
916253772 0.866564 0.322355
919127905 0.876224 0.300449
922002038 0.881462 0.279719
924876171 0.892362 0.25228
927750304 0.885691 0.227249
930624437 0.882603 0.206082
933498570 0.881843 0.181086
936372703 0.875381 0.148413
939246836 0.862037 0.12283
942120969 0.847364 0.097006
944995102 0.845198 0.067626
947869235 0.837383 0.054512
950743368 0.833795 0.037224
953617501 0.828879 0.018252
956491634 0.829352 -0.001296
959365767 0.807372 -0.024917
962239900 0.797293 -0.036636
965114033 0.780194 -0.064433
967988166 0.744011 -0.075837
970862299 0.7332 -0.067108
973736432 0.730721 -0.183323
976610565 0.742614 -0.094185
979484698 0.739014 -0.116176
982358831 0.720225 -0.125835
985232964 0.711348 -0.133992
988107097 0.710188 -0.140039
990981230 0.702144 -0.161712
993855363 0.679014 -0.170695
996729496 0.665681 -0.152151
999603629 0.678265 -0.178087
1002477762 0.66687 -0.200895
1005351895 0.645886 -0.219753
1008226028 0.650801 -0.206662
1011100161 0.663779 -0.22597
1013974294 0.645983 -0.263471
1016848427 0.613886 -0.261175
1019722560 0.616845 -0.263089
1022596693 0.613861 -0.282675
1025470826 0.592517 -0.29943
1028344959 0.557802 -0.320104
1031219092 0.54016 -0.302309
1034093225 0.541384 -0.308241
1036967358 0.543949 -0.303777
1039841491 0.554694 -0.326928
1042715624 0.550254 -0.351599
1045589757 0.527301 -0.368687
1048463890 0.510695 -0.3664
1051338023 0.496573 -0.385817
1054212156 0.463831 -0.40391
1057086289 0.429021 -0.400137
1059960422 0.417846 -0.379932
1062834555 0.443676 -0.37764
1065708688 0.430406 -0.425195
1068582821 0.391028 -0.418216
1071456954 0.36658 -0.417224
1074331087 0.413554 -0.430187
1077205220 0.387468 -0.464723
1080079353 0.323751 -0.476236
1082953486 0.29217 -0.438038
1085827619 0.282994 -0.436977
1088701752 0.276284 -0.436964
1091575885 0.244642 -0.437676
1094450018 0.22014 -0.423813
1097324151 0.243516 -0.373205
1100198284 0.274466 -0.400919
1103072417 0.245137 -0.441426
1105946550 0.210642 -0.425487
1108820683 0.222898 -0.411759
1111694816 0.202778 -0.440694
1114568949 0.163627 -0.429366
1117443082 0.133665 -0.438561
1120317215 0.093118 -0.398027
1123191348 0.10952 -0.365311
1126065481 0.106996 -0.366726
1128939614 0.123526 -0.35065
1131813747 0.117247 -0.36462
1134687880 0.060761 -0.335242
1137562013 0.107158 -0.339721
1140436146 0.100081 -0.347555
1143310279 0.071312 -0.352165
1146184412 0.055081 -0.333183
1149058545 0.046837 -0.293675
1151932678 0.070348 -0.287606
1154806811 0.073589 -0.296729
1157680944 0.062262 -0.292848
1160555077 0.062847 -0.263102
1163429210 0.083121 -0.261704
1166303343 0.085758 -0.277249
1169177476 0.080448 -0.272057
1172051609 0.064283 -0.290966
1174925742 0.045519 -0.254408
1177799875 0.065215 -0.258701
1180674008 0.055072 -0.274233
1183548141 0.017566 -0.248279
1186422274 0.044652 -0.198404
1189296407 0.097671 -0.215614
1192170540 0.092753 -0.243587
1195044673 0.077391 -0.254426
1197918806 0.081538 -0.242224
1200792939 0.070302 -0.258828
1203667072 0.057278 -0.257275
1206541205 0.052597 -0.252545
1209415338 0.044936 -0.242218
1212289471 0.053604 -0.232777
1215163604 0.059462 -0.227959
1218037737 0.065639 -0.243483
1220911870 0.069827 -0.228781
1223786003 0.093741 -0.257401
1226660136 0.058142 -0.277989
1229534269 0.036618 -0.26549
1232408402 0.049582 -0.258809
1235282535 0.02448 -0.290105
1238156668 0.001502 -0.269672
1241030801 -0.019806 -0.252898
1243904934 -0.010884 -0.215241
1246779067 0.008409 -0.23425
1249653200 -0.015721 -0.226262
1252527333 0.010126 -0.19875
1255401466 0.021921 -0.230386
1258275599 0.004918 -0.245449
1261149732 -0.016695 -0.24319
1264023865 -0.031663 -0.229543
1266897998 -0.037667 -0.231779
1269772131 -0.042511 -0.215954
1272646264 -0.056906 -0.219386
1275520397 -0.076026 -0.18476
1278394530 -0.053747 -0.152494
1281268663 -0.031366 -0.153104
1284142796 -0.021812 -0.14581
1287016929 -0.01318 -0.15468
1289891062 -0.012014 -0.163094
1292765195 -0.023785 -0.180278
1295639328 -0.053898 -0.170985
1298513461 -0.061348 -0.135681
1301387594 -0.037089 -0.107181
1304261727 -0.006207 -0.107686
1307135860 -0.004065 -0.116871
1310009993 -0.000322 -0.113883
1312884126 0.014156 -0.10254
1315758259 0.022869 -0.12858
1318632392 0.001137 -0.137422
1321506525 -0.003578 -0.107304
1324380658 0.00964 -0.120747
1327254791 -0.007831 -0.111463
1330128924 0.00433 -0.075581
1333003057 0.033461 -0.075629
1335877190 0.074976 -0.076598
1338751323 0.090289 -0.09184
1341625456 0.100181 -0.115969
1344499589 0.086841 -0.150943
1347373722 0.065935 -0.156686
1350247855 0.064246 -0.151056
1353121988 0.065693 -0.133374
1355996121 0.081137 -0.149791
1358870254 0.075906 -0.160643
1361744387 0.083329 -0.150361
1364618520 0.097218 -0.164008
1367492653 0.106344 -0.182663
1370366786 0.090686 -0.210321
1373240919 0.065845 -0.212493
1376115052 0.049132 -0.200324
1378989185 0.053633 -0.19081
1381863318 0.069448 -0.192785
1384737451 0.066145 -0.209769
1387611584 0.063273 -0.207745
1390485717 0.066435 -0.216281
1393359850 0.081692 -0.242652
1396233983 0.057054 -0.269121
1399108116 0.026824 -0.260872
1401982249 0.016085 -0.233493
1404856382 0.032739 -0.241023
1407730515 0.003278 -0.262067
1410604648 -0.008906 -0.224312
1413478781 0.026397 -0.227105
1416352914 0.018019 -0.263935
1419227047 -0.006464 -0.267914
1422101180 -0.035918 -0.273723
1424975313 -0.033244 -0.254672
1427849446 -0.042781 -0.242516
1430723579 -0.039675 -0.238963
1433597712 -0.046769 -0.228915
1436471845 -0.042743 -0.233039
1439345978 -0.047178 -0.218865
1442220111 -0.032703 -0.235815
1445094244 -0.042678 -0.245733
1447968377 -0.062247 -0.26972
1450842510 -0.091167 -0.251786
1453716643 -0.094923 -0.228588
1456590776 -0.095303 -0.202349
1459464909 -0.063443 -0.208481
1462339042 -0.07818 -0.221152
1465213175 -0.097601 -0.218949
1468087308 -0.113046 -0.200462
1470961441 -0.100894 -0.178517
1473835574 -0.081434 -0.203193
1476709707 -0.115003 -0.207819
1479583840 -0.117192 -0.159773
1482457973 -0.075729 -0.152464
1485332106 -0.063512 -0.197407
1488206239 -0.100396 -0.200233
1491080372 -0.112061 -0.173517
1493954505 -0.100306 -0.166724
1496828638 -0.110251 -0.166975
1499702771 -0.112341 -0.159945
1502576904 -0.110136 -0.157186
1505451037 -0.105896 -0.1413
1508325170 -0.093474 -0.129479
1511199303 -0.092391 -0.137847
1514073436 -0.071812 -0.115996
1516947569 -0.043742 -0.151838
1519821702 -0.076242 -0.168192
1522695835 -0.078754 -0.15964
1525569968 -0.086865 -0.176463
1528444101 -0.106909 -0.162114
1531318234 -0.105778 -0.148194
1534192367 -0.10177 -0.120629
1537066500 -0.062508 -0.126232
1539940633 -0.068022 -0.151288
1542814766 -0.07959 -0.132335
1545688899 -0.045842 -0.128271
1548563032 -0.048567 -0.165428
1551437165 -0.059897 -0.176931
1554311298 -0.088773 -0.178428
1557185431 -0.094631 -0.146504
1560059564 -0.05545 -0.138472
1562933697 -0.049114 -0.17985
1565807830 -0.082484 -0.186849
1568681963 -0.088758 -0.169851
1571556096 -0.076073 -0.150246
1574430229 -0.062588 -0.173113
1577304362 -0.070782 -0.177819
1580178495 -0.084535 -0.17674
1583052628 -0.077755 -0.160058
1585926761 -0.055888 -0.185287
1588800894 -0.087666 -0.196673
1591675027 -0.084937 -0.186631
1594549160 -0.072962 -0.203731
1597423293 -0.092936 -0.217559
1600297426 -0.113886 -0.210851
1603171559 -0.107289 -0.188439
1606045692 -0.095389 -0.214737
1608919825 -0.11543 -0.222114
1611793958 -0.143197 -0.217931
1614668091 -0.143706 -0.182717
1617542224 -0.120833 -0.188292
1620416357 -0.12446 -0.189215
1623290490 -0.107225 -0.189599
1626164623 -0.109733 -0.222399
1629038756 -0.122604 -0.234087
1631912889 -0.158959 -0.235862
1634787022 -0.168508 -0.212454
1637661155 -0.164757 -0.198863
1640535288 -0.172173 -0.210676
1643409421 -0.190703 -0.195126
1646283554 -0.180832 -0.172751
1649157687 -0.163466 -0.18116
1652031820 -0.160717 -0.194137
1654905953 -0.17118 -0.198302
1657780086 -0.173326 -0.20998
1660654219 -0.195034 -0.203481
1663528352 -0.198945 -0.195077
1666402485 -0.207641 -0.200432
1669276618 -0.226374 -0.174651
1672150751 -0.21937 -0.16469
1675024884 -0.21242 -0.168944
1677899017 -0.215932 -0.166037
1680773150 -0.209998 -0.162991
1683647283 -0.214389 -0.175084
1686521416 -0.218178 -0.170787
1689395549 -0.229518 -0.184196
1692269682 -0.240369 -0.169982
1695143815 -0.245013 -0.159856
1698017948 -0.25157 -0.157539
1700892081 -0.272617 -0.14481
1703766214 -0.270162 -0.104983
1706640347 -0.222693 -0.094454
1709514480 -0.213939 -0.131346
1712388613 -0.227658 -0.143324
1715262746 -0.234674 -0.151708
1718136879 -0.251188 -0.152649
1721011012 -0.270952 -0.141092
1723885145 -0.276287 -0.113908
1726759278 -0.268639 -0.106362
1729633411 -0.266295 -0.106214
1732507544 -0.274471 -0.09452
1735381677 -0.262877 -0.087047
1738255810 -0.25197 -0.070241
1741129943 -0.218726 -0.087702
1744004076 -0.239442 -0.12578
1746878209 -0.254085 -0.122442
1749752342 -0.268242 -0.117416
1752626475 -0.268198 -0.107757
1755500608 -0.276258 -0.111394
1758374741 -0.300587 -0.095968
1761248874 -0.305496 -0.063061
1764123007 -0.259865 -0.058502
1766997140 -0.265292 -0.091482
1769871273 -0.297562 -0.088515
1772745406 -0.283764 -0.064983
1775619539 -0.271096 -0.068193
1778493672 -0.270251 -0.079853
1781367805 -0.286351 -0.08624
1784241938 -0.284955 -0.065461
1787116071 -0.278982 -0.075232
1789990204 -0.292849 -0.081234
1792864337 -0.300871 -0.08648
1795738470 -0.310615 -0.080045
1798612603 -0.318767 -0.066043
1801486736 -0.333751 -0.087425
1804360869 -0.336073 -0.047926
1807235002 -0.321357 -0.025082
1810109135 -0.29807 -0.041817
1812983268 -0.314594 -0.043932
1815857401 -0.31396 -0.03707
1818731534 -0.32459 -0.045695
1821605667 -0.332368 -0.033729
1824479800 -0.342014 -0.035859
1827353933 -0.357209 -0.021234
1830228066 -0.346795 0.006934
1833102199 -0.321286 -0.010178
1835976332 -0.341232 -0.022211
1838850465 -0.355267 -0.008968
1841724598 -0.35573 0.006423
1844598731 -0.361417 0.008471
1847472864 -0.381178 0.027634
1850346997 -0.381532 0.042083
1853221130 -0.353791 0.059853
1856095263 -0.335377 0.047858
1858969396 -0.345941 0.021728
1861843529 -0.363695 0.066969
1864717662 -0.35854 0.049689
1867591795 -0.357846 0.038542
1870465928 -0.382247 0.055936
1873340061 -0.38394 0.074046
1876214194 -0.385144 0.093519
1879088327 -0.376332 0.103404
1881962460 -0.368266 0.102615
1884836593 -0.369923 0.106509
1887710726 -0.366121 0.114707
1890584859 -0.370274 0.132048
1893458992 -0.362924 0.12365
1896333125 -0.373117 0.137721
1899207258 -0.348514 0.153398
1902081391 -0.340169 0.137663
1904955524 -0.360581 0.132713
1907829657 -0.369916 0.156318
1910703790 -0.35217 0.154906
1913577923 -0.363681 0.145826
1916452056 -0.383735 0.162378
1919326189 -0.386978 0.188149
1922200322 -0.371915 0.205758
1925074455 -0.351346 0.211499
1927948588 -0.342399 0.215154
1930822721 -0.344025 0.234773
1933696854 -0.318429 0.239713
1936570987 -0.30683 0.213803
1939445120 -0.335639 0.20057
1942319253 -0.342535 0.217387
1945193386 -0.344282 0.232199
1948067519 -0.336537 0.241055
1950941652 -0.33501 0.241189
1953815785 -0.342627 0.256989
1956689918 -0.322663 0.273553
1959564051 -0.311411 0.278415
1962438184 -0.308407 0.283042
1965312317 -0.305883 0.293073
1968186450 -0.290189 0.302969
1971060583 -0.270361 0.293961
1973934716 -0.283334 0.274657
1976808849 -0.296779 0.276888
1979682982 -0.303431 0.28037
1982557115 -0.308256 0.29906
1985431248 -0.301439 0.31258
1988305381 -0.287671 0.33939
1991179514 -0.262274 0.342922
1994053647 -0.254002 0.332577
1996927780 -0.247693 0.327918
1999801913 -0.278372 0.306874
2002676046 -0.261626 0.320434
2005550179 -0.263914 0.327666
2008424312 -0.270378 0.332237
2011298445 -0.264181 0.355017
2014172578 -0.250129 0.35926
2017046711 -0.238424 0.376995
2019920844 -0.219273 0.368614
2022794977 -0.219657 0.35992
2025669110 -0.223949 0.358425
2028543243 -0.216617 0.355971
2031417376 -0.236808 0.356758
2034291509 -0.241972 0.370969
