# HZ S RI R 50
100000000 0.837612 -0.540016
102874133 0.833527 -0.564834
105748266 0.827027 -0.577149
108622399 0.822439 -0.592212
111496532 0.814119 -0.605431
114370665 0.864199 -0.560222
117244798 0.798399 -0.632473
120118931 0.788841 -0.642813
122993064 0.773839 -0.656111
125867197 0.752938 -0.667726
128741330 0.738129 -0.674288
131615463 0.735384 -0.683061
134489596 0.728166 -0.710681
137363729 0.701335 -0.719034
140237862 0.69341 -0.732856
143111995 0.686038 -0.745343
145986128 0.675228 -0.756621
148860261 0.662688 -0.764937
151734394 0.649844 -0.77343
154608527 0.633868 -0.780109
157482660 0.618325 -0.787124
160356793 0.608797 -0.802053
163230926 0.599304 -0.817877
166105059 0.587807 -0.830101
168979192 0.578911 -0.841459
171853325 0.56583 -0.851482
174727458 0.552153 -0.860132
177601591 0.536899 -0.866295
180475724 0.518521 -0.872376
183349857 0.500805 -0.875882
186223990 0.480491 -0.878961
189098123 0.467028 -0.891927
191972256 0.453887 -0.906183
194846389 0.44392 -0.917981
197720522 0.432601 -0.928538
200594655 0.416846 -0.937611
203468788 0.404278 -0.942187
206342921 0.385311 -0.946788
209217054 0.368079 -0.948768
212091187 0.34946 -0.948285
214965320 0.327702 -0.948548
217839453 0.3136 -0.954973
220713586 0.30007 -0.968783
223587719 0.28775 -0.977816
226461852 0.274898 -0.98518
229335985 0.258595 -0.991205
232210118 0.244885 -0.994025
235084251 0.228178 -0.994989
237958384 0.21148 -0.991974
240832517 0.195003 -0.987629
243706650 0.174539 -0.982075
246580783 0.156872 -0.986232
249454916 0.139091 -0.996782
252329049 0.122088 -1.006921
255203182 0.105604 -1.013506
258077315 0.088307 -1.018429
260951448 0.07041 -1.020003
263825581 0.053794 -1.020036
266699714 0.035347 -1.0166
269573847 0.018003 -1.013304
272447980 -0.001736 -1.005703
275322113 -0.018642 -1.007077
278196246 -0.039558 -1.014797
281070379 -0.055581 -1.019645
283944512 -0.071493 -1.021661
286818645 -0.088987 -1.022042
289692778 -0.106792 -1.02011
292566911 -0.121755 -1.016946
295441044 -0.138089 -1.008806
298315177 -0.152033 -0.999918
301189310 -0.16812 -0.990012
304063443 -0.184697 -0.983284
306937576 -0.201632 -0.988263
309811709 -0.221772 -0.988481
312685842 -0.239685 -0.991578
315559975 -0.257342 -0.98905
318434108 -0.273129 -0.984851
321308241 -0.288275 -0.981256
324182374 -0.305057 -0.970923
327056507 -0.318936 -0.959716
329930640 -0.335147 -0.948237
332804773 -0.348596 -0.938129
335678906 -0.368387 -0.938799
338553039 -0.387286 -0.938025
341427172 -0.401498 -0.93383
344301305 -0.418395 -0.928931
347175438 -0.435045 -0.921114
350049571 -0.447514 -0.913312
352923704 -0.462527 -0.89926
355797837 -0.473497 -0.893046
358671970 -0.484208 -0.877613
361546103 -0.498645 -0.862861
364420236 -0.518055 -0.858973
367294369 -0.535607 -0.854769
370168502 -0.552886 -0.851226
373042635 -0.567672 -0.844203
375916768 -0.582095 -0.834334
378790901 -0.595664 -0.821607
381665034 -0.605002 -0.808867
384539167 -0.615826 -0.793011
387413300 -0.625897 -0.779384
390287433 -0.636301 -0.761046
393161566 -0.655566 -0.75659
396035699 -0.673072 -0.750628
398909832 -0.68906 -0.740259
401783965 -0.705013 -0.730096
404658098 -0.717152 -0.71984
407532231 -0.730846 -0.705082
410406364 -0.737475 -0.690453
413280497 -0.747702 -0.672219
416154630 -0.752046 -0.658736
419028763 -0.76194 -0.637257
421902896 -0.767429 -0.643443
424777029 -0.795465 -0.618943
427651162 -0.809101 -0.606908
430525295 -0.82023 -0.595806
433399428 -0.832932 -0.580831
436273561 -0.840159 -0.565801
439147694 -0.848277 -0.549349
442021827 -0.856674 -0.530917
444895960 -0.858747 -0.51208
447770093 -0.862197 -0.489814
450644226 -0.877508 -0.475611
453518359 -0.893338 -0.463845
456392492 -0.907 -0.449783
459266625 -0.916649 -0.433648
462140758 -0.924741 -0.420742
465014891 -0.931613 -0.403971
467889024 -0.936921 -0.385422
470763157 -0.941037 -0.364933
473637290 -0.942061 -0.346093
476511423 -0.939274 -0.325001
479385556 -0.949618 -0.310541
482259689 -0.961588 -0.296982
485133822 -0.974757 -0.278718
488007955 -0.980733 -0.266486
490882088 -0.985177 -0.250233
493756221 -0.989 -0.233005
496630354 -0.990937 -0.218111
499504487 -0.987923 -0.197722
502378620 -0.983965 -0.180462
505252753 -0.986186 -0.131316
508126886 -0.985512 -0.139482
511001019 -0.993486 -0.116488
513875152 -1.004872 -0.035611
516749285 -1.005695 -0.074701
519623418 -1.009412 -0.054102
522497551 -1.008992 -0.030232
525371684 -1.007761 -0.007179
528245817 -1.003412 0.014141
531119950 -0.99817 0.036012
533994083 -0.989519 0.058899
536868216 -0.987016 0.081463
539742349 -1.001867 0.069281
542616482 -0.998055 0.118386
545490615 -1.001511 0.138018
548364748 -0.997217 0.155877
551238881 -0.995435 0.172253
554113014 -0.992063 0.188636
556987147 -0.985343 0.206098
559861280 -0.973207 0.2099
562735413 -0.960483 0.241403
565609546 -0.955399 0.259417
568483679 -0.955729 0.280821
571357812 -0.954258 0.300472
574231945 -0.952396 0.325924
577106078 -0.946308 0.345092
579980211 -0.937637 0.363444
582854344 -0.928426 0.381603
585728477 -0.917753 0.399465
588602610 -0.944469 0.348428
591476743 -0.887873 0.435185
594350876 -0.878282 0.449787
597225009 -0.87334 0.475646
600099142 -0.86523 0.496048
602973275 -0.858434 0.516214
605847408 -0.84728 0.539994
608721541 -0.837411 0.557559
611595674 -0.8214 0.572663
614469807 -0.806585 0.590158
617343940 -0.78849 0.603055
620218073 -0.771339 0.615615
623092206 -0.752338 0.634851
625966339 -0.744394 0.655415
628840472 -0.730528 0.676923
631714605 -0.721476 0.694491
634588738 -0.704387 0.712043
637462871 -0.691189 0.724869
640337004 -0.671631 0.741579
643211137 -0.653832 0.753576
646085270 -0.627271 0.763008
648959403 -0.606365 0.771173
651833536 -0.58225 0.78426
654707669 -0.567726 0.805592
657581802 -0.553398 0.823763
660455935 -0.537481 0.836682
663330068 -0.516264 0.85456
666204201 -0.497324 0.866331
669078334 -0.471533 0.877822
671952467 -0.453226 0.88449
674826600 -0.424907 0.890147
677700733 -0.39793 0.895155
680574866 -0.371497 0.901165
683448999 -0.346238 0.916603
686323132 -0.324822 0.933237
689197265 -0.302578 0.947417
692071398 -0.280309 0.955028
694945531 -0.256853 0.962348
697819664 -0.231146 0.965326
700693797 -0.205488 0.968697
703567930 -0.174116 0.968663
706442063 -0.147922 0.964867
709316196 -0.115608 0.959701
712190329 -0.088302 0.971716
715064462 -0.060273 0.981391
717938595 -0.032127 0.983729
720812728 -0.000499 0.989176
723686861 0.025886 0.989014
726560994 0.059275 0.986515
729435127 0.084464 0.982828
732309260 0.115767 0.97352
735183393 0.146348 0.960824
738057526 0.172406 0.948821
740931659 0.202756 0.951086
743805792 0.237576 0.948395
746679925 0.265556 0.945496
749554058 0.301449 0.935919
752428191 0.333704 0.929816
755302324 0.359201 0.917817
758176457 0.388127 0.902251
761050590 0.416052 0.884383
763924723 0.45529 0.853383
766798856 0.467565 0.841086
769672989 0.500178 0.828326
772547122 0.533267 0.814761
775421255 0.56393 0.797782
778295388 0.604499 0.769156
781169521 0.619424 0.754228
784043654 0.647244 0.731218
786917787 0.673854 0.702471
789791920 0.696891 0.671773
792666053 0.72477 0.62869
795540186 0.736224 0.603554
798414319 0.765841 0.574513
801288452 0.791948 0.545494
804162585 0.821002 0.50699
807036718 0.844737 0.467659
809910851 0.867672 0.432633
812784984 0.884693 0.382968
815659117 0.894384 0.338442
818533250 0.897901 0.289238
821407383 0.891874 0.228647
824281516 0.867091 0.179559
827155649 0.85324 0.160995
830029782 0.868823 0.152329
832903915 0.900867 0.123324
835778048 0.92416 0.072458
838652181 0.945672 0.075509
841526314 0.937959 -0.038337
844400447 0.892739 -0.193789
847274580 0.923345 -0.149819
850148713 0.899692 -0.209506
853022846 0.872421 -0.265397
855896979 0.854813 -0.329145
858771112 0.831817 -0.387966
861645245 0.797572 -0.45479
864519378 0.762315 -0.514379
867393511 0.714416 -0.570142
870267644 0.658432 -0.624581
873141777 0.593836 -0.675606
876015910 0.520685 -0.714818
878890043 0.430315 -0.752937
881764176 0.339184 -0.775855
884638309 0.234851 -0.798937
887512442 0.125293 -0.813804
890386575 0.002961 -0.807477
893260708 -0.11458 -0.777001
896134841 -0.249218 -0.723121
899008974 -0.369341 -0.626474
901883107 -0.470511 -0.501437
904757240 -0.546306 -0.345064
907631373 -0.583498 -0.160626
910505506 -0.55982 0.02909
913379639 -0.486949 0.211761
916253772 -0.367402 0.367643
919127905 -0.200777 0.477972
922002038 -0.022159 0.535758
924876171 0.162789 0.535209
927750304 0.329248 0.489847
930624437 0.461977 0.405536
933498570 0.56798 0.300137
936372703 0.637591 0.182258
939246836 0.677335 0.05882
942120969 0.687569 -0.055257
944995102 0.692341 -0.168655
947869235 0.671933 -0.270906
950743368 0.642949 -0.361777
953617501 0.605403 -0.445436
956491634 0.551488 -0.524718
959365767 0.490229 -0.560214
962239900 0.426576 -0.629495
965114033 0.35441 -0.6699
967988166 0.28091 -0.687979
970862299 0.218626 -0.706503
973736432 0.15102 -0.72999
976610565 0.085065 -0.747675
979484698 0.018317 -0.754969
982358831 -0.047428 -0.749079
985232964 -0.108115 -0.744668
988107097 -0.176511 -0.737725
990981230 -0.241875 -0.713382
993855363 -0.302138 -0.682492
996729496 -0.356233 -0.650144
999603629 -0.418764 -0.611581
1002477762 -0.479043 -0.574841
1005351895 -0.530448 -0.516151
1008226028 -0.569179 -0.473127
1011100161 -0.61653 -0.418238
1013974294 -0.668381 -0.288475
1016848427 -0.662389 -0.279509
1019722560 -0.676786 -0.218512
1022596693 -0.686781 -0.156092
1025470826 -0.691329 -0.084281
1028344959 -0.668232 -0.003562
1031219092 -0.657405 0.044656
1034093225 -0.648815 0.110537
1036967358 -0.628458 0.169852
1039841491 -0.609998 0.228421
1042715624 -0.575396 0.30209
1045589757 -0.521976 0.350528
1048463890 -0.475288 0.387236
1051338023 -0.423572 0.433838
1054212156 -0.353628 0.472134
1057086289 -0.280294 0.485028
1059960422 -0.222778 0.485946
1062834555 -0.184839 0.508507
1065708688 -0.10714 0.535443
1068582821 -0.042069 0.507992
1071456954 -0.005276 0.506927
1074331087 0.063262 0.515863
1077205220 0.153842 0.498307
1080079353 0.223396 0.435343
1082953486 0.244486 0.3723
1085827619 0.276653 0.334058
1088701752 0.309736 0.297051
1091575885 0.334261 0.237167
1094450018 0.338131 0.182086
1097324151 0.324833 0.165471
1100198284 0.374661 0.160748
1103072417 0.412419 0.082095
1105946550 0.387966 0.011369
1108820683 0.391307 -0.039671
1111694816 0.395487 -0.073161
1114568949 0.358586 -0.120593
1117443082 0.337644 -0.17331
1120317215 0.272903 -0.186418
1123191348 0.277101 -0.185405
1126065481 0.255306 -0.225349
1128939614 0.246372 -0.231885
1131813747 0.220191 -0.265117
1134687880 0.187168 -0.264844
1137562013 0.179767 -0.277613
1140436146 0.155177 -0.297833
1143310279 0.11959 -0.317361
1146184412 0.089128 -0.31226
1149058545 0.071367 -0.303096
1151932678 0.07617 -0.315894
1154806811 0.047208 -0.337822
1157680944 0.016614 -0.339389
1160555077 0.004812 -0.327362
1163429210 -0.003614 -0.337262
1166303343 -0.033042 -0.347499
1169177476 -0.048502 -0.345392
1172051609 -0.091929 -0.336804
1174925742 -0.08949 -0.326459
1177799875 -0.108228 -0.350264
1180674008 -0.152668 -0.349863
1183548141 -0.165346 -0.31356
1186422274 -0.151323 -0.313499
1189296407 -0.174857 -0.344141
1192170540 -0.213744 -0.329636
1195044673 -0.237986 -0.310573
1197918806 -0.240067 -0.301984
1200792939 -0.266173 -0.290251
1203667072 -0.287981 -0.276175
1206541205 -0.308715 -0.249678
1209415338 -0.312719 -0.236845
1212289471 -0.317477 -0.230226
1215163604 -0.329179 -0.225299
1218037737 -0.348527 -0.208027
1220911870 -0.358584 -0.19871
1223786003 -0.387644 -0.179841
1226660136 -0.39049 -0.141919
1229534269 -0.386012 -0.123814
1232408402 -0.400876 -0.11029
1235282535 -0.402595 -0.056952
1238156668 -0.378576 -0.043306
1241030801 -0.357929 -0.041451
1243904934 -0.359674 -0.06321
1246779067 -0.389526 -0.039666
1249653200 -0.366798 -0.026169
1252527333 -0.394678 -0.038323
1255401466 -0.408355 0.009284
1258275599 -0.39663 0.045118
1261149732 -0.367048 0.063036
1264023865 -0.350192 0.062898
1266897998 -0.343325 0.059953
1269772131 -0.353206 0.058508
1272646264 -0.337853 0.070876
1275520397 -0.3379 0.051734
1278394530 -0.368075 0.049872
1281268663 -0.37943 0.085951
1284142796 -0.370333 0.101341
1287016929 -0.371009 0.113527
1289891062 -0.360937 0.13703
1292765195 -0.343639 0.150455
1295639328 -0.341677 0.147478
1298513461 -0.351145 0.145676
1301387594 -0.3757 0.164477
1304261727 -0.370597 0.198182
1307135860 -0.36005 0.216994
1310009993 -0.409328 0.192715
1312884126 -0.338637 0.262073
1315758259 -0.302662 0.274306
1318632392 -0.292177 0.269304
1321506525 -0.290801 0.285858
1324380658 -0.269158 0.297987
1327254791 -0.262605 0.2959
1330128924 -0.279318 0.314899
1333003057 -0.238209 0.340526
1335877190 -0.23104 0.381265
1338751323 -0.19338 0.384255
1341625456 -0.156835 0.385298
1344499589 -0.130976 0.356772
1347373722 -0.115983 0.355999
1350247855 -0.103191 0.345273
1353121988 -0.101639 0.366504
1355996121 -0.068269 0.3596
1358870254 -0.055072 0.351118
1361744387 -0.029883 0.359786
1364618520 -0.005625 0.342794
1367492653 0.018067 0.330571
1370366786 0.035798 0.295978
1373240919 0.028159 0.272255
1376115052 0.027549 0.264911
1378989185 0.039766 0.265313
1381863318 0.056634 0.263365
1384737451 0.069424 0.247274
1387611584 0.077066 0.231836
1390485717 0.084463 0.213402
1393359850 0.086431 0.178545
1396233983 0.064702 0.156131
1399108116 0.037305 0.156853
1401982249 0.042772 0.178771
1404856382 0.066668 0.161595
1407730515 0.040692 0.142265
1410604648 0.045011 0.167286
1413478781 0.069607 0.146994
1416352914 0.049826 0.117422
1419227047 0.02638 0.122871
1422101180 0.017045 0.148095
1424975313 0.037399 0.15477
1427849446 0.047935 0.146544
1430723579 0.041949 0.135422
1433597712 0.05362 0.14437
1436471845 0.061437 0.129675
1439345978 0.074359 0.118521
1442220111 0.048493 0.10319
1445094244 0.045239 0.11373
1447968377 0.036074 0.12389
1450842510 0.05877 0.137221
1453716643 0.078109 0.1328
1456590776 0.103784 0.116954
1459464909 0.089193 0.085189
1462339042 0.07697 0.088232
1465213175 0.086883 0.09283
1468087308 0.111094 0.090338
1470961441 0.127843 0.052065
1473835574 0.096966 0.031889
1476709707 0.101342 0.054308
1479583840 0.131725 0.016745
1482457973 0.104523 -0.021795
1485332106 0.064995 -0.001569
1488206239 0.093114 0.012124
1491080372 0.10287 -0.022713
1493954505 0.084573 -0.037521
1496828638 0.090783 -0.0444
1499702771 0.083289 -0.069539
1502576904 0.062532 -0.083196
1505451037 0.056859 -0.094092
1508325170 0.034522 -0.110744
1511199303 0.020893 -0.110095
1514073436 -0.003629 -0.128016
1516947569 -0.036152 -0.108326
1519821702 -0.024446 -0.094991
1522695835 -0.035195 -0.111649
1525569968 -0.044571 -0.111007
1528444101 -0.05225 -0.122343
1531318234 -0.071721 -0.125165
1534192367 -0.090067 -0.143369
1537066500 -0.130459 -0.129177
1539940633 -0.130693 -0.110983
1542814766 -0.143042 -0.119549
1545688899 -0.172846 -0.109354
1548563032 -0.176896 -0.080646
1551437165 -0.176296 -0.064218
1554311298 -0.159684 -0.071581
1557185431 -0.192666 -0.091069
1560059564 -0.223125 -0.056708
1562933697 -0.198463 -0.030942
1565807830 -0.197542 -0.059441
1568681963 -0.225391 -0.064039
1571556096 -0.262212 -0.039352
1574430229 -0.254122 -0.00639
1577304362 -0.243384 0.004969
1580178495 -0.248238 -0.002535
1583052628 -0.267777 0.01184
1585926761 -0.260168 0.03216
1588800894 -0.268917 0.029946
1591675027 -0.272837 0.039233
1594549160 -0.275813 0.051126
1597423293 -0.2977 0.050994
1600297426 -0.294735 0.059471
1603171559 -0.302396 0.090261
1606045692 -0.282479 0.100232
1608919825 -0.281205 0.09021
1611793958 -0.310069 0.093515
1614668091 -0.330112 0.129313
1617542224 -0.319234 0.157229
1620416357 -0.316722 0.169906
1623290490 -0.303752 0.18894
1626164623 -0.282005 0.189705
1629038756 -0.292836 0.192015
1631912889 -0.310617 0.200567
1634787022 -0.311933 0.223072
1637661155 -0.311956 0.238261
1640535288 -0.315277 0.261011
1643409421 -0.316993 0.293937
1646283554 -0.299496 0.328385
1649157687 -0.273026 0.341056
1652031820 -0.255268 0.34475
1654905953 -0.252121 0.349512
1657780086 -0.247252 0.361072
1660654219 -0.236832 0.379244
1663528352 -0.223218 0.393506
1666402485 -0.215281 0.403858
1669276618 -0.197419 0.437517
1672150751 -0.166556 0.457815
1675024884 -0.138679 0.460929
1677899017 -0.115717 0.465152
1680773150 -0.09733 0.465841
1683647283 -0.082339 0.471296
1686521416 -0.069288 0.478993
1689395549 -0.047484 0.489796
1692269682 -0.014856 0.490116
1695143815 0.00308 0.488169
1698017948 0.035031 0.487625
1700892081 0.06267 0.51156
1703766214 0.109934 0.503357
1706640347 0.13774 0.470077
1709514480 0.14127 0.453485
1712388613 0.153391 0.451032
1715262746 0.173015 0.449929
1718136879 0.196439 0.439603
1721011012 0.222672 0.429981
1723885145 0.249481 0.408861
1726759278 0.279803 0.39143
1729633411 0.309273 0.369811
1732507544 0.322097 0.345049
1735381677 0.339178 0.319183
1738255810 0.360136 0.287818
1741129943 0.350766 0.251575
1744004076 0.354412 0.245286
1746878209 0.366662 0.225567
1749752342 0.382866 0.199386
1752626475 0.385938 0.169745
1755500608 0.404855 0.142636
1758374741 0.428384 0.106824
1761248874 0.431145 0.046837
1764123007 0.412092 0.006943
1766997140 0.393155 -0.014806
1769871273 0.394226 -0.041308
1772745406 0.38391 -0.079365
1775619539 0.362017 -0.112763
1778493672 0.346428 -0.1346
1781367805 0.340375 -0.159829
1784241938 0.317021 -0.203528
1787116071 0.290091 -0.223627
1789990204 0.277759 -0.252821
1792864337 0.251615 -0.284844
1795738470 0.223137 -0.311056
1798612603 0.18683 -0.335933
1801486736 0.156217 -0.355445
1804360869 0.115584 -0.380414
1807235002 0.059167 -0.394383
1810109135 0.025705 -0.380567
1812983268 -0.003191 -0.390024
1815857401 -0.041617 -0.4055
1818731534 -0.08886 -0.413039
1821605667 -0.132402 -0.409924
1824479800 -0.175399 -0.404903
1827353933 -0.225752 -0.397214
1830228066 -0.271911 -0.370155
1833102199 -0.297529 -0.341145
1835976332 -0.328959 -0.33103
1838850465 -0.36851 -0.310774
1841724598 -0.413787 -0.28092
1844598731 -0.448758 -0.252622
1847472864 -0.488554 -0.222206
1850346997 -0.518668 -0.180744
1853221130 -0.542335 -0.134602
1856095263 -0.549204 -0.091793
1858969396 -0.567791 -0.07239
1861843529 -0.581081 -0.029501
1864717662 -0.593197 0.016792
1867591795 -0.588974 0.059467
1870465928 -0.599991 0.094153
1873340061 -0.607458 0.139534
1876214194 -0.608903 0.192499
1879088327 -0.596366 0.2335
1881962460 -0.589473 0.26789
1884836593 -0.577702 0.306908
1887710726 -0.595527 0.314414
1890584859 -0.547515 0.381377
1893458992 -0.523721 0.41412
1896333125 -0.497816 0.448252
1899207258 -0.470675 0.47917
1902081391 -0.447295 0.499824
1904955524 -0.452571 0.510059
1907829657 -0.424601 0.554722
1910703790 -0.39096 0.582792
1913577923 -0.342993 0.601728
1916452056 -0.336557 0.619333
1919326189 -0.304186 0.632326
1922200322 -0.254178 0.648688
1925074455 -0.190217 0.657553
1927948588 -0.149811 0.659869
1930822721 -0.121371 0.674014
1933696854 -0.076943 0.677353
1936570987 -0.047061 0.674018
1939445120 -0.02325 0.676611
1942319253 0.015685 0.680061
1945193386 0.058047 0.674516
1948067519 0.097914 0.65551
1950941652 0.129588 0.640602
1953815785 0.167695 0.624123
1956689918 0.183706 0.60518
1959564051 0.23727 0.570747
1962438184 0.270516 0.545577
1965312317 0.304804 0.51601
1968186450 0.325326 0.479191
1971060583 0.344568 0.437102
1973934716 0.359395 0.404267
1976808849 0.377 0.360792
1979682982 0.389688 0.318056
1982557115 0.399175 0.231997
1985431248 0.410797 0.200771
1988305381 0.391529 0.141364
1991179514 0.37569 0.086981
1994053647 0.348528 0.038035
1996927780 0.317124 -0.009526
1999801913 0.284506 -0.053449
2002676046 0.243338 -0.096796
2005550179 0.191444 -0.14059
2008424312 0.125753 -0.17185
2011298445 0.052646 -0.199151
2014172578 -0.024258 -0.205405
2017046711 -0.099988 -0.201575
2019920844 -0.170185 -0.182502
2022794977 -0.240849 -0.159115
2025669110 -0.300471 -0.124906
2028543243 -0.356165 -0.081261
2031417376 -0.405791 -0.033058
2034291509 -0.453851 0.021002
2037165642 -0.491558 0.085266
2040039775 -0.503547 0.154177
2042913908 -0.511067 0.21714
2045788041 -0.524413 0.277829
2048662174 -0.523897 0.344122
2051536307 -0.517838 0.403988
