# HZ S RI R 50
100000000 0.863692 -0.509181
102874133 0.847762 -0.543871
105748266 0.853719 -0.537811
108622399 0.851641 -0.554278
111496532 0.840058 -0.569883
114370665 0.831179 -0.580734
117244798 0.822669 -0.59705
120118931 0.807061 -0.605828
122993064 0.796724 -0.619354
125867197 0.782139 -0.625499
128741330 0.764507 -0.638544
131615463 0.762656 -0.65263
134489596 0.758125 -0.67155
137363729 0.73186 -0.681955
140237862 0.72447 -0.695817
143111995 0.717343 -0.708327
145986128 0.707937 -0.719676
148860261 0.696876 -0.730334
151734394 0.684971 -0.738422
154608527 0.669772 -0.747035
157482660 0.655375 -0.752307
160356793 0.646393 -0.767924
163230926 0.640495 -0.783139
166105059 0.631439 -0.79731
168979192 0.621035 -0.809436
171853325 0.609207 -0.818957
174727458 0.596197 -0.829572
177601591 0.581929 -0.835034
180475724 0.566842 -0.842313
183349857 0.547405 -0.84844
186223990 0.530414 -0.851275
189098123 0.516497 -0.863307
191972256 0.506724 -0.878872
194846389 0.496982 -0.891123
197720522 0.485909 -0.902426
200594655 0.473498 -0.909108
203468788 0.460117 -0.916607
206342921 0.444337 -0.920991
209217054 0.425345 -0.924214
212091187 0.409461 -0.924529
214965320 0.387149 -0.924574
217839453 0.372917 -0.93414
220713586 0.361451 -0.94787
223587719 0.348818 -0.959985
226461852 0.33529 -0.970296
229335985 0.319982 -0.974121
232210118 0.305883 -0.982261
235084251 0.290159 -0.982457
237958384 0.273316 -0.984011
240832517 0.254203 -0.982646
243706650 0.236158 -0.978616
246580783 0.218366 -0.985015
249454916 0.203429 -0.996334
252329049 0.187676 -1.004943
255203182 0.172995 -1.0116
258077315 0.157821 -1.016918
260951448 0.141055 -1.017595
263825581 0.126303 -1.019433
266699714 0.106996 -1.014017
269573847 0.090838 -1.008641
272447980 0.072531 -1.002907
275322113 0.054098 -1.003081
278196246 0.036379 -1.011836
281070379 0.018603 -1.019558
283944512 8e-05 -1.022701
286818645 -0.014531 -1.025153
289692778 -0.032995 -1.025588
292566911 -0.048783 -1.023411
295441044 -0.066388 -1.018949
298315177 -0.081134 -1.011241
301189310 -0.096422 -1.00186
304063443 -0.114952 -0.997196
306937576 -0.137706 -1.003971
309811709 -0.153977 -1.011194
312685842 -0.17364 -1.008424
315559975 -0.190026 -1.009733
318434108 -0.208611 -1.004938
321308241 -0.222265 -1.002199
324182374 -0.236553 -0.993547
327056507 -0.25056 -0.985454
329930640 -0.26732 -0.971542
332804773 -0.282813 -0.963015
335678906 -0.301295 -0.964321
338553039 -0.322754 -0.964595
341427172 -0.340376 -0.961748
344301305 -0.356427 -0.96298
347175438 -0.373288 -0.9547
350049571 -0.387248 -0.945909
352923704 -0.401429 -0.937765
355797837 -0.41777 -0.92657
358671970 -0.428547 -0.911795
361546103 -0.443602 -0.89634
364420236 -0.463677 -0.893854
367294369 -0.481614 -0.893245
370168502 -0.501168 -0.886725
373042635 -0.515439 -0.880482
375916768 -0.531381 -0.872407
378790901 -0.544815 -0.860737
381665034 -0.558998 -0.850486
384539167 -0.570647 -0.834556
387413300 -0.584127 -0.8171
390287433 -0.595341 -0.803334
393161566 -0.613184 -0.797129
396035699 -0.632348 -0.794761
398909832 -0.648979 -0.785349
401783965 -0.662533 -0.778342
404658098 -0.679808 -0.763587
407532231 -0.689163 -0.752152
410406364 -0.699152 -0.739807
413280497 -0.710252 -0.721493
416154630 -0.71856 -0.705007
419028763 -0.727527 -0.681451
421902896 -0.745054 -0.673712
424777029 -0.764152 -0.662793
427651162 -0.779046 -0.651533
430525295 -0.79062 -0.639648
433399428 -0.803134 -0.624301
436273561 -0.813694 -0.610106
439147694 -0.82358 -0.592235
442021827 -0.830931 -0.571972
444895960 -0.837753 -0.552525
447770093 -0.839168 -0.530727
450644226 -0.856021 -0.519001
453518359 -0.871739 -0.503363
456392492 -0.887375 -0.490486
459266625 -0.866592 -0.527724
462140758 -0.909894 -0.459483
465014891 -0.851522 -0.555375
467889024 -0.922525 -0.422428
470763157 -0.926819 -0.403377
473637290 -0.928829 -0.381815
476511423 -0.927685 -0.359093
479385556 -0.940759 -0.343684
482259689 -0.952775 -0.327316
485133822 -0.966603 -0.308806
488007955 -0.97362 -0.291486
490882088 -0.980059 -0.275138
493756221 -0.985564 -0.252987
496630354 -0.986976 -0.236651
499504487 -0.988621 -0.212882
502378620 -0.984391 -0.19198
505252753 -0.981448 -0.169239
508126886 -0.985122 -0.14874
511001019 -0.997986 -0.130022
513875152 -1.005174 -0.111527
516749285 -1.011372 -0.089985
519623418 -1.015883 -0.06891
522497551 -1.013687 -0.047314
525371684 -1.013504 -0.030343
528245817 -1.008158 -0.009234
531119950 -1.002919 0.012752
533994083 -0.994224 0.031554
536868216 -0.989452 0.055027
539742349 -0.997711 0.079262
542616482 -1.001062 0.098444
545490615 -1.003213 0.122259
548364748 -1.002451 0.140934
551238881 -0.996669 0.165419
554113014 -0.989063 0.181447
556987147 -0.981121 0.204016
559861280 -0.969542 0.222783
562735413 -0.955797 0.243251
565609546 -0.950365 0.265768
568483679 -0.951347 0.289611
571357812 -0.950093 0.310406
574231945 -0.947229 0.331761
577106078 -0.943107 0.356273
579980211 -0.932397 0.375191
582854344 -0.923219 0.39478
585728477 -0.910867 0.412501
588602610 -0.895741 0.429558
591476743 -0.881314 0.448335
594350876 -0.870761 0.465433
597225009 -0.865711 0.489067
600099142 -0.856561 0.510588
602973275 -0.845626 0.535023
605847408 -0.838128 0.549675
608721541 -0.806748 0.582133
611595674 -0.805553 0.585836
614469807 -0.787985 0.603204
617343940 -0.769191 0.615961
620218073 -0.746778 0.629247
623092206 -0.731426 0.645932
625966339 -0.717882 0.670644
628840472 -0.707966 0.690003
631714605 -0.692123 0.712073
634588738 -0.677922 0.729143
637462871 -0.660714 0.748151
640337004 -0.641974 0.762402
643211137 -0.620635 0.770897
646085270 -0.596772 0.783671
648959403 -0.570846 0.796306
651833536 -0.548929 0.804431
654707669 -0.535117 0.824457
657581802 -0.513349 0.842746
660455935 -0.493829 0.860133
663330068 -0.473557 0.872586
666204201 -0.451589 0.885598
669078334 -0.42756 0.896783
671952467 -0.398835 0.904541
674826600 -0.376567 0.908512
677700733 -0.346826 0.907722
680574866 -0.320766 0.912998
683448999 -0.297391 0.929537
686323132 -0.271205 0.943039
689197265 -0.24586 0.952763
692071398 -0.219989 0.961146
694945531 -0.191008 0.96924
697819664 -0.161721 0.972565
700693797 -0.139683 0.970886
703567930 -0.110586 0.96788
706442063 -0.082485 0.963718
709316196 -0.055678 0.95639
712190329 -0.026559 0.964913
715064462 0.011747 0.972336
717938595 0.034054 0.976606
720812728 0.06437 0.977964
723686861 0.094077 0.97754
726560994 0.1188 0.973294
729435127 0.146283 0.96549
732309260 0.175846 0.957689
735183393 0.203308 0.944213
738057526 0.226556 0.929746
740931659 0.263321 0.930031
743805792 0.292013 0.927148
746679925 0.324971 0.919502
749554058 0.352624 0.911006
752428191 0.385495 0.900397
755302324 0.414429 0.887965
758176457 0.439643 0.870388
761050590 0.468394 0.851553
763924723 0.491908 0.828882
766798856 0.514437 0.808774
769672989 0.547605 0.790761
772547122 0.578334 0.77467
775421255 0.610008 0.756023
778295388 0.636583 0.735621
781169521 0.666271 0.711908
784043654 0.688228 0.686069
786917787 0.709414 0.655754
789791920 0.732851 0.625238
792666053 0.74966 0.591269
795540186 0.769069 0.554566
798414319 0.793459 0.525313
801288452 0.818896 0.494276
804162585 0.843895 0.457878
807036718 0.865517 0.424093
809910851 0.876503 0.385355
812784984 0.885892 0.349204
815659117 0.889339 0.314755
818533250 0.900701 0.279359
821407383 0.91178 0.238719
824281516 0.918842 0.193048
827155649 0.929592 0.146706
830029782 0.941563 0.101936
832903915 0.953363 0.052587
835778048 0.955446 0.000399
838652181 0.952788 -0.053582
841526314 0.947731 -0.106141
844400447 0.932666 -0.161428
847274580 0.915568 -0.217405
850148713 0.886939 -0.275509
853022846 0.856595 -0.333575
855896979 0.830357 -0.391849
858771112 0.794705 -0.457571
861645245 0.754182 -0.517586
864519378 0.702473 -0.578562
867393511 0.635833 -0.634175
870267644 0.552996 -0.690951
873141777 0.458435 -0.729284
876015910 0.345222 -0.758478
878890043 0.211081 -0.765028
881764176 0.063692 -0.739365
884638309 -0.092235 -0.676538
887512442 -0.248073 -0.558688
890386575 -0.356313 -0.36997
893260708 -0.390907 -0.128418
896134841 -0.309601 0.118908
899008974 -0.124451 0.305877
901883107 0.116602 0.382137
904757240 0.327771 0.354057
907631373 0.49987 0.263829
910505506 0.608819 0.133802
913379639 0.669391 0.002987
916253772 0.700113 -0.13152
919127905 0.693461 -0.247523
922002038 0.671385 -0.357226
924876171 0.633223 -0.454801
927750304 0.579328 -0.537107
930624437 0.511759 -0.603001
933498570 0.436976 -0.65872
936372703 0.355248 -0.697564
939246836 0.272321 -0.72353
942120969 0.187722 -0.736824
944995102 0.104224 -0.751761
947869235 0.008718 -0.751338
950743368 -0.056783 -0.734805
953617501 -0.132081 -0.712331
956491634 -0.214723 -0.678898
959365767 -0.277422 -0.621693
962239900 -0.33378 -0.565207
965114033 -0.384027 -0.496441
967988166 -0.398175 -0.420252
970862299 -0.418372 -0.363262
973736432 -0.434731 -0.313872
976610565 -0.46342 -0.25451
979484698 -0.470435 -0.173719
982358831 -0.462151 -0.112766
985232964 -0.460733 -0.048148
988107097 -0.446291 0.032104
990981230 -0.398434 0.114301
993855363 -0.330134 0.16162
996729496 -0.288254 0.191055
999603629 -0.221771 0.25769
1002477762 -0.13856 0.284001
1005351895 -0.045023 0.268649
1008226028 -0.009423 0.268658
1011100161 0.073992 0.280932
1013974294 0.173173 0.229759
1016848427 0.203283 0.154929
1019722560 0.228249 0.118436
1022596693 0.266649 0.070713
1025470826 0.29685 0.007277
1028344959 0.286261 -0.081457
1031219092 0.258427 -0.109032
1034093225 0.265499 -0.152209
1036967358 0.249751 -0.189188
1039841491 0.250024 -0.238944
1042715624 0.22761 -0.310361
1045589757 0.169948 -0.343308
1048463890 0.131803 -0.363072
1051338023 0.088439 -0.393972
1054212156 0.027925 -0.41765
1057086289 -0.043682 -0.412771
1059960422 -0.085109 -0.377673
1062834555 -0.0943 -0.383907
1065708688 -0.165627 -0.403698
1068582821 -0.220436 -0.352695
1071456954 -0.223382 -0.326204
1074331087 -0.261696 -0.343782
1077205220 -0.334369 -0.302398
1080079353 -0.398057 -0.241026
1082953486 -0.3834 -0.15992
1085827619 -0.383049 -0.125808
1088701752 -0.391806 -0.087306
1091575885 -0.396201 -0.024789
1094450018 -0.377569 0.032987
1097324151 -0.326839 0.048601
1100198284 -0.337919 0.042839
1103072417 -0.361366 0.10409
1105946550 -0.317501 0.160786
1108820683 -0.296545 0.168464
1111694816 -0.280825 0.222152
1114568949 -0.230541 0.261457
1117443082 -0.18083 0.296227
1120317215 -0.09614 0.308814
1123191348 -0.063337 0.27149
1126065481 -0.03345 0.28711
1128939614 -0.005143 0.267379
1131813747 0.032808 0.27728
1134687880 0.077081 0.263642
1137562013 0.105156 0.238341
1140436146 0.132983 0.225936
1143310279 0.17092 0.213373
1146184412 0.209722 0.174056
1149058545 0.223013 0.128479
1151932678 0.224687 0.102475
1154806811 0.241982 0.089165
1157680944 0.273422 0.061125
1160555077 0.267567 0.007529
1163429210 0.267524 -0.014797
1166303343 0.274585 -0.033652
1169177476 0.267675 -0.068443
1172051609 0.286818 -0.095501
1174925742 0.255945 -0.146628
1177799875 0.253797 -0.160011
1180674008 0.263458 -0.17774
1183548141 0.253244 -0.24252
1186422274 0.199996 -0.269671
1189296407 0.188159 -0.250091
1192170540 0.196823 -0.275267
1195044673 0.182504 -0.312372
1197918806 0.142599 -0.328378
1200792939 0.130154 -0.341858
1203667072 0.107331 -0.361559
1206541205 0.104037 -0.387722
1209415338 0.057247 -0.410343
1212289471 0.025419 -0.419608
1215163604 -0.006744 -0.423353
1218037737 -0.029457 -0.430275
1220911870 -0.061992 -0.421431
1223786003 -0.06387 -0.425063
1226660136 -0.10127 -0.447783
1229534269 -0.141986 -0.443713
1232408402 -0.162111 -0.435832
1235282535 -0.203539 -0.458115
1238156668 -0.257503 -0.452069
1241030801 -0.30763 -0.432042
1243904934 -0.338599 -0.389263
1246779067 -0.340594 -0.377927
1249653200 -0.385504 -0.363675
1252527333 -0.393859 -0.318151
1255401466 -0.397144 -0.318576
1258275599 -0.426162 -0.309568
1261149732 -0.458066 -0.292589
1264023865 -0.494674 -0.255287
1266897998 -0.517782 -0.222958
1269772131 -0.528027 -0.190921
1272646264 -0.575212 -0.105456
1275520397 -0.558556 -0.109843
1278394530 -0.550357 -0.068469
1281268663 -0.538414 -0.049429
1284142796 -0.539523 -0.022893
1287016929 -0.534194 0.004812
1289891062 -0.531859 0.019345
1292765195 -0.5507 0.050901
1295639328 -0.550769 0.094846
1298513461 -0.538176 0.12901
1301387594 -0.513074 0.157222
1304261727 -0.495771 0.169679
1307135860 -0.488038 0.182162
1310009993 -0.474595 0.200598
1312884126 -0.4621 0.210255
1315758259 -0.46343 0.230561
1318632392 -0.447652 0.258986
1321506525 -0.429462 0.282942
1324380658 -0.428765 0.304309
1327254791 -0.402305 0.336981
1330128924 -0.368945 0.350362
1333003057 -0.356856 0.346493
1335877190 -0.343994 0.343122
1338751323 -0.344173 0.355707
1341625456 -0.338621 0.368283
1344499589 -0.324259 0.409343
1347373722 -0.291222 0.415692
1350247855 -0.267896 0.438736
1353121988 -0.245827 0.444466
1355996121 -0.230821 0.458708
1358870254 -0.204589 0.470394
1361744387 -0.191458 0.471365
1364618520 -0.172592 0.491056
1367492653 -0.147146 0.493274
1370366786 -0.078794 0.513746
1373240919 -0.080126 0.519416
1376115052 -0.04337 0.512917
1378989185 -0.016041 0.510993
1381863318 0.009502 0.509835
1384737451 0.03165 0.514329
1387611584 0.064776 0.509862
1390485717 0.088651 0.508451
1393359850 0.170534 0.494445
1396233983 0.165775 0.510132
1399108116 0.205975 0.483013
1401982249 0.234147 0.447262
1404856382 0.242981 0.429782
1407730515 0.29252 0.420773
1410604648 0.313275 0.37388
1413478781 0.311106 0.36606
1416352914 0.351379 0.355327
1419227047 0.38534 0.327062
1422101180 0.405631 0.2792
1424975313 0.406771 0.240882
1427849446 0.408945 0.207671
1430723579 0.424201 0.185013
1433597712 0.422925 0.140776
1436471845 0.421624 0.108516
1439345978 0.417819 0.084902
1442220111 0.437644 0.064116
1445094244 0.440813 0.022163
1447968377 0.448427 -0.023324
1450842510 0.427652 -0.069829
1453716643 0.403468 -0.101317
1456590776 0.373915 -0.12682
1459464909 0.365461 -0.136583
1462339042 0.353683 -0.173675
1465213175 0.33412 -0.207432
1468087308 0.300647 -0.243566
1470961441 0.270013 -0.246207
1473835574 0.273515 -0.262735
1476709707 0.243202 -0.30622
1479583840 0.191403 -0.310805
1482457973 0.183377 -0.300134
1485332106 0.182461 -0.335491
1488206239 0.12825 -0.359931
1491080372 0.0884 -0.357485
1493954505 0.063761 -0.362837
1496828638 0.020976 -0.371492
1499702771 -0.008298 -0.363869
1502576904 -0.027119 -0.365086
1505451037 -0.034455 -0.379019
1508325170 -0.076104 -0.355981
1511199303 -0.082336 -0.377965
1514073436 -0.128973 -0.332676
1516947569 -0.143348 -0.345068
1519821702 -0.186934 -0.344163
1522695835 -0.215971 -0.321189
1525569968 -0.24759 -0.316335
1528444101 -0.278425 -0.288814
1531318234 -0.302222 -0.267702
1534192367 -0.315371 -0.238087
1537066500 -0.316004 -0.232267
1539940633 -0.347734 -0.220221
1542814766 -0.365256 -0.185321
1545688899 -0.361421 -0.168318
1548563032 -0.380825 -0.159668
1551437165 -0.405712 -0.142224
1554311298 -0.440247 -0.103369
1557185431 -0.4355 -0.059348
1560059564 -0.42866 -0.050614
1562933697 -0.462288 -0.039428
1565807830 -0.472483 0.014858
1568681963 -0.463002 0.049557
1571556096 -0.440146 0.067546
1574430229 -0.450909 0.074736
1577304362 -0.455343 0.113035
1580178495 -0.444014 0.145854
1583052628 -0.430326 0.174857
1585926761 -0.442225 0.185491
1588800894 -0.43517 0.227986
1591675027 -0.42146 0.251544
1594549160 -0.413485 0.277149
1597423293 -0.398584 0.305859
1600297426 -0.371338 0.328814
1603171559 -0.347952 0.332361
1606045692 -0.343065 0.353626
1608919825 -0.322856 0.385383
1611793958 -0.290854 0.413759
1614668091 -0.253484 0.417889
1617542224 -0.245923 0.42251
1620416357 -0.226777 0.436373
1623290490 -0.211959 0.443817
1626164623 -0.193272 0.461252
1629038756 -0.178144 0.476018
1631912889 -0.123411 0.485811
1634787022 -0.094206 0.481507
1637661155 -0.066574 0.478481
1640535288 -0.036183 0.484324
1643409421 0.003725 0.475168
1646283554 0.01724 0.454542
1649157687 0.020059 0.448377
1652031820 0.037936 0.458578
1654905953 0.068356 0.45652
1657780086 0.086444 0.454509
1660654219 0.125 0.433389
1663528352 0.150601 0.413215
1666402485 0.177108 0.396547
1669276618 0.193177 0.36111
1672150751 0.195777 0.343315
1675024884 0.199228 0.335833
1677899017 0.212179 0.327184
1680773150 0.225342 0.315287
1683647283 0.243521 0.300634
1686521416 0.258581 0.280565
1689395549 0.272213 0.243784
1692269682 0.270403 0.216842
1695143815 0.268631 0.196363
1698017948 0.276434 0.168725
1700892081 0.267424 0.139673
1703766214 0.236447 0.127469
1706640347 0.240255 0.146448
1709514480 0.263703 0.135149
1712388613 0.277458 0.099918
1715262746 0.271026 0.071687
1718136879 0.2583 0.044535
1721011012 0.237318 0.026231
1723885145 0.217852 0.004995
1726759278 0.198181 0.003535
1729633411 0.188291 0.003878
1732507544 0.184013 -0.000151
1735381677 0.174624 0.034235
1738255810 0.17347 0.00269
1741129943 0.19407 -0.011428
1744004076 0.187379 -0.05115
1746878209 0.159215 -0.067864
1749752342 0.13321 -0.070847
1752626475 0.113825 -0.075055
1755500608 0.096671 -0.080892
1758374741 0.067141 -0.074997
1761248874 0.058643 -0.043685
1764123007 0.090381 -0.04881
1766997140 0.080353 -0.078948
1769871273 0.049853 -0.078193
1772745406 0.048249 -0.070939
1775619539 0.046359 -0.075853
1778493672 0.030848 -0.088185
1781367805 -0.001434 -0.08363
1784241938 0.006431 -0.066586
1787116071 3.8e-05 -0.075394
1789990204 -0.018658 -0.073859
1792864337 -0.028984 -0.063071
1795738470 -0.036186 -0.054514
1798612603 -0.031868 -0.047249
1801486736 -0.040154 -0.045479
1804360869 -0.035411 -0.030092
1807235002 -0.014387 -0.041039
1810109135 -0.038526 -0.065943
1812983268 -0.05608 -0.051133
1815857401 -0.056387 -0.04324
1818731534 -0.060068 -0.041066
1821605667 -0.060963 -0.039518
1824479800 -0.055016 -0.0381
1827353933 -0.044535 -0.041511
1830228066 -0.051632 -0.074639
1833102199 -0.091833 -0.072624
1835976332 -0.093247 -0.049177
1838850465 -0.082305 -0.045153
1841724598 -0.087136 -0.062198
1844598731 -0.098632 -0.066442
1847472864 -0.103338 -0.083598
1850346997 -0.120816 -0.097224
1853221130 -0.161409 -0.110046
1856095263 -0.197129 -0.093823
1858969396 -0.202708 -0.069911
1861843529 -0.203869 -0.069925
1864717662 -0.221783 -0.06977
1867591795 -0.236032 -0.058849
1870465928 -0.248302 -0.0664
1873340061 -0.275479 -0.06185
1876214194 -0.312689 -0.056331
1879088327 -0.342747 -0.029157
1881962460 -0.358088 -0.001005
1884836593 -0.373878 0.0194
1887710726 -0.388269 0.051032
1890584859 -0.397185 0.064472
1893458992 -0.408169 0.097159
1896333125 -0.419721 0.119473
1899207258 -0.430861 0.166144
1902081391 -0.424655 0.206352
1904955524 -0.407542 0.262295
1907829657 -0.427341 0.26155
1910703790 -0.419387 0.298847
1913577923 -0.401604 0.329176
1916452056 -0.400616 0.345966
1919326189 -0.399515 0.38152
1922200322 -0.38365 0.426971
1925074455 -0.34725 0.460704
1927948588 -0.317509 0.482867
1930822721 -0.297494 0.505641
1933696854 -0.256282 0.542477
1936570987 -0.227551 0.556197
1939445120 -0.202076 0.562172
1942319253 -0.152003 0.590978
1945193386 -0.144691 0.592389
1948067519 -0.109389 0.599506
1950941652 -0.076649 0.598391
1953815785 -0.037951 0.604446
1956689918 0.002311 0.602256
1959564051 0.059296 0.594641
1962438184 0.084985 0.5949
1965312317 0.122308 0.589888
1968186450 0.163365 0.571951
1971060583 0.19261 0.545601
1973934716 0.227526 0.518525
1976808849 0.250701 0.494022
1979682982 0.274332 0.4646
1982557115 0.301825 0.435317
1985431248 0.32926 0.395721
1988305381 0.358572 0.347807
1991179514 0.371272 0.297468
1994053647 0.377629 0.246192
1996927780 0.375215 0.189542
1999801913 0.358773 0.14247
2002676046 0.346179 0.089521
2005550179 0.323205 0.031277
2008424312 0.293691 -0.01657
2011298445 0.252655 -0.071171
2014172578 0.192752 -0.115739
2017046711 0.126509 -0.15222
2019920844 0.053797 -0.174152
2022794977 -0.017203 -0.183614
2025669110 -0.096827 -0.179614
2028543243 -0.168029 -0.163016
2031417376 -0.239278 -0.136836
2034291509 -0.308827 -0.099966
2037165642 -0.369074 -0.047715
2040039775 -0.41609 0.014616
2042913908 -0.446516 0.077999
2045788041 -0.478135 0.144721
2048662174 -0.500881 0.218562
