# HZ S RI R 50
100000000 0.736212 -0.659289
102874133 0.789861 -0.630754
105748266 0.779575 -0.643421
108622399 0.768166 -0.662745
111496532 0.758344 -0.67621
114370665 0.746943 -0.690986
117244798 0.732264 -0.702122
120118931 0.720054 -0.715229
122993064 0.70265 -0.729425
125867197 0.684252 -0.735476
128741330 0.663493 -0.74583
131615463 0.6566 -0.762498
134489596 0.648412 -0.784443
137363729 0.618587 -0.789829
140237862 0.607156 -0.803906
143111995 0.595285 -0.818517
145986128 0.583064 -0.829381
148860261 0.567245 -0.838424
151734394 0.551658 -0.847883
154608527 0.534847 -0.855892
157482660 0.516606 -0.860256
160356793 0.502069 -0.875069
163230926 0.48992 -0.890834
166105059 0.475977 -0.903373
168979192 0.461612 -0.914357
171853325 0.445103 -0.924188
174727458 0.428841 -0.931948
177601591 0.410726 -0.938278
180475724 0.389983 -0.942909
183349857 0.368198 -0.944113
186223990 0.346069 -0.94456
189098123 0.328877 -0.957167
191972256 0.314826 -0.969593
194846389 0.298747 -0.979548
197720522 0.282023 -0.987508
200594655 0.263781 -0.994383
203468788 0.246767 -0.998142
206342921 0.22639 -0.999866
209217054 0.206702 -1.000218
212091187 0.185092 -0.995324
214965320 0.163034 -0.990744
217839453 0.143922 -0.997644
220713586 0.12483 -1.008419
223587719 0.106368 -1.018121
226461852 0.088752 -1.02406
229335985 0.07042 -1.027632
232210118 0.051233 -1.028546
235084251 0.032602 -1.028167
237958384 0.012886 -1.024506
240832517 -0.006785 -1.018845
243706650 -0.026348 -1.010116
246580783 -0.046678 -1.010081
249454916 -0.067081 -1.016971
252329049 -0.086806 -1.021564
255203182 -0.10694 -1.022917
258077315 -0.125836 -1.023888
260951448 -0.143528 -1.021221
263825581 -0.161641 -1.014739
266699714 -0.179541 -1.007736
269573847 -0.195204 -0.995949
272447980 -0.213724 -0.983743
275322113 -0.233977 -0.977634
278196246 -0.257448 -0.981944
281070379 -0.276477 -0.982035
283944512 -0.297422 -0.98005
286818645 -0.315704 -0.977096
289692778 -0.335179 -0.971494
292566911 -0.350367 -0.964585
295441044 -0.366602 -0.952775
298315177 -0.38425 -0.941512
301189310 -0.399211 -0.927214
304063443 -0.415102 -0.91671
306937576 -0.437487 -0.914669
309811709 -0.45973 -0.911264
312685842 -0.478227 -0.907163
315559975 -0.496714 -0.89866
318434108 -0.512958 -0.889347
321308241 -0.527326 -0.878656
324182374 -0.541418 -0.864656
327056507 -0.555203 -0.852533
329930640 -0.567906 -0.835933
332804773 -0.581845 -0.819051
335678906 -0.601144 -0.812889
338553039 -0.622633 -0.805653
341427172 -0.639479 -0.799498
344301305 -0.656445 -0.785815
347175438 -0.668155 -0.772154
350049571 -0.680345 -0.762398
352923704 -0.695823 -0.746194
355797837 -0.702764 -0.73027
358671970 -0.712086 -0.709151
361546103 -0.723253 -0.691262
364420236 -0.74403 -0.681018
367294369 -0.760787 -0.669741
370168502 -0.77552 -0.658207
373042635 -0.790026 -0.644947
375916768 -0.804382 -0.62953
378790901 -0.813383 -0.613849
381665034 -0.823406 -0.597451
384539167 -0.829996 -0.578407
387413300 -0.836887 -0.55635
390287433 -0.842274 -0.539139
393161566 -0.860482 -0.52581
396035699 -0.874469 -0.513259
398909832 -0.887573 -0.498625
401783965 -0.898708 -0.482902
404658098 -0.908973 -0.46751
407532231 -0.922735 -0.431241
410406364 -0.928132 -0.414273
413280497 -0.92997 -0.392976
416154630 -0.961922 -0.280255
419028763 -0.931306 -0.350143
421902896 -0.941867 -0.352868
424777029 -0.955141 -0.335515
427651162 -0.9702 -0.30343
430525295 -0.977334 -0.285126
433399428 -0.983517 -0.266232
436273561 -0.99093 -0.247606
439147694 -0.988435 -0.229027
442021827 -0.986553 -0.209772
444895960 -0.985855 -0.18989
447770093 -0.978277 -0.16805
450644226 -0.989803 -0.147889
453518359 -1.000793 -0.127422
456392492 -1.008139 -0.112547
459266625 -1.008598 -0.096478
462140758 -1.01616 -0.091897
465014891 -1.015123 -0.073899
467889024 -1.013976 -0.051968
470763157 -1.009049 -0.030871
473637290 -1.001624 -0.011974
476511423 -0.992953 0.007909
479385556 -1.000368 0.027553
482259689 -1.005763 0.048306
485133822 -1.008554 0.070717
488007955 -1.011112 0.088863
490882088 -1.010565 0.107698
493756221 -1.007725 0.125515
496630354 -1.001423 0.14416
499504487 -0.994332 0.165142
502378620 -0.985366 0.182489
505252753 -0.973152 0.199698
508126886 -0.971616 0.222304
511001019 -0.974464 0.242063
513875152 -0.97448 0.262515
516749285 -0.974509 0.28268
519623418 -0.967715 0.300503
522497551 -0.962592 0.318811
525371684 -0.954183 0.33587
528245817 -0.942843 0.351835
531119950 -0.929751 0.368012
533994083 -0.914348 0.383526
536868216 -0.906052 0.400431
539742349 -0.905379 0.422301
542616482 -0.902513 0.441016
545490615 -0.894289 0.460871
548364748 -0.884996 0.47819
551238881 -0.874806 0.493809
554113014 -0.861856 0.508327
556987147 -0.848088 0.519398
559861280 -0.833578 0.53256
562735413 -0.816449 0.542835
565609546 -0.807403 0.560597
568483679 -0.800958 0.580365
571357812 -0.793677 0.601373
574231945 -0.785857 0.618011
577106078 -0.778386 0.633112
579980211 -0.764166 0.647814
582854344 -0.748191 0.661003
585728477 -0.73429 0.673969
588602610 -0.717068 0.683408
591476743 -0.699725 0.69308
594350876 -0.682414 0.705459
597225009 -0.674321 0.725928
600099142 -0.663579 0.744905
602973275 -0.654349 0.760325
605847408 -0.639103 0.771393
608721541 -0.622143 0.783692
611595674 -0.605737 0.795737
614469807 -0.588534 0.805458
617343940 -0.570546 0.813095
620218073 -0.549336 0.815684
623092206 -0.563924 0.807608
625966339 -0.519935 0.844676
628840472 -0.502332 0.85931
631714605 -0.491112 0.872236
634588738 -0.468375 0.883149
637462871 -0.453859 0.89303
640337004 -0.436862 0.901574
643211137 -0.416478 0.908152
646085270 -0.396048 0.909595
648959403 -0.375143 0.909011
651833536 -0.350331 0.912903
654707669 -0.334926 0.928132
657581802 -0.315293 0.940189
660455935 -0.300957 0.952521
663330068 -0.285973 0.959817
666204201 -0.265467 0.963813
669078334 -0.245337 0.969719
671952467 -0.225591 0.968473
674826600 -0.20649 0.966449
677700733 -0.181163 0.963395
680574866 -0.162018 0.960665
683448999 -0.14014 0.972256
686323132 -0.124008 0.98103
689197265 -0.102009 0.989811
692071398 -0.083604 0.995671
694945531 -0.059626 0.999996
697819664 -0.044005 0.996271
700693797 -0.02059 0.995088
703567930 -0.000444 0.988235
706442063 0.019675 0.981335
709316196 0.040968 0.975227
712190329 0.061062 0.979384
715064462 0.084114 0.987505
717938595 0.109162 0.986113
720812728 0.122922 0.986669
723686861 0.142701 0.984889
726560994 0.162165 0.97889
729435127 0.180167 0.972063
732309260 0.19815 0.962732
735183393 0.218211 0.951512
738057526 0.232965 0.93714
740931659 0.257633 0.940916
743805792 0.283547 0.93983
746679925 0.302133 0.936758
749554058 0.324492 0.932747
752428191 0.345146 0.928454
755302324 0.367063 0.916671
758176457 0.381163 0.908952
761050590 0.398228 0.897623
763924723 0.412189 0.88477
766798856 0.429846 0.869951
769672989 0.449824 0.865481
772547122 0.473072 0.857089
775421255 0.493454 0.856124
778295388 0.5165 0.843852
781169521 0.528641 0.833924
784043654 0.547499 0.825702
786917787 0.565412 0.809902
789791920 0.579483 0.794209
792666053 0.593197 0.781138
795540186 0.602869 0.758492
798414319 0.62821 0.749755
801288452 0.643312 0.741719
804162585 0.6681 0.731221
807036718 0.683086 0.715804
809910851 0.698366 0.702541
812784984 0.714431 0.686546
815659117 0.729566 0.666592
818533250 0.73716 0.650074
821407383 0.751436 0.629917
824281516 0.755945 0.606018
827155649 0.771618 0.590653
830029782 0.793077 0.572066
832903915 0.808801 0.560221
835778048 0.823626 0.542476
838652181 0.836451 0.526547
841526314 0.848684 0.504012
844400447 0.856586 0.48106
847274580 0.864095 0.458984
850148713 0.865182 0.437095
853022846 0.870878 0.409375
855896979 0.881509 0.386442
858771112 0.900109 0.368402
861645245 0.911137 0.346839
864519378 0.922314 0.325782
867393511 0.93139 0.301153
870267644 0.935356 0.286932
873141777 0.941101 0.253372
876015910 0.942332 0.232475
878890043 0.935674 0.206609
881764176 0.934999 0.180513
884638309 0.937515 0.155121
887512442 0.947901 0.129279
890386575 0.954522 0.10223
893260708 0.957869 0.075135
896134841 0.95726 0.05229
899008974 0.95413 0.025629
901883107 0.950732 0.006986
904757240 0.943838 -0.022698
907631373 0.933874 -0.047915
910505506 0.923029 -0.081478
913379639 0.907209 -0.111069
916253772 0.904477 -0.126887
919127905 0.899247 -0.15409
922002038 0.892173 -0.179223
924876171 0.883969 -0.205525
927750304 0.873776 -0.221481
930624437 0.864709 -0.2498
933498570 0.843496 -0.271684
936372703 0.816848 -0.291097
939246836 0.796765 -0.30171
942120969 0.777136 -0.325835
944995102 0.758848 -0.348669
947869235 0.727585 -0.357998
950743368 0.720734 -0.357689
953617501 0.711892 -0.365766
956491634 0.703912 -0.382794
959365767 0.684321 -0.392574
962239900 0.667091 -0.40021
965114033 0.647947 -0.406272
967988166 0.62795 -0.405556
970862299 0.61991 -0.406906
973736432 0.617368 -0.417477
976610565 0.619776 -0.429034
979484698 0.603999 -0.447197
982358831 0.595564 -0.456137
985232964 0.588482 -0.459199
988107097 0.586049 -0.476596
990981230 0.564913 -0.489584
993855363 0.552629 -0.503302
996729496 0.534387 -0.511283
999603629 0.512935 -0.524476
1002477762 0.50214 -0.539707
1005351895 0.482082 -0.55102
1008226028 0.467596 -0.551717
1011100161 0.456273 -0.560711
1013974294 0.440781 -0.571585
1016848427 0.429726 -0.579882
1019722560 0.403936 -0.598206
1022596693 0.366913 -0.586408
1025470826 0.353036 -0.579308
1028344959 0.350205 -0.573205
1031219092 0.33848 -0.59438
1034093225 0.317179 -0.605977
1036967358 0.297339 -0.615999
1039841491 0.276075 -0.62232
1042715624 0.250116 -0.623484
1045589757 0.225217 -0.607676
1048463890 0.224934 -0.60175
1051338023 0.197288 -0.602564
1054212156 0.186226 -0.595836
1057086289 0.173374 -0.595407
1059960422 0.143593 -0.602182
1062834555 0.134382 -0.602315
1065708688 0.113943 -0.606854
1068582821 0.100031 -0.604879
1071456954 0.075576 -0.605296
1074331087 0.057509 -0.589031
1077205220 0.043619 -0.576225
1080079353 0.03996 -0.567695
1082953486 0.018873 -0.567252
1085827619 -0.008799 -0.554073
1088701752 -0.029804 -0.545608
1091575885 -0.040187 -0.532534
1094450018 -0.060087 -0.51972
1097324151 -0.055771 -0.500547
1100198284 -0.063544 -0.495569
1103072417 -0.068735 -0.500493
1105946550 -0.088027 -0.502284
1108820683 -0.120731 -0.474358
1111694816 -0.116865 -0.438456
1114568949 -0.126366 -0.424838
1117443082 -0.123655 -0.417259
1120317215 -0.129445 -0.423458
1123191348 -0.149575 -0.406648
1126065481 -0.159254 -0.391246
1128939614 -0.162049 -0.361879
1131813747 -0.1486 -0.345756
1134687880 -0.145075 -0.340935
1137562013 -0.145226 -0.322562
1140436146 -0.133051 -0.318172
1143310279 -0.135216 -0.320941
1146184412 -0.157074 -0.307805
1149058545 -0.166791 -0.285293
1151932678 -0.146276 -0.265709
1154806811 -0.136912 -0.266459
1157680944 -0.132948 -0.273115
1160555077 -0.149988 -0.25542
1163429210 -0.123875 -0.234661
1166303343 -0.110016 -0.236042
1169177476 -0.096365 -0.240825
1172051609 -0.10495 -0.255524
1174925742 -0.115538 -0.256409
1177799875 -0.143712 -0.238905
1180674008 -0.12737 -0.199588
1183548141 -0.086473 -0.204173
1186422274 -0.074584 -0.231762
1189296407 -0.093877 -0.260537
1192170540 -0.123902 -0.242007
1195044673 -0.126324 -0.21836
1197918806 -0.099517 -0.206253
1200792939 -0.102363 -0.220013
1203667072 -0.105666 -0.206408
1206541205 -0.080729 -0.20727
1209415338 -0.090698 -0.247099
1212289471 -0.116649 -0.234315
1215163604 -0.120043 -0.217288
1218037737 -0.109259 -0.214277
1220911870 -0.105546 -0.222854
1223786003 -0.114606 -0.240027
1226660136 -0.13632 -0.221791
1229534269 -0.13462 -0.207617
1232408402 -0.135205 -0.193506
1235282535 -0.129483 -0.205212
1238156668 -0.141555 -0.200815
1241030801 -0.143149 -0.190879
1243904934 -0.140031 -0.180198
1246779067 -0.123746 -0.186835
1249653200 -0.137338 -0.195042
1252527333 -0.145605 -0.182513
1255401466 -0.131253 -0.197462
1258275599 -0.185618 -0.171398
1261149732 -0.167802 -0.136779
1264023865 -0.160605 -0.131891
1266897998 -0.147963 -0.126506
1269772131 -0.136651 -0.135501
1272646264 -0.150609 -0.147841
1275520397 -0.156209 -0.123523
1278394530 -0.144966 -0.119966
1281268663 -0.154714 -0.114544
1284142796 -0.135445 -0.084525
1287016929 -0.11711 -0.082471
1289891062 -0.097646 -0.09876
1292765195 -0.120465 -0.116266
1295639328 -0.140464 -0.091719
1298513461 -0.113313 -0.069058
1301387594 -0.091798 -0.076502
1304261727 -0.083688 -0.083241
1307135860 -0.084553 -0.10062
1310009993 -0.102911 -0.081395
1312884126 -0.07669 -0.057733
1315758259 -0.046251 -0.071998
1318632392 -0.046823 -0.098591
1321506525 -0.047261 -0.109227
1324380658 -0.058141 -0.11243
1327254791 -0.055959 -0.107078
1330128924 -0.050841 -0.099924
1333003057 -0.048387 -0.107804
1335877190 -0.028836 -0.099235
1338751323 -0.021933 -0.118569
1341625456 -0.021809 -0.13065
1344499589 -0.007992 -0.139596
1347373722 -0.016795 -0.161145
1350247855 -0.035399 -0.17418
1353121988 -0.029632 -0.170083
1355996121 -0.040111 -0.193454
1358870254 -0.064596 -0.190856
1361744387 -0.064917 -0.175746
1364618520 -0.049949 -0.181224
1367492653 -0.067954 -0.191573
1370366786 -0.061881 -0.187256
1373240919 -0.058512 -0.201079
1376115052 -0.06158 -0.213887
1378989185 -0.087931 -0.215381
1381863318 -0.0791 -0.236837
1384737451 -0.124955 -0.229719
1387611584 -0.143677 -0.21405
1390485717 -0.134984 -0.197558
1393359850 -0.130544 -0.2049
1396233983 -0.133785 -0.19149
1399108116 -0.115741 -0.202369
1401982249 -0.133387 -0.222795
1404856382 -0.163702 -0.227433
1407730515 -0.187335 -0.213341
1410604648 -0.191025 -0.198149
1413478781 -0.189994 -0.185317
1416352914 -0.187675 -0.175901
1419227047 -0.183875 -0.175467
1422101180 -0.189681 -0.199544
1424975313 -0.207292 -0.185286
1427849446 -0.221945 -0.172812
1430723579 -0.222092 -0.161747
1433597712 -0.222487 -0.143853
1436471845 -0.223962 -0.130362
1439345978 -0.222213 -0.126585
1442220111 -0.210047 -0.115085
1445094244 -0.208132 -0.130699
1447968377 -0.217626 -0.131558
1450842510 -0.233555 -0.129849
1453716643 -0.237693 -0.110334
1456590776 -0.230839 -0.103465
1459464909 -0.233579 -0.098235
1462339042 -0.227 -0.081402
1465213175 -0.220227 -0.081374
1468087308 -0.221585 -0.07256
1470961441 -0.215789 -0.080326
1473835574 -0.223857 -0.0743
1476709707 -0.217685 -0.078681
1479583840 -0.231058 -0.071817
1482457973 -0.241807 -0.05188
1485332106 -0.218939 -0.032566
1488206239 -0.203279 -0.035456
1491080372 -0.190088 -0.035203
1493954505 -0.188159 -0.042229
1496828638 -0.18361 -0.051712
1499702771 -0.19356 -0.054686
1502576904 -0.20398 -0.056454
1505451037 -0.206237 -0.043669
1508325170 -0.203112 -0.039162
1511199303 -0.203469 -0.018663
1514073436 -0.175808 -0.024698
1516947569 -0.1762 -0.036646
1519821702 -0.178346 -0.033473
1522695835 -0.175557 -0.034633
1525569968 -0.176805 -0.03439
1528444101 -0.177291 -0.031395
1531318234 -0.167629 -0.033102
1534192367 -0.174905 -0.044766
1537066500 -0.180609 -0.039042
1539940633 -0.173862 -0.038524
1542814766 -0.181176 -0.036078
1545688899 -0.170034 -0.034381
1548563032 -0.168495 -0.039684
1551437165 -0.157221 -0.041844
1554311298 -0.169363 -0.058504
1557185431 -0.182344 -0.050324
1560059564 -0.185963 -0.054952
1562933697 -0.200055 -0.043238
1565807830 -0.186764 -0.031849
1568681963 -0.172556 -0.038951
1571556096 -0.176805 -0.054425
1574430229 -0.194897 -0.056601
1577304362 -0.181814 -0.043344
1580178495 -0.177793 -0.058709
1583052628 -0.19124 -0.062326
1585926761 -0.205532 -0.071333
1588800894 -0.217898 -0.065013
1591675027 -0.233483 -0.04986
1594549160 -0.226508 -0.028952
1597423293 -0.206486 -0.03025
1600297426 -0.198294 -0.044269
1603171559 -0.212061 -0.047663
1606045692 -0.209508 -0.059135
1608919825 -0.232701 -0.063414
1611793958 -0.251784 -0.057158
1614668091 -0.261634 -0.032409
1617542224 -0.260675 -0.017293
1620416357 -0.2538 -0.013361
1623290490 -0.244254 -0.005555
1626164623 -0.235775 -0.016721
1629038756 -0.242273 -0.028198
1631912889 -0.265506 -0.024853
1634787022 -0.265833 -0.006681
1637661155 -0.25532 0.003883
1640535288 -0.258418 -0.006175
1643409421 -0.269353 -0.008629
1646283554 -0.285447 0.002935
1649157687 -0.288236 0.016734
1652031820 -0.274034 0.009898
1654905953 -0.284268 0.035905
1657780086 -0.279251 0.04619
1660654219 -0.262308 0.045596
1663528352 -0.264275 0.045252
1666402485 -0.265563 0.056435
1669276618 -0.264618 0.047856
1672150751 -0.276272 0.047027
1675024884 -0.284297 0.05125
1677899017 -0.289133 0.071929
1680773150 -0.284613 0.075744
1683647283 -0.281639 0.081762
1686521416 -0.277627 0.086659
1689395549 -0.268924 0.094988
1692269682 -0.265088 0.092152
1695143815 -0.261108 0.096941
1698017948 -0.262437 0.095487
1700892081 -0.273831 0.10292
1703766214 -0.266849 0.114983
1706640347 -0.259502 0.111985
1709514480 -0.267356 0.107902
1712388613 -0.275608 0.117928
1715262746 -0.267853 0.132553
1718136879 -0.255449 0.127973
1721011012 -0.258289 0.128848
1723885145 -0.257335 0.141705
1726759278 -0.243083 0.147037
1729633411 -0.240533 0.142731
1732507544 -0.239589 0.139278
1735381677 -0.252281 0.138017
1738255810 -0.249512 0.145717
1741129943 -0.253441 0.146896
1744004076 -0.252444 0.156461
1746878209 -0.241833 0.155884
1749752342 -0.244479 0.155741
1752626475 -0.241829 0.15811
1755500608 -0.246421 0.167873
1758374741 -0.240811 0.178824
1761248874 -0.233221 0.175214
1764123007 -0.232794 0.17627
1766997140 -0.236655 0.182906
1769871273 -0.232893 0.179824
1772745406 -0.240528 0.181193
1775619539 -0.24046 0.185482
1778493672 -0.236061 0.194369
1781367805 -0.237014 0.190016
1784241938 -0.24103 0.203808
1787116071 -0.236596 0.212165
1789990204 -0.233883 0.213602
1792864337 -0.230694 0.214315
1795738470 -0.229943 0.217105
1798612603 -0.241438 0.220983
1801486736 -0.235499 0.229053
1804360869 -0.240772 0.23201
1807235002 -0.234949 0.234174
1810109135 -0.233666 0.24685
1812983268 -0.234683 0.252905
1815857401 -0.225178 0.271528
1818731534 -0.216189 0.274748
1821605667 -0.210294 0.27585
1824479800 -0.210507 0.267762
1827353933 -0.225665 0.274505
1830228066 -0.223945 0.28673
1833102199 -0.227071 0.303242
1835976332 -0.206833 0.324054
1838850465 -0.189664 0.325079
1841724598 -0.176217 0.320322
1844598731 -0.178255 0.321155
1847472864 -0.178665 0.32863
1850346997 -0.183262 0.334685
1853221130 -0.183152 0.349164
1856095263 -0.173168 0.361384
1858969396 -0.157118 0.368179
1861843529 -0.158279 0.36312
1864717662 -0.13082 0.371921
1867591795 -0.125718 0.360821
1870465928 -0.116759 0.362844
1873340061 -0.119233 0.362542
1876214194 -0.125823 0.373653
1879088327 -0.116799 0.396989
1881962460 -0.092172 0.402106
1884836593 -0.082022 0.400549
1887710726 -0.05673 0.400612
1890584859 -0.017158 0.395031
1893458992 -0.057253 0.367849
1896333125 -0.059302 0.375105
1899207258 -0.060767 0.388189
1902081391 -0.041209 0.395108
1904955524 -0.034221 0.395834
1907829657 -0.032547 0.399894
1910703790 -0.020982 0.402365
1913577923 -0.014794 0.394201
1916452056 -0.013672 0.400535
1919326189 -0.007643 0.399645
1922200322 0.007761 0.400751
1925074455 0.020625 0.39021
1927948588 0.018543 0.375112
1930822721 0.008896 0.382552
1933696854 0.020911 0.394016
1936570987 0.02471 0.398359
1939445120 0.028453 0.404055
1942319253 0.044308 0.404802
1945193386 0.047198 0.396069
1948067519 0.053257 0.397026
1950941652 0.059178 0.392396
1953815785 0.066581 0.384687
1956689918 0.065934 0.378686
1959564051 0.035081 0.390733
1962438184 0.079171 0.402658
1965312317 0.088929 0.396102
1968186450 0.090116 0.39476
1971060583 0.096788 0.401929
1973934716 0.107984 0.390258
1976808849 0.104468 0.389609
1979682982 0.108305 0.390003
1982557115 0.11041 0.388211
1985431248 0.1471 0.375284
1988305381 0.139246 0.373182
1991179514 0.146747 0.395313
1994053647 0.155907 0.391404
1996927780 0.166987 0.383349
1999801913 0.15797 0.377608
2002676046 0.163618 0.379267
2005550179 0.161511 0.379902
2008424312 0.168109 0.384499
2011298445 0.17346 0.378269
2014172578 0.181967 0.375818
2017046711 0.186021 0.369768
2019920844 0.192785 0.378114
2022794977 0.198734 0.38179
2025669110 0.210265 0.385455
2028543243 0.224662 0.379578
2031417376 0.226544 0.369782
2034291509 0.221952 0.366921
2037165642 0.225843 0.374296
