# HZ S RI R 50
100000000 0.824793 -0.574762
102874133 0.812294 -0.586837
105748266 0.801006 -0.598718
108622399 0.791893 -0.612308
111496532 0.86714 -0.510555
114370665 0.77029 -0.637042
117244798 0.760231 -0.649565
120118931 0.749632 -0.663286
122993064 0.739524 -0.676754
125867197 0.726374 -0.688513
128741330 0.713247 -0.701159
131615463 0.704613 -0.712929
134489596 0.693034 -0.725216
137363729 0.609953 -0.78254
140237862 0.659382 -0.753668
143111995 0.567894 -0.812018
145986128 0.631162 -0.771258
148860261 0.619966 -0.780968
151734394 0.607367 -0.792637
154608527 0.594178 -0.801566
157482660 0.580877 -0.812905
160356793 0.566395 -0.821271
163230926 0.553281 -0.830603
166105059 0.538342 -0.84098
168979192 0.523946 -0.849736
171853325 0.50825 -0.858075
174727458 0.493907 -0.867387
177601591 0.478332 -0.87388
180475724 0.462611 -0.883836
183349857 0.448687 -0.890672
186223990 0.432275 -0.899342
189098123 0.417119 -0.905967
191972256 0.399472 -0.912048
194846389 0.384175 -0.91969
197720522 0.367105 -0.927018
200594655 0.35141 -0.931235
203468788 0.335309 -0.937408
206342921 0.318751 -0.944577
209217054 0.302479 -0.948988
212091187 0.285363 -0.952574
214965320 0.268488 -0.957912
217839453 0.252543 -0.962564
220713586 0.235682 -0.966033
223587719 0.218058 -0.972632
226461852 0.202461 -0.974747
229335985 0.187479 -0.978817
232210118 0.168596 -0.9819
235084251 0.15231 -0.985035
237958384 0.133638 -0.987602
240832517 0.118028 -0.989612
243706650 0.100442 -0.992799
246580783 0.083685 -0.993684
249454916 0.065685 -0.993897
252329049 0.049354 -0.995207
255203182 0.03103 -0.995423
258077315 0.014378 -0.996306
260951448 -0.005145 -0.996225
263825581 -0.020649 -0.993907
266699714 -0.038901 -0.993149
269573847 -0.054425 -0.992974
272447980 -0.074082 -0.992796
275322113 -0.09187 -0.99059
278196246 -0.106529 -0.988542
281070379 -0.124006 -0.987572
283944512 -0.143228 -0.982906
286818645 -0.158772 -0.980517
289692778 -0.17444 -0.979972
292566911 -0.191883 -0.975516
295441044 -0.209088 -0.972509
298315177 -0.225127 -0.967647
301189310 -0.243331 -0.962286
304063443 -0.26002 -0.957489
306937576 -0.277585 -0.955672
309811709 -0.292264 -0.950219
312685842 -0.309648 -0.943722
315559975 -0.324072 -0.939513
318434108 -0.342728 -0.932027
321308241 -0.359297 -0.92325
324182374 -0.375051 -0.918814
327056507 -0.391528 -0.913181
329930640 -0.406188 -0.90617
332804773 -0.42104 -0.898482
335678906 -0.43768 -0.890956
338553039 -0.45263 -0.884411
341427172 -0.469358 -0.875664
344301305 -0.482979 -0.867575
347175438 -0.49898 -0.857576
350049571 -0.512296 -0.849092
352923704 -0.528657 -0.841072
355797837 -0.540727 -0.833235
358671970 -0.554509 -0.820953
361546103 -0.569844 -0.810693
364420236 -0.582839 -0.801546
367294369 -0.595758 -0.792998
370168502 -0.611393 -0.782657
373042635 -0.624273 -0.769375
375916768 -0.63678 -0.760658
378790901 -0.651033 -0.749297
381665034 -0.663807 -0.735762
384539167 -0.676717 -0.724348
387413300 -0.688134 -0.713063
390287433 -0.700743 -0.701556
393161566 -0.710876 -0.688889
396035699 -0.725469 -0.67612
398909832 -0.738242 -0.663573
401783965 -0.74829 -0.649207
404658098 -0.759207 -0.636501
407532231 -0.771681 -0.620676
410406364 -0.780614 -0.608162
413280497 -0.793375 -0.5941
416154630 -0.801954 -0.580056
419028763 -0.810816 -0.564499
421902896 -0.820311 -0.55194
424777029 -0.832015 -0.536931
427651162 -0.84102 -0.523402
430525295 -0.849349 -0.509308
433399428 -0.859686 -0.491836
436273561 -0.866438 -0.476759
439147694 -0.873254 -0.462806
442021827 -0.883026 -0.448948
444895960 -0.890339 -0.432131
447770093 -0.897616 -0.416071
450644226 -0.903013 -0.399661
453518359 -0.909959 -0.383566
456392492 -0.918975 -0.371136
459266625 -0.923647 -0.353571
462140758 -0.931151 -0.336679
465014891 -0.936277 -0.320323
467889024 -0.942363 -0.302911
470763157 -0.94707 -0.286918
473637290 -0.953369 -0.269985
476511423 -0.958134 -0.25251
479385556 -0.962502 -0.235263
482259689 -0.964961 -0.217847
485133822 -0.969068 -0.203134
488007955 -0.973306 -0.182289
490882088 -0.973828 -0.168259
493756221 -0.977977 -0.151937
496630354 -0.978792 -0.133255
499504487 -0.98295 -0.115776
502378620 -0.981736 -0.099291
505252753 -0.983347 -0.081292
508126886 -0.985274 -0.066808
511001019 -0.986613 -0.045258
513875152 -0.989239 -0.029603
516749285 -0.990396 -0.011642
519623418 -0.989775 0.007363
522497551 -0.989091 0.025071
525371684 -0.988497 0.043586
528245817 -0.994681 0.035814
531119950 -0.986762 0.076011
533994083 -0.984341 0.095205
536868216 -0.981877 0.113952
539742349 -0.979052 0.130102
542616482 -0.976916 0.146578
545490615 -0.986047 0.086308
548364748 -0.969903 0.184657
551238881 -0.967176 0.202472
554113014 -0.96205 0.216848
556987147 -0.952514 0.231974
559861280 -0.949506 0.248951
562735413 -0.94511 0.264241
565609546 -0.942473 0.280664
568483679 -0.96649 0.203429
571357812 -0.932358 0.312378
574231945 -0.937424 0.308469
577106078 -0.921464 0.346147
579980211 -0.91661 0.360592
582854344 -0.912116 0.375682
585728477 -0.903615 0.39476
588602610 -0.899252 0.41186
591476743 -0.894209 0.4275
594350876 -0.882518 0.443335
597225009 -0.877443 0.457522
600099142 -0.866852 0.47456
602973275 -0.85668 0.489984
605847408 -0.846863 0.504515
608721541 -0.83904 0.520006
611595674 -0.825121 0.540644
614469807 -0.818222 0.555127
617343940 -0.807026 0.566067
620218073 -0.796066 0.584399
623092206 -0.784715 0.595707
625966339 -0.77203 0.609285
628840472 -0.763113 0.626159
631714605 -0.750762 0.639383
634588738 -0.739147 0.655162
637462871 -0.728069 0.668204
640337004 -0.716636 0.681114
643211137 -0.702209 0.691427
646085270 -0.690763 0.705823
648959403 -0.678112 0.720892
651833536 -0.663305 0.731937
654707669 -0.650421 0.747446
657581802 -0.633513 0.755029
660455935 -0.624065 0.7695
663330068 -0.609904 0.778657
666204201 -0.595838 0.790583
669078334 -0.579474 0.801684
671952467 -0.566656 0.813284
674826600 -0.549751 0.824296
677700733 -0.534633 0.833549
680574866 -0.517473 0.843167
683448999 -0.503535 0.850886
686323132 -0.484623 0.860884
689197265 -0.466657 0.873617
692071398 -0.450934 0.877941
694945531 -0.435737 0.885342
697819664 -0.418275 0.892597
700693797 -0.399701 0.901939
703567930 -0.382254 0.908255
706442063 -0.365363 0.912601
709316196 -0.345254 0.91937
712190329 -0.328937 0.929849
715064462 -0.311032 0.931533
717938595 -0.292888 0.936237
720812728 -0.275665 0.943359
723686861 -0.258071 0.948214
726560994 -0.243198 0.953194
729435127 -0.222474 0.95875
732309260 -0.202143 0.961206
735183393 -0.181877 0.96396
738057526 -0.165445 0.966014
740931659 -0.145866 0.971776
743805792 -0.127756 0.972259
746679925 -0.108086 0.965342
749554058 -0.090926 0.978114
752428191 -0.070086 0.977679
755302324 -0.047657 0.978765
758176457 -0.030435 0.98004
761050590 -0.008315 0.980846
763924723 0.009187 0.979365
766798856 0.031586 0.976954
769672989 0.049778 0.976153
772547122 0.070173 0.977162
775421255 0.090361 0.974575
778295388 0.109767 0.972005
781169521 0.125456 0.971796
784043654 0.14459 0.970479
786917787 0.168051 0.965708
789791920 0.186517 0.959644
792666053 0.207294 0.957434
795540186 0.225417 0.952914
798414319 0.246766 0.950577
801288452 0.265779 0.943977
804162585 0.285294 0.941101
807036718 0.305093 0.932038
809910851 0.323502 0.925187
812784984 0.342714 0.919256
815659117 0.362485 0.911213
818533250 0.367189 0.913404
821407383 0.400433 0.892005
824281516 0.418072 0.884245
827155649 0.436154 0.874737
830029782 0.453863 0.864169
832903915 0.470895 0.855362
835778048 0.492518 0.838347
838652181 0.50927 0.829825
841526314 0.531018 0.81604
844400447 0.542102 0.80487
847274580 0.562836 0.792659
850148713 0.579337 0.774718
853022846 0.596008 0.761184
855896979 0.616416 0.747313
858771112 0.633316 0.731587
861645245 0.651547 0.716879
864519378 0.672722 0.686948
867393511 0.682029 0.681542
870267644 0.697948 0.664258
873141777 0.71168 0.64972
876015910 0.728239 0.629426
878890043 0.739827 0.609478
881764176 0.756846 0.586912
884638309 0.765474 0.568741
887512442 0.779984 0.547535
890386575 0.792441 0.52715
893260708 0.805375 0.50313
896134841 0.815541 0.477857
899008974 0.822326 0.457943
901883107 0.829266 0.433231
904757240 0.837276 0.412646
907631373 0.854031 0.386995
910505506 0.857474 0.360425
913379639 0.858975 0.327958
916253772 0.858812 0.306574
919127905 0.859 0.286359
922002038 0.859461 0.266724
924876171 0.861825 0.23493
927750304 0.85632 0.21932
930624437 0.862323 0.192868
933498570 0.860667 0.163829
936372703 0.853598 0.136519
939246836 0.845003 0.112832
942120969 0.844814 0.08732
944995102 0.828416 0.055957
947869235 0.80821 0.033096
950743368 0.794906 0.028924
953617501 0.783002 0.015211
956491634 0.782679 -0.000148
959365767 0.767005 -0.023268
962239900 0.757436 -0.036531
965114033 0.74527 -0.048781
967988166 0.727511 -0.062244
970862299 0.707746 -0.066188
973736432 0.701016 -0.071757
976610565 0.704976 -0.0747
979484698 0.686508 -0.093529
982358831 0.674776 -0.08926
985232964 0.666997 -0.084558
988107097 0.682509 -0.088255
990981230 0.672957 -0.098774
993855363 0.679752 -0.105696
996729496 0.682404 -0.116036
999603629 0.685002 -0.127318
1002477762 0.692621 -0.141304
1005351895 0.687358 -0.16323
1008226028 0.70627 -0.137147
1011100161 0.689579 -0.193974
1013974294 0.688647 -0.218734
1016848427 0.686196 -0.242487
1019722560 0.678573 -0.275283
1022596693 0.651849 -0.294598
1025470826 0.631552 -0.307277
1028344959 0.624869 -0.308212
1031219092 0.619283 -0.331805
1034093225 0.599284 -0.353624
1036967358 0.587972 -0.374377
1039841491 0.553476 -0.402423
1042715624 0.532905 -0.415334
1045589757 0.511669 -0.405108
1048463890 0.488674 -0.411393
1051338023 0.510002 -0.39242
1054212156 0.491959 -0.395367
1057086289 0.469574 -0.420171
1059960422 0.444197 -0.43656
1062834555 0.428431 -0.437694
1065708688 0.413023 -0.44472
1068582821 0.410364 -0.441732
1071456954 0.380459 -0.461491
1074331087 0.353288 -0.460514
1077205220 0.365983 -0.439781
1080079353 0.336532 -0.452094
1082953486 0.321693 -0.46238
1085827619 0.280732 -0.468881
1088701752 0.271868 -0.465098
1091575885 0.256084 -0.456072
1094450018 0.225655 -0.458501
1097324151 0.21834 -0.433603
1100198284 0.214139 -0.430591
1103072417 0.212512 -0.435099
1105946550 0.200618 -0.452608
1108820683 0.156173 -0.44684
1111694816 0.137507 -0.420556
1114568949 0.132819 -0.414316
1117443082 0.13243 -0.399443
1120317215 0.134909 -0.400191
1123191348 0.108549 -0.404902
1126065481 0.100217 -0.39465
1128939614 0.0724 -0.380479
1131813747 0.073763 -0.356919
1134687880 0.070238 -0.352542
1137562013 0.069558 -0.335979
1140436146 0.074986 -0.322304
1143310279 0.060806 -0.338263
1146184412 0.054571 -0.337665
1149058545 0.038215 -0.325974
1151932678 0.041 -0.298814
1154806811 0.043993 -0.290197
1157680944 0.05386 -0.288501
1160555077 0.030002 -0.290175
1163429210 0.029417 -0.25569
1166303343 0.043059 -0.248389
1169177476 0.057407 -0.245589
1172051609 0.062768 -0.258753
1174925742 0.057221 -0.269699
1177799875 0.025859 -0.270878
1180674008 0.013619 -0.236683
1183548141 0.038593 -0.206043
1186422274 0.074437 -0.21594
1189296407 0.078283 -0.248906
1192170540 0.044221 -0.259879
1195044673 0.032558 -0.243898
1197918806 0.036937 -0.219482
1200792939 0.051006 -0.227656
1203667072 0.037459 -0.224557
1206541205 0.058636 -0.205843
1209415338 0.078098 -0.232572
1212289471 0.055813 -0.247738
1215163604 0.037869 -0.24095
1218037737 0.039787 -0.22827
1220911870 0.052488 -0.22285
1223786003 0.061687 -0.243172
1226660136 0.036113 -0.253605
1229534269 0.027963 -0.238972
1232408402 0.019957 -0.227734
1235282535 0.030896 -0.231557
1238156668 0.019341 -0.243177
1241030801 0.010104 -0.228181
1243904934 0.011522 -0.219333
1246779067 0.019177 -0.219739
1249653200 0.016854 -0.22623
1252527333 0.011264 -0.222834
1255401466 0.019108 -0.244825
1258275599 -0.022852 -0.249223
1261149732 -0.031907 -0.217937
1264023865 -0.033894 -0.205031
1266897998 -0.032009 -0.186399
1269772131 -0.014193 -0.182698
1272646264 -0.011283 -0.201909
1275520397 -0.035332 -0.19498
1278394530 -0.031454 -0.183123
1281268663 -0.040363 -0.183679
1284142796 -0.054853 -0.166664
1287016929 -0.039439 -0.142066
1289891062 -0.021862 -0.130646
1292765195 -0.012854 -0.15673
1295639328 -0.039577 -0.155905
1298513461 -0.041143 -0.126936
1301387594 -0.021118 -0.112139
1304261727 -0.010289 -0.111848
1307135860 0.002939 -0.123208
1310009993 -0.0218 -0.127281
1312884126 -0.022277 -0.093952
1315758259 0.008106 -0.078829
1318632392 0.029213 -0.094667
1321506525 0.030621 -0.105646
1324380658 0.03381 -0.107443
1327254791 0.035612 -0.103918
1330128924 0.041655 -0.104116
1333003057 0.046816 -0.115122
1335877190 0.036851 -0.100515
1338751323 0.062804 -0.091426
1341625456 0.077578 -0.098233
1344499589 0.088559 -0.112979
1347373722 0.098952 -0.12214
1350247855 0.099769 -0.144714
1353121988 0.093606 -0.142451
1355996121 0.104368 -0.162272
1358870254 0.090907 -0.178656
1361744387 0.079308 -0.172618
1364618520 0.084528 -0.170612
1367492653 0.084755 -0.183124
1370366786 0.081081 -0.181874
1373240919 0.090051 -0.182015
1376115052 0.097666 -0.197537
1378989185 0.092366 -0.208771
1381863318 0.099908 -0.224353
1384737451 0.078953 -0.243191
1387611584 0.053263 -0.254178
1390485717 0.043074 -0.234315
1393359850 0.043993 -0.242833
1396233983 0.031696 -0.229878
1399108116 0.043337 -0.218621
1401982249 0.061242 -0.237713
1404856382 0.045151 -0.267849
1407730515 0.022265 -0.272415
1410604648 0.004675 -0.26813
1413478781 -0.004526 -0.261646
1416352914 -0.013437 -0.251072
1419227047 -0.009465 -0.24045
1422101180 0.001905 -0.254727
1424975313 -0.006363 -0.267282
1427849446 -0.028405 -0.272675
1430723579 -0.03744 -0.266563
1433597712 -0.054812 -0.261201
1436471845 -0.059817 -0.245856
1439345978 -0.06811 -0.243246
1442220111 -0.065475 -0.221519
1445094244 -0.049469 -0.228888
1447968377 -0.0537 -0.234371
1450842510 -0.06075 -0.244628
1453716643 -0.079798 -0.239334
1456590776 -0.08189 -0.226204
1459464909 -0.084999 -0.228996
1462339042 -0.097989 -0.218945
1465213175 -0.09142 -0.210624
1468087308 -0.093444 -0.207649
1470961441 -0.086686 -0.201466
1473835574 -0.094046 -0.205196
1476709707 -0.086463 -0.200063
1479583840 -0.096073 -0.207952
1482457973 -0.117539 -0.209144
1485332106 -0.12612 -0.184189
1488206239 -0.117995 -0.168044
1491080372 -0.104106 -0.156654
1493954505 -0.098367 -0.162605
1496828638 -0.086115 -0.160451
1499702771 -0.088168 -0.168829
1502576904 -0.090473 -0.17992
1505451037 -0.101244 -0.172148
1508325170 -0.100666 -0.173423
1511199303 -0.120909 -0.162382
1514073436 -0.101355 -0.141155
1516947569 -0.089385 -0.147166
1519821702 -0.091647 -0.150376
1522695835 -0.089146 -0.149272
1525569968 -0.087297 -0.150004
1528444101 -0.102801 -0.120679
1531318234 -0.081859 -0.141016
1534192367 -0.078308 -0.153395
1537066500 -0.082947 -0.149024
1539940633 -0.077455 -0.148678
1542814766 -0.086026 -0.160367
1545688899 -0.084902 -0.146669
1548563032 -0.075771 -0.151096
1551437165 -0.077208 -0.142664
1554311298 -0.06266 -0.156031
1557185431 -0.074527 -0.161718
1560059564 -0.071453 -0.168595
1562933697 -0.086472 -0.174872
1565807830 -0.093887 -0.157991
1568681963 -0.080003 -0.151008
1571556096 -0.072294 -0.159268
1574430229 -0.075692 -0.174368
1577304362 -0.082483 -0.163295
1580178495 -0.072652 -0.168408
1583052628 -0.073989 -0.174103
1585926761 -0.071923 -0.19188
1588800894 -0.079839 -0.197082
1591675027 -0.100695 -0.200387
1594549160 -0.115872 -0.192789
1597423293 -0.108774 -0.173657
1600297426 -0.093176 -0.171887
1603171559 -0.092532 -0.184357
1606045692 -0.082802 -0.191876
1608919825 -0.095231 -0.193571
1611793958 -0.104678 -0.224517
1614668091 -0.136117 -0.207851
1617542224 -0.137877 -0.216408
1620416357 -0.14265 -0.206704
1623290490 -0.142484 -0.196342
1626164623 -0.133935 -0.184669
1629038756 -0.123836 -0.197903
1631912889 -0.134655 -0.210809
1634787022 -0.153064 -0.208585
1637661155 -0.158088 -0.197336
1640535288 -0.149546 -0.196426
1643409421 -0.153406 -0.198547
1646283554 -0.158326 -0.217602
1649157687 -0.177396 -0.206541
1652031820 -0.195422 -0.185352
1654905953 -0.195231 -0.197094
1657780086 -0.200356 -0.183808
1660654219 -0.200396 -0.170614
1663528352 -0.195064 -0.171575
1666402485 -0.19757 -0.173334
1669276618 -0.194196 -0.164216
1672150751 -0.194878 -0.177327
1675024884 -0.201588 -0.185852
1677899017 -0.224221 -0.174716
1680773150 -0.226753 -0.167745
1683647283 -0.222335 -0.168356
1686521416 -0.229708 -0.160214
1689395549 -0.234567 -0.148118
1692269682 -0.22482 -0.146363
1695143815 -0.225226 -0.145995
1698017948 -0.224658 -0.145355
1700892081 -0.229395 -0.155241
1703766214 -0.243257 -0.141043
1706640347 -0.237768 -0.134973
1709514480 -0.237785 -0.139617
1712388613 -0.228321 -0.167522
1715262746 -0.253889 -0.131648
1718136879 -0.248139 -0.126547
1721011012 -0.244922 -0.131192
1723885145 -0.26221 -0.12625
1726759278 -0.262212 -0.109575
1729633411 -0.247976 -0.105229
1732507544 -0.244088 -0.104713
1735381677 -0.242128 -0.117318
1738255810 -0.251017 -0.107991
1741129943 -0.2519 -0.115761
1744004076 -0.261775 -0.111878
1746878209 -0.256484 -0.100363
1749752342 -0.26024 -0.102811
1752626475 -0.26011 -0.103159
1755500608 -0.26779 -0.104046
1758374741 -0.277082 -0.094557
1761248874 -0.269113 -0.086346
1764123007 -0.270742 -0.085936
1766997140 -0.274228 -0.092434
1769871273 -0.27357 -0.0832
1772745406 -0.271326 -0.08864
1775619539 -0.277444 -0.090353
1778493672 -0.285703 -0.089011
1781367805 -0.284297 -0.093326
1784241938 -0.296279 -0.087551
1787116071 -0.30276 -0.080893
1789990204 -0.301374 -0.075543
1792864337 -0.296623 -0.072616
1795738470 -0.305027 -0.07044
1798612603 -0.307218 -0.075526
1801486736 -0.311059 -0.067548
1804360869 -0.317659 -0.071352
1807235002 -0.323213 -0.058893
1810109135 -0.334468 -0.056808
1812983268 -0.335439 -0.057818
1815857401 -0.346002 -0.045582
1818731534 -0.342642 -0.03327
1821605667 -0.343074 -0.017214
1824479800 -0.332727 -0.025865
1827353933 -0.342008 -0.034746
1830228066 -0.351402 -0.031078
1833102199 -0.363563 -0.034069
1835976332 -0.382044 -0.013456
1838850465 -0.380562 0.007955
1841724598 -0.369124 0.019593
1844598731 -0.3626 0.013971
1847472864 -0.369793 0.023381
1850346997 -0.369224 0.019714
1853221130 -0.383559 0.02714
1856095263 -0.387601 0.036365
1858969396 -0.392525 0.058775
1861843529 -0.387276 0.062215
1864717662 -0.387546 0.08593
1867591795 -0.374644 0.089314
1870465928 -0.369469 0.093066
1873340061 -0.366777 0.093005
1876214194 -0.373847 0.086879
1879088327 -0.385039 0.096007
1881962460 -0.388937 0.121477
1884836593 -0.381957 0.132651
1887710726 -0.371635 0.144798
1890584859 -0.359042 0.155982
1893458992 -0.345064 0.143701
1896333125 -0.349281 0.140021
1899207258 -0.356484 0.143177
1902081391 -0.360535 0.156101
1904955524 -0.35012 0.166424
1907829657 -0.352436 0.162292
1910703790 -0.350599 0.176099
1913577923 -0.341263 0.18422
1916452056 -0.34474 0.18245
1919326189 -0.341419 0.188149
1922200322 -0.344801 0.197832
1925074455 -0.331383 0.209895
1927948588 -0.318567 0.204826
1930822721 -0.314587 0.238843
1933696854 -0.325081 0.201929
1936570987 -0.328684 0.214344
1939445120 -0.32884 0.216965
1942319253 -0.326719 0.227988
1945193386 -0.316855 0.234089
1948067519 -0.315818 0.235234
1950941652 -0.309428 0.243959
1953815785 -0.30647 0.242649
1956689918 -0.304315 0.244721
1959564051 -0.306979 0.241126
1962438184 -0.310397 0.258781
1965312317 -0.302427 0.266316
1968186450 -0.297456 0.263517
1971060583 -0.304716 0.274027
1973934716 -0.289634 0.280253
1976808849 -0.288541 0.273841
1979682982 -0.283991 0.281365
1982557115 -0.290512 0.280662
1985431248 -0.293964 0.294001
1988305381 -0.287763 0.303243
1991179514 -0.284712 0.314594
1994053647 -0.269905 0.322283
1996927780 -0.2601 0.328457
1999801913 -0.254471 0.314698
2002676046 -0.257095 0.317463
2005550179 -0.257358 0.320171
2008424312 -0.261822 0.324373
2011298445 -0.256244 0.330631
2014172578 -0.252824 0.340923
2017046711 -0.243491 0.340135
2019920844 -0.248097 0.340834
2022794977 -0.244044 0.349382
2025669110 -0.246755 0.357032
2028543243 -0.2365 0.370278
2031417376 -0.236793 0.362538
2034291509 -0.218358 0.365654
2037165642 -0.22311 0.371314
