# HZ S RI R 50
100000000 0.858768 -0.518472 2.5e-05 5.1e-05 0 0 0 0
102874133 0.854155 -0.53205 0.000134 6.2e-05 0 0 0 0
105748266 0.849375 -0.54636 4.3e-05 7.8e-05 0 0 0 0
108622399 0.845129 -0.560663 8.7e-05 9e-06 0 0 0 0
111496532 0.823691 -0.593145 0.000103 2e-05 0 0 0 0
114370665 0.843266 -0.572552 5.4e-05 1.1e-05 0 0 0 0
117244798 0.796837 -0.627366 2.9e-05 1e-06 0 0 0 0
120118931 0.841643 -0.582684 0.0001 -2e-06 0 0 0 0
122993064 0.800948 -0.621186 7e-06 4.5e-05 0 0 0 0
125867197 0.819069 -0.609451 1.5e-05 3.2e-05 0 0 0 0
128741330 0.766952 -0.639076 5e-05 3.2e-05 0 0 0 0
131615463 0.769062 -0.659777 7.1e-05 1.5e-05 0 0 0 0
134489596 0.762408 -0.675364 4.3e-05 2e-06 0 0 0 0
137363729 0.735905 -0.686021 8e-05 3.5e-05 0 0 0 0
140237862 0.729639 -0.698943 -1e-05 -3.2e-05 0 0 0 0
143111995 0.720917 -0.710517 3.3e-05 -2e-05 0 0 0 0
145986128 0.711962 -0.721441 -2e-06 -1e-06 0 0 0 0
148860261 0.700432 -0.731808 -1.2e-05 -7.8e-05 0 0 0 0
151734394 0.687218 -0.739195 -3.2e-05 1.3e-05 0 0 0 0
154608527 0.673849 -0.747188 3.3e-05 1.5e-05 0 0 0 0
157482660 0.659506 -0.753405 1.1e-05 -4.4e-05 0 0 0 0
160356793 0.648872 -0.769432 -1.8e-05 1.3e-05 0 0 0 0
163230926 0.676444 -0.766544 -3.2e-05 -7e-06 0 0 0 0
166105059 0.632578 -0.798304 -3e-06 5.2e-05 0 0 0 0
168979192 0.623808 -0.809336 -0.00014 -7.9e-05 0 0 0 0
171853325 0.610901 -0.822484 -3.6e-05 -3.1e-05 0 0 0 0
174727458 0.598494 -0.828631 -1.1e-05 -2e-06 0 0 0 0
177601591 0.583104 -0.836938 -6.6e-05 -2.8e-05 0 0 0 0
180475724 0.566458 -0.843737 -0.000134 3e-05 0 0 0 0
183349857 0.549921 -0.847362 -0.000114 7e-06 0 0 0 0
186223990 0.530321 -0.851359 -0.000151 6e-05 0 0 0 0
189098123 0.518658 -0.86292 -0.000198 7.3e-05 0 0 0 0
191972256 0.5105 -0.879126 -3.4e-05 4.5e-05 0 0 0 0
194846389 0.499088 -0.890465 -0.000175 3.1e-05 0 0 0 0
197720522 0.487277 -0.902512 -0.00014 7.4e-05 0 0 0 0
200594655 0.472214 -0.910626 -0.000257 7.5e-05 0 0 0 0
203468788 0.461195 -0.916692 -0.000134 7.6e-05 0 0 0 0
206342921 0.444798 -0.92108 -0.000214 2.4e-05 0 0 0 0
209217054 0.428516 -0.92346 -0.000162 0.000138 0 0 0 0
212091187 0.409433 -0.923628 -0.000312 0.000109 0 0 0 0
214965320 0.389353 -0.922441 -0.000276 8.6e-05 0 0 0 0
217839453 0.374139 -0.932078 -0.000299 0.000147 0 0 0 0
220713586 0.361974 -0.94653 -0.000285 0.000222 0 0 0 0
223587719 0.350983 -0.960009 -0.0004 0.000231 0 0 0 0
226461852 0.337393 -0.96708 -7.2e-05 0.000218 0 0 0 0
229335985 0.32204 -0.975171 -0.000234 0.000145 0 0 0 0
232210118 0.308185 -0.979723 -0.000277 0.000243 0 0 0 0
235084251 0.292022 -0.982843 -0.000262 0.000358 0 0 0 0
237958384 0.275023 -0.983981 -0.000349 0.000275 0 0 0 0
240832517 0.257184 -0.980718 -0.000298 0.000339 0 0 0 0
243706650 0.237961 -0.977471 -0.000301 0.000364 0 0 0 0
246580783 0.219749 -0.982501 -0.00031 0.000428 0 0 0 0
249454916 0.204617 -0.994439 -0.000324 0.000358 0 0 0 0
252329049 0.190014 -1.003366 -0.000287 0.000387 0 0 0 0
255203182 0.173624 -1.010406 -0.000469 0.000376 0 0 0 0
258077315 0.158409 -1.015064 -0.000388 0.000547 0 0 0 0
260951448 0.141439 -1.018863 -0.000348 0.000459 0 0 0 0
263825581 0.124858 -1.01789 -0.000377 0.000524 0 0 0 0
266699714 0.110346 -1.015374 -0.000437 0.000579 0 0 0 0
269573847 0.090972 -1.011173 -0.000313 0.000559 0 0 0 0
272447980 0.072714 -1.003764 -0.00031 0.000553 0 0 0 0
275322113 0.05505 -1.003983 -0.00034 0.000598 0 0 0 0
278196246 0.035692 -1.014148 -0.000317 0.000523 0 0 0 0
281070379 0.019527 -1.022139 -0.000379 0.000777 0 0 0 0
283944512 0.00311 -1.025425 -0.000329 0.000718 0 0 0 0
286818645 -0.013294 -1.026873 -0.000394 0.000735 0 0 0 0
289692778 -0.030988 -1.02678 -0.00019 0.001001 0 0 0 0
292566911 -0.046504 -1.025829 -0.000308 0.001098 0 0 0 0
295441044 -0.063814 -1.020289 -0.000121 0.001031 0 0 0 0
298315177 -0.076731 -1.011933 6.4e-05 0.000915 0 0 0 0
301189310 -0.093581 -1.003008 -6.5e-05 0.001148 0 0 0 0
304063443 -0.112362 -0.999709 0.00021 0.000928 0 0 0 0
306937576 -0.131504 -1.002266 0.000265 0.000927 0 0 0 0
309811709 -0.149978 -1.007585 0.000238 0.000597 0 0 0 0
312685842 -0.167972 -1.011894 8.1e-05 7.7e-05 0 0 0 0
315559975 -0.184408 -1.009028 -0.00011 0.000984 0 0 0 0
318434108 -0.203042 -1.00733 -0.000213 0.000684 0 0 0 0
321308241 -0.218247 -1.00119 -0.000185 0.001035 0 0 0 0
324182374 -0.234205 -0.995103 -0.000389 0.000826 0 0 0 0
327056507 -0.249713 -0.987245 -0.000453 0.000825 0 0 0 0
329930640 -0.262303 -0.973464 -0.00035 0.000722 0 0 0 0
332804773 -0.280378 -0.965701 -0.000338 0.001354 0 0 0 0
335678906 -0.298878 -0.966049 -0.000464 0.001286 0 0 0 0
338553039 -0.316455 -0.966563 -0.000452 0.001156 0 0 0 0
341427172 -0.336024 -0.965841 -0.000528 0.000757 0 0 0 0
344301305 -0.351756 -0.962583 -0.000459 0.001126 0 0 0 0
347175438 -0.369226 -0.955435 -0.00021 0.001319 0 0 0 0
350049571 -0.384153 -0.947086 -0.000475 0.001621 0 0 0 0
352923704 -0.398177 -0.937461 -0.000416 0.001898 0 0 0 0
355797837 -0.410355 -0.925552 -1e-06 0.001766 0 0 0 0
358671970 -0.422271 -0.911463 -0.000276 0.001748 0 0 0 0
361546103 -0.437411 -0.897479 -8.1e-05 0.001738 0 0 0 0
364420236 -0.457388 -0.895261 -0.000179 0.001786 0 0 0 0
367294369 -0.478133 -0.891637 3.7e-05 0.002148 0 0 0 0
370168502 -0.493017 -0.887471 4.9e-05 0.002063 0 0 0 0
373042635 -0.512308 -0.883382 -8.5e-05 0.001906 0 0 0 0
375916768 -0.526088 -0.874523 0.00017 0.002032 0 0 0 0
378790901 -0.539815 -0.86565 0.000137 0.002007 0 0 0 0
381665034 -0.555932 -0.849664 0.000373 0.002143 0 0 0 0
384539167 -0.569425 -0.835553 0.000391 0.002309 0 0 0 0
387413300 -0.577413 -0.821989 0.000464 0.002375 0 0 0 0
390287433 -0.591362 -0.805456 0.000592 0.002388 0 0 0 0
393161566 -0.61077 -0.799034 0.00083 0.00238 0 0 0 0
396035699 -0.630417 -0.792506 0.000795 0.002419 0 0 0 0
398909832 -0.647287 -0.784315 0.000859 0.002421 0 0 0 0
401783965 -0.684543 -0.742579 0.000942 0.002371 0 0 0 0
404658098 -0.677667 -0.762683 0.001031 0.002554 0 0 0 0
407532231 -0.690625 -0.750882 0.001025 0.002314 0 0 0 0
410406364 -0.700276 -0.736088 0.001066 0.002393 0 0 0 0
413280497 -0.713863 -0.720435 0.001543 0.002596 0 0 0 0
416154630 -0.720606 -0.698419 0.001505 0.002106 0 0 0 0
419028763 -0.729509 -0.677874 0.001751 0.002195 0 0 0 0
421902896 -0.748036 -0.671905 0.002002 0.002205 0 0 0 0
424777029 -0.76083 -0.66235 0.002059 0.002098 0 0 0 0
427651162 -0.779163 -0.654196 0.00226 0.002347 0 0 0 0
430525295 -0.791515 -0.63897 0.002244 0.002025 0 0 0 0
433399428 -0.803777 -0.625412 0.002221 0.002017 0 0 0 0
436273561 -0.81445 -0.610722 0.00262 0.002022 0 0 0 0
439147694 -0.816053 -0.607948 0.002538 0.001911 0 0 0 0
442021827 -0.828751 -0.571801 0.002564 0.001578 0 0 0 0
444895960 -0.833433 -0.553362 0.002918 0.001573 0 0 0 0
447770093 -0.836681 -0.531232 0.003062 0.001205 0 0 0 0
450644226 -0.847029 -0.533035 0.002856 0.001549 0 0 0 0
453518359 -0.861997 -0.522399 0.003083 0.001356 0 0 0 0
456392492 -0.883249 -0.490576 0.002721 0.001083 0 0 0 0
459266625 -0.898122 -0.474649 0.003003 0.00099 0 0 0 0
462140758 -0.907365 -0.457729 0.003525 0.001021 0 0 0 0
465014891 -0.912837 -0.441468 0.003583 0.001101 0 0 0 0
467889024 -0.91972 -0.424288 0.003307 0.000958 0 0 0 0
470763157 -0.926243 -0.40131 0.003391 0.000758 0 0 0 0
473637290 -0.926543 -0.381431 0.00352 0.000632 0 0 0 0
476511423 -0.924386 -0.359966 0.003509 0.000544 0 0 0 0
479385556 -0.939557 -0.342171 0.003651 0.000403 0 0 0 0
482259689 -0.951218 -0.323884 0.003628 0.000286 0 0 0 0
485133822 -0.964907 -0.30717 0.003603 0.0002 0 0 0 0
488007955 -0.972606 -0.288003 0.003685 1.7e-05 0 0 0 0
490882088 -0.978948 -0.273001 0.003645 5e-05 0 0 0 0
493756221 -0.983966 -0.253271 0.003699 -9.8e-05 0 0 0 0
496630354 -0.98662 -0.23354 0.00365 -6.6e-05 0 0 0 0
499504487 -0.986239 -0.213339 0.00385 -0.000247 0 0 0 0
502378620 -0.984282 -0.190188 0.003647 -0.000334 0 0 0 0
505252753 -0.978373 -0.169888 0.003687 -0.000466 0 0 0 0
508126886 -0.987431 -0.147159 0.003804 -0.000497 0 0 0 0
511001019 -0.996375 -0.12986 0.004144 -0.000772 0 0 0 0
513875152 -1.004573 -0.109431 0.003899 -0.00117 0 0 0 0
516749285 -1.010425 -0.088991 0.003898 -0.001167 0 0 0 0
519623418 -1.010357 -0.068913 0.00387 -0.001419 0 0 0 0
522497551 -1.015157 -0.048126 0.003895 -0.001345 0 0 0 0
525371684 -1.009865 -0.027195 0.003866 -0.001725 0 0 0 0
528245817 -1.008273 -0.008193 0.003804 -0.001836 0 0 0 0
531119950 -0.99822 0.014892 0.003776 -0.001763 0 0 0 0
533994083 -0.990935 0.032395 0.004176 -0.00211 0 0 0 0
536868216 -0.993187 0.055492 0.003564 -0.001946 0 0 0 0
539742349 -0.998814 0.077755 0.003772 -0.002173 0 0 0 0
542616482 -1.001892 0.096702 0.00377 -0.002523 0 0 0 0
545490615 -1.001579 0.119574 0.003173 -0.002668 0 0 0 0
548364748 -1.001721 0.136982 0.003415 -0.002971 0 0 0 0
551238881 -0.995495 0.160823 0.003259 -0.003057 0 0 0 0
554113014 -0.987197 0.180958 0.003149 -0.003246 0 0 0 0
556987147 -0.980934 0.198832 0.002979 -0.003232 0 0 0 0
559861280 -0.971338 0.217992 0.003086 -0.003265 0 0 0 0
562735413 -0.957967 0.238694 0.002898 -0.003479 0 0 0 0
565609546 -0.952064 0.260867 0.002777 -0.00357 0 0 0 0
568483679 -0.950494 0.286668 0.002765 -0.003736 0 0 0 0
571357812 -0.95101 0.310381 0.002025 -0.003745 0 0 0 0
574231945 -0.946768 0.333983 0.002351 -0.00384 0 0 0 0
577106078 -0.940769 0.354096 0.002115 -0.003831 0 0 0 0
579980211 -0.932245 0.372006 0.00174 -0.00394 0 0 0 0
582854344 -0.925022 0.395275 0.001407 -0.004503 0 0 0 0
585728477 -0.910948 0.416448 0.001209 -0.004097 0 0 0 0
588602610 -0.89262 0.430727 0.00126 -0.004031 0 0 0 0
591476743 -0.876978 0.450236 0.001123 -0.004241 0 0 0 0
594350876 -0.866512 0.471138 0.000986 -0.004399 0 0 0 0
597225009 -0.858883 0.492528 0.000642 -0.004128 0 0 0 0
600099142 -0.852742 0.516184 0.000384 -0.004385 0 0 0 0
602973275 -0.8405 0.539671 0.000359 -0.004382 0 0 0 0
605847408 -0.832519 0.557595 -0.000219 -0.004159 0 0 0 0
608721541 -0.818616 0.574634 -0.000197 -0.004413 0 0 0 0
611595674 -0.803085 0.594405 -0.000221 -0.004054 0 0 0 0
614469807 -0.787048 0.608406 -0.000336 -0.004354 0 0 0 0
617343940 -0.764855 0.623471 -0.00059 -0.004208 0 0 0 0
620218073 -0.743908 0.634316 -0.000687 -0.003895 0 0 0 0
623092206 -0.721502 0.653781 -0.000991 -0.003509 0 0 0 0
625966339 -0.7143 0.675725 -0.001446 -0.003635 0 0 0 0
628840472 -0.701722 0.695911 -0.001244 -0.003536 0 0 0 0
631714605 -0.690288 0.716424 -0.001471 -0.00344 0 0 0 0
634588738 -0.673991 0.73036 -0.0018 -0.003355 0 0 0 0
637462871 -0.651975 0.747322 -0.001714 -0.002925 0 0 0 0
640337004 -0.634502 0.761868 -0.001962 -0.003216 0 0 0 0
643211137 -0.616499 0.772891 -0.001992 -0.003094 0 0 0 0
646085270 -0.58895 0.785755 -0.002352 -0.002759 0 0 0 0
648959403 -0.564379 0.788486 -0.002542 -0.002794 0 0 0 0
651833536 -0.542574 0.802808 -0.002318 -0.002556 0 0 0 0
654707669 -0.52285 0.824942 -0.002148 -0.002699 0 0 0 0
657581802 -0.50027 0.842728 -0.002169 -0.002441 0 0 0 0
660455935 -0.483875 0.86047 -0.002602 -0.002392 0 0 0 0
663330068 -0.461477 0.875228 -0.00277 -0.002074 0 0 0 0
666204201 -0.436354 0.88653 -0.002959 -0.002096 0 0 0 0
669078334 -0.416527 0.897179 -0.002758 -0.001776 0 0 0 0
671952467 -0.391338 0.903767 -0.002956 -0.001845 0 0 0 0
674826600 -0.367412 0.906634 -0.002806 -0.001601 0 0 0 0
677700733 -0.332638 0.913404 -0.003063 -0.001482 0 0 0 0
680574866 -0.305801 0.915327 -0.003025 -0.000918 0 0 0 0
683448999 -0.277455 0.929273 -0.003285 -0.001368 0 0 0 0
686323132 -0.257385 0.946362 -0.003442 -0.001295 0 0 0 0
689197265 -0.230421 0.959436 -0.003425 -0.001174 0 0 0 0
692071398 -0.209372 0.966543 -0.003599 -0.001142 0 0 0 0
694945531 -0.181068 0.972965 -0.003565 -0.001276 0 0 0 0
697819664 -0.156939 0.973217 -0.003865 -0.001049 0 0 0 0
700693797 -0.130093 0.974128 -0.003798 -0.000999 0 0 0 0
703567930 -0.104445 0.973127 -0.004049 -0.000833 0 0 0 0
706442063 -0.073301 0.97031 -0.004091 -0.000728 0 0 0 0
709316196 -0.045184 0.96204 -0.004361 -0.000572 0 0 0 0
712190329 -0.020673 0.972525 -0.004412 -0.000642 0 0 0 0
715064462 0.013131 0.979502 -0.004693 -0.000455 0 0 0 0
717938595 0.040002 0.982491 -0.004961 -0.000353 0 0 0 0
720812728 0.070385 0.981072 -0.005144 -9e-05 0 0 0 0
723686861 0.099002 0.97876 -0.005323 3e-05 0 0 0 0
726560994 0.129481 0.974162 -0.005493 0.000119 0 0 0 0
729435127 0.158237 0.966405 -0.005708 0.000368 0 0 0 0
732309260 0.185479 0.955809 -0.005986 0.000593 0 0 0 0
735183393 0.211731 0.944362 -0.006085 0.000803 0 0 0 0
738057526 0.241095 0.926432 -0.006256 0.001058 0 0 0 0
740931659 0.273668 0.925512 -0.006427 0.001381 0 0 0 0
743805792 0.308222 0.922539 -0.006619 0.001657 0 0 0 0
746679925 0.334868 0.916049 -0.006765 0.001967 0 0 0 0
749554058 0.365519 0.906211 -0.006874 0.002362 0 0 0 0
752428191 0.398564 0.895086 -0.006792 0.002679 0 0 0 0
755302324 0.424995 0.879761 -0.006794 0.003034 0 0 0 0
758176457 0.450667 0.86444 -0.006723 0.003386 0 0 0 0
761050590 0.4775 0.845307 -0.006523 0.003637 0 0 0 0
763924723 0.504334 0.820425 -0.006151 0.003927 0 0 0 0
766798856 0.525683 0.797508 -0.005645 0.003978 0 0 0 0
769672989 0.557712 0.78238 -0.005317 0.003904 0 0 0 0
772547122 0.589092 0.766618 -0.004642 0.003583 0 0 0 0
775421255 0.619574 0.746941 -0.004003 0.003027 0 0 0 0
778295388 0.646855 0.728805 -0.003355 0.0021 0 0 0 0
781169521 0.67548 0.703092 -0.002577 0.000725 0 0 0 0
784043654 0.698034 0.676249 -0.001995 -0.001152 0 0 0 0
786917787 0.722147 0.648393 -0.001561 -0.003552 0 0 0 0
789791920 0.745812 0.613246 -0.001406 -0.006741 0 0 0 0
792666053 0.764182 0.581529 -0.00166 -0.010757 0 0 0 0
795540186 0.776716 0.548599 -0.002727 -0.015654 0 0 0 0
798414319 0.804019 0.516707 -0.005051 -0.021721 0 0 0 0
801288452 0.829421 0.487103 -0.009324 -0.029037 0 0 0 0
804162585 0.850056 0.454024 -0.01619 -0.036925 0 0 0 0
807036718 0.871656 0.419447 -0.026017 -0.044983 0 0 0 0
809910851 0.886554 0.378348 -0.039831 -0.0524 0 0 0 0
812784984 0.901558 0.344442 -0.057348 -0.058167 0 0 0 0
815659117 0.909032 0.295499 -0.079263 -0.05945 0 0 0 0
818533250 0.914059 0.253139 -0.102463 -0.057542 0 0 0 0
821407383 0.915126 0.210338 -0.12911 -0.047997 0 0 0 0
824281516 0.911324 0.164127 -0.155484 -0.030328 0 0 0 0
827155649 0.916519 0.118742 -0.178017 -0.004937 0 0 0 0
830029782 0.924482 0.075349 -0.197252 0.026845 0 0 0 0
832903915 0.924468 0.034236 -0.209731 0.062191 0 0 0 0
835778048 0.924452 -0.011713 -0.21577 0.10017 0 0 0 0
838652181 0.917993 -0.057416 -0.213596 0.138937 0 0 0 0
841526314 0.909979 -0.102186 -0.206168 0.177429 0 0 0 0
844400447 0.892611 -0.148785 -0.193091 0.214253 0 0 0 0
847274580 0.871962 -0.192887 -0.176053 0.247629 0 0 0 0
850148713 0.844096 -0.240338 -0.153109 0.281001 0 0 0 0
853022846 0.814563 -0.284667 -0.127687 0.309859 0 0 0 0
855896979 0.78816 -0.329767 -0.098703 0.33788 0 0 0 0
858771112 0.751808 -0.392384 -0.065419 0.366272 0 0 0 0
861645245 0.731684 -0.423122 -0.029507 0.390024 0 0 0 0
864519378 0.692073 -0.463786 0.00917 0.411115 0 0 0 0
867393511 0.635682 -0.509984 0.051566 0.428696 0 0 0 0
870267644 0.588073 -0.544525 0.0996 0.443765 0 0 0 0
873141777 0.539602 -0.558226 0.149478 0.451288 0 0 0 0
876015910 0.47026 -0.583212 0.199475 0.457132 0 0 0 0
878890043 0.408578 -0.592556 0.253366 0.45551 0 0 0 0
881764176 0.342491 -0.593685 0.309846 0.448674 0 0 0 0
884638309 0.280704 -0.591042 0.369956 0.435327 0 0 0 0
887512442 0.220895 -0.587744 0.432766 0.415318 0 0 0 0
890386575 0.160556 -0.567541 0.492607 0.389017 0 0 0 0
893260708 0.102657 -0.545006 0.553048 0.351497 0 0 0 0
896134841 0.05631 -0.507538 0.612167 0.302567 0 0 0 0
899008974 0.018623 -0.466509 0.664279 0.249635 0 0 0 0
901883107 -0.013383 -0.416204 0.710944 0.18482 0 0 0 0
904757240 -0.024917 -0.366013 0.74812 0.111041 0 0 0 0
907631373 -0.039342 -0.312872 0.775287 0.031183 0 0 0 0
910505506 -0.040816 -0.265224 0.792592 -0.050534 0 0 0 0
913379639 -0.033898 -0.217702 0.798648 -0.13867 0 0 0 0
916253772 -0.020335 -0.177477 0.794008 -0.228101 0 0 0 0
919127905 0.000619 -0.144979 0.777531 -0.313275 0 0 0 0
922002038 0.027367 -0.119193 0.749028 -0.394409 0 0 0 0
924876171 0.056385 -0.102064 0.710062 -0.471964 0 0 0 0
927750304 0.085976 -0.089753 0.66406 -0.537457 0 0 0 0
930624437 0.116405 -0.08732 0.610932 -0.597963 0 0 0 0
933498570 0.143711 -0.090883 0.549015 -0.648199 0 0 0 0
936372703 0.169055 -0.100354 0.487453 -0.68974 0 0 0 0
939246836 0.18929 -0.111646 0.426113 -0.719621 0 0 0 0
942120969 0.207035 -0.129309 0.362608 -0.746105 0 0 0 0
944995102 0.223879 -0.15234 0.305353 -0.76812 0 0 0 0
947869235 0.233825 -0.177029 0.241392 -0.78575 0 0 0 0
950743368 0.239425 -0.20511 0.18048 -0.796784 0 0 0 0
953617501 0.241682 -0.229908 0.123792 -0.800124 0 0 0 0
956491634 0.237909 -0.25325 0.074056 -0.802449 0 0 0 0
959365767 0.230156 -0.280545 0.020106 -0.800477 0 0 0 0
962239900 0.218293 -0.303526 -0.029234 -0.792968 0 0 0 0
965114033 0.205052 -0.323062 -0.074279 -0.782965 0 0 0 0
967988166 0.186911 -0.342556 -0.12 -0.77173 0 0 0 0
970862299 0.165014 -0.363239 -0.163814 -0.757561 0 0 0 0
973736432 0.141389 -0.379459 -0.204415 -0.750259 0 0 0 0
976610565 0.119529 -0.398455 -0.251768 -0.736467 0 0 0 0
979484698 0.094892 -0.410028 -0.326095 -0.680034 0 0 0 0
982358831 0.067498 -0.42089 -0.330641 -0.706205 0 0 0 0
985232964 0.037328 -0.427563 -0.37107 -0.687897 0 0 0 0
988107097 0.008703 -0.428396 -0.406369 -0.66976 0 0 0 0
990981230 -0.02144 -0.428819 -0.443812 -0.646509 0 0 0 0
993855363 -0.049192 -0.422791 -0.474994 -0.625413 0 0 0 0
996729496 -0.07749 -0.416032 -0.507918 -0.599787 0 0 0 0
999603629 -0.106387 -0.405447 -0.542231 -0.572008 0 0 0 0
1002477762 -0.137313 -0.394076 -0.58531 -0.535177 0 0 0 0
1005351895 -0.167314 -0.386924 -0.613118 -0.518909 0 0 0 0
1008226028 -0.192247 -0.371872 -0.641312 -0.49201 0 0 0 0
1011100161 -0.217163 -0.355265 -0.672275 -0.459946 0 0 0 0
1013974294 -0.238976 -0.333417 -0.698947 -0.429041 0 0 0 0
1016848427 -0.263337 -0.312423 -0.725874 -0.394102 0 0 0 0
1019722560 -0.295503 -0.278923 -0.748528 -0.355984 0 0 0 0
1022596693 -0.295309 -0.259408 -0.771447 -0.312112 0 0 0 0
1025470826 -0.308826 -0.228033 -0.788175 -0.273934 0 0 0 0
1028344959 -0.316837 -0.19917 -0.805269 -0.230796 0 0 0 0
1031219092 -0.32796 -0.170962 -0.823995 -0.186391 0 0 0 0
1034093225 -0.335484 -0.140959 -0.839966 -0.146145 0 0 0 0
1036967358 -0.340108 -0.110756 -0.853328 -0.099395 0 0 0 0
1039841491 -0.339428 -0.080465 -0.861298 -0.055359 0 0 0 0
1042715624 -0.338407 -0.049487 -0.866552 -0.013415 0 0 0 0
1045589757 -0.33108 -0.022043 -0.869304 0.035155 0 0 0 0
1048463890 -0.319847 0.004458 -0.866895 0.085681 0 0 0 0
1051338023 -0.309162 0.033453 -0.863636 0.127496 0 0 0 0
1054212156 -0.292387 0.059301 -0.852933 0.171545 0 0 0 0
1057086289 -0.276145 0.082649 -0.842594 0.216421 0 0 0 0
1059960422 -0.26007 0.106144 -0.837293 0.261764 0 0 0 0
1062834555 -0.241502 0.129935 -0.825951 0.3083 0 0 0 0
1065708688 -0.222269 0.146319 -0.813243 0.349245 0 0 0 0
1068582821 -0.201489 0.163716 -0.792068 0.391758 0 0 0 0
1071456954 -0.180764 0.178652 -0.772938 0.431549 0 0 0 0
1074331087 -0.154695 0.188893 -0.75201 0.471601 0 0 0 0
1077205220 -0.131672 0.196798 -0.726685 0.508447 0 0 0 0
1080079353 -0.103529 0.202113 -0.697701 0.545531 0 0 0 0
1082953486 -0.079412 0.204899 -0.668352 0.572399 0 0 0 0
1085827619 -0.055325 0.204163 -0.639449 0.605644 0 0 0 0
1088701752 -0.028873 0.204708 -0.609674 0.636966 0 0 0 0
1091575885 -0.005465 0.202342 -0.58208 0.668372 0 0 0 0
1094450018 0.019793 0.197202 -0.545725 0.698379 0 0 0 0
1097324151 0.042127 0.188544 -0.515528 0.724844 0 0 0 0
1100198284 0.064037 0.17779 -0.480637 0.748523 0 0 0 0
1103072417 0.088135 0.164582 -0.442394 0.77088 0 0 0 0
1105946550 0.105259 0.153412 -0.407728 0.789138 0 0 0 0
1108820683 0.125046 0.13782 -0.369056 0.80638 0 0 0 0
1111694816 0.139938 0.122777 -0.327212 0.82065 0 0 0 0
1114568949 0.150509 0.102797 -0.28817 0.834143 0 0 0 0
1117443082 0.168138 0.087617 -0.249021 0.846994 0 0 0 0
1120317215 0.1801 0.067371 -0.210352 0.862367 0 0 0 0
1123191348 0.188815 0.047475 -0.169288 0.8712 0 0 0 0
1126065481 0.196212 0.030456 -0.122616 0.882832 0 0 0 0
1128939614 0.204916 0.009033 -0.089113 0.886311 0 0 0 0
