# HZ S RI R 50
100000000 0.239375 -0.97098 3.2e-05 9e-05 0 0 0 0
102874133 0.205826 -0.985601 0.000101 1.3e-05 0 0 0 0
105748266 0.171125 -0.996398 0.000103 8.2e-05 0 0 0 0
108622399 0.13472 -1.007584 8.1e-05 5.6e-05 0 0 0 0
111496532 0.239065 -0.998564 4.4e-05 6.3e-05 0 0 0 0
114370665 0.062147 -1.017079 5.5e-05 6e-06 0 0 0 0
117244798 0.023967 -1.018937 5e-05 3e-05 0 0 0 0
120118931 -0.007153 -1.015203 3.6e-05 5.2e-05 0 0 0 0
122993064 -0.046856 -1.012584 4.1e-05 2.9e-05 0 0 0 0
125867197 -0.083475 -1.001742 2e-06 1e-06 0 0 0 0
128741330 -0.126961 -0.991828 2.3e-05 -3.4e-05 0 0 0 0
131615463 -0.162328 -0.997467 7.3e-05 4.9e-05 0 0 0 0
134489596 -0.199016 -0.998795 9.4e-05 1.7e-05 0 0 0 0
137363729 -0.235745 -0.976812 3.9e-05 -4.3e-05 0 0 0 0
140237862 -0.269856 -0.973481 3.4e-05 9.3e-05 0 0 0 0
143111995 -0.306702 -0.965392 1e-06 9.2e-05 0 0 0 0
145986128 -0.340652 -0.954737 1.9e-05 1e-05 0 0 0 0
148860261 -0.375083 -0.93977 3.3e-05 4.7e-05 0 0 0 0
151734394 -0.406914 -0.923072 4e-06 2.3e-05 0 0 0 0
154608527 -0.439488 -0.904307 -6.6e-05 2.4e-05 0 0 0 0
157482660 -0.469949 -0.880245 8.8e-05 0.000167 0 0 0 0
160356793 -0.505489 -0.867148 -5.1e-05 3.6e-05 0 0 0 0
163230926 -0.539114 -0.856676 -3.7e-05 -5.3e-05 0 0 0 0
166105059 -0.573385 -0.840487 -4e-05 -1.5e-05 0 0 0 0
168979192 -0.601502 -0.822668 -7.8e-05 3e-06 0 0 0 0
171853325 -0.632559 -0.802911 -2.8e-05 -8e-06 0 0 0 0
174727458 -0.659473 -0.779569 -3e-05 4.9e-05 0 0 0 0
177601591 -0.683847 -0.753069 -8e-05 5.7e-05 0 0 0 0
180475724 -0.707619 -0.724359 -5.3e-05 1.9e-05 0 0 0 0
183349857 -0.727266 -0.694199 -9e-05 3e-05 0 0 0 0
186223990 -0.745595 -0.660369 -7.1e-05 5e-06 0 0 0 0
189098123 -0.772474 -0.635339 -0.000105 8.3e-05 0 0 0 0
191972256 -0.800217 -0.612374 -0.000158 7.5e-05 0 0 0 0
194846389 -0.825908 -0.587458 -0.000163 6.2e-05 0 0 0 0
197720522 -0.849966 -0.559651 -0.000122 3e-06 0 0 0 0
200594655 -0.868911 -0.531835 -9.8e-05 5.4e-05 0 0 0 0
203468788 -0.885972 -0.500979 -0.000188 3.2e-05 0 0 0 0
206342921 -0.900856 -0.468309 -0.000231 7.3e-05 0 0 0 0
209217054 -0.911773 -0.434631 -0.000133 0.000107 0 0 0 0
212091187 -0.919026 -0.399607 -0.000158 0.000189 0 0 0 0
214965320 -0.922181 -0.36417 -0.00028 0.000177 0 0 0 0
217839453 -0.938356 -0.33186 -0.000149 0.000168 0 0 0 0
220713586 -0.957627 -0.297841 -0.000337 0.000111 0 0 0 0
223587719 -0.971658 -0.265669 -0.000371 6.8e-05 0 0 0 0
226461852 -0.984501 -0.232515 -0.000218 0.000106 0 0 0 0
229335985 -0.993941 -0.19892 -0.000429 0.000266 0 0 0 0
232210118 -0.999065 -0.165799 -0.000313 0.000181 0 0 0 0
235084251 -1.001124 -0.131445 -0.000326 0.000261 0 0 0 0
237958384 -1.000331 -0.095847 -0.000364 0.000242 0 0 0 0
240832517 -0.995712 -0.060623 -0.000319 0.000304 0 0 0 0
243706650 -0.989889 -0.026912 -0.000342 0.000309 0 0 0 0
246580783 -0.989162 0.00886 -0.000287 0.000293 0 0 0 0
249454916 -0.995733 0.044565 -0.000357 0.00034 0 0 0 0
252329049 -0.999069 0.079979 -0.000304 0.000358 0 0 0 0
255203182 -0.998423 0.115298 -0.000392 0.000463 0 0 0 0
258077315 -0.995445 0.149228 -0.00047 0.000466 0 0 0 0
260951448 -0.988671 0.184663 -0.000312 0.000464 0 0 0 0
263825581 -0.979486 0.216695 -0.000395 0.000574 0 0 0 0
266699714 -0.968085 0.249907 -0.000337 0.000556 0 0 0 0
269573847 -0.953017 0.282124 -0.000327 0.000627 0 0 0 0
272447980 -0.934951 0.311611 -0.000379 0.00055 0 0 0 0
275322113 -0.921305 0.343266 -0.00022 0.000572 0 0 0 0
278196246 -0.9163 0.378586 -0.000279 0.000605 0 0 0 0
281070379 -0.962862 0.310619 -0.000261 0.000753 0 0 0 0
283944512 -0.893902 0.44561 -0.000309 0.000747 0 0 0 0
286818645 -0.87812 0.477764 -0.000488 0.001158 0 0 0 0
289692778 -0.864345 0.50529 -0.000365 0.000811 0 0 0 0
292566911 -0.841459 0.534487 -0.000285 0.000987 0 0 0 0
295441044 -0.819508 0.562598 -9.1e-05 0.001334 0 0 0 0
298315177 -0.795226 0.588776 -0.000172 0.001061 0 0 0 0
301189310 -0.766339 0.611494 0.000123 0.000849 0 0 0 0
304063443 -0.742217 0.637824 7.9e-05 0.000623 0 0 0 0
306937576 -0.727657 0.667279 0.000378 0.0009 0 0 0 0
309811709 -0.756474 0.64151 0.000147 0.000413 0 0 0 0
312685842 -0.681528 0.722772 9.1e-05 0.000518 0 0 0 0
315559975 -0.656106 0.747197 6.8e-05 0.000436 0 0 0 0
318434108 -0.630656 0.770918 -0.000124 0.000974 0 0 0 0
321308241 -0.60235 0.790015 -0.000117 0.000467 0 0 0 0
324182374 -0.568739 0.806086 -0.000229 0.000629 0 0 0 0
327056507 -0.539155 0.823997 -0.000277 0.000893 0 0 0 0
329930640 -0.503479 0.836031 -0.000392 0.000895 0 0 0 0
332804773 -0.46916 0.849856 -0.000189 0.000806 0 0 0 0
335678906 -0.441387 0.874711 -0.000296 0.001028 0 0 0 0
338553039 -0.423713 0.891712 -0.000201 0.001483 0 0 0 0
341427172 -0.379554 0.912341 -0.000206 0.001059 0 0 0 0
344301305 -0.342044 0.927954 -0.000277 0.001879 0 0 0 0
347175438 -0.309806 0.940621 -0.000306 0.001445 0 0 0 0
350049571 -0.273807 0.950831 -0.000251 0.001811 0 0 0 0
352923704 -0.23829 0.957361 -0.000294 0.001815 0 0 0 0
355797837 -0.202255 0.957755 -0.000102 0.001498 0 0 0 0
358671970 -0.160483 0.956026 -0.000337 0.001685 0 0 0 0
361546103 -0.121803 0.957263 -7.7e-05 0.001759 0 0 0 0
364420236 -0.086455 0.969184 -3.4e-05 0.001939 0 0 0 0
367294369 -0.047274 0.977635 -0.000121 0.001857 0 0 0 0
370168502 -0.012425 0.982318 -4.4e-05 0.001886 0 0 0 0
373042635 0.024711 0.985649 -2.4e-05 0.001927 0 0 0 0
375916768 0.0663 0.984797 0.000253 0.001851 0 0 0 0
378790901 0.101704 0.97792 0.000233 0.002284 0 0 0 0
381665034 0.140736 0.969862 0.000413 0.00224 0 0 0 0
384539167 0.176192 0.959704 0.000599 0.002243 0 0 0 0
387413300 0.213321 0.941078 0.000587 0.002064 0 0 0 0
390287433 0.249827 0.923483 0.000734 0.002141 0 0 0 0
393161566 0.291243 0.922801 0.000784 0.002119 0 0 0 0
396035699 0.329293 0.915283 0.000797 0.001721 0 0 0 0
398909832 0.371604 0.904788 0.000724 0.002317 0 0 0 0
401783965 0.405423 0.890591 0.000853 0.002422 0 0 0 0
404658098 0.442833 0.873386 0.000876 0.002242 0 0 0 0
407532231 0.478386 0.852922 0.00099 0.001964 0 0 0 0
410406364 0.508454 0.830025 0.001087 0.002267 0 0 0 0
413280497 0.541744 0.805521 0.001161 0.0021 0 0 0 0
416154630 0.57095 0.772412 0.001306 0.002195 0 0 0 0
419028763 0.596865 0.740845 0.001588 0.002288 0 0 0 0
421902896 0.634545 0.718791 0.001749 0.002122 0 0 0 0
424777029 0.671054 0.693737 0.001908 0.002266 0 0 0 0
427651162 0.703782 0.664879 0.001606 0.002036 0 0 0 0
430525295 0.734901 0.635761 0.001708 0.002239 0 0 0 0
433399428 0.764279 0.603988 0.002202 0.002096 0 0 0 0
436273561 0.787216 0.570172 0.002264 0.001903 0 0 0 0
439147694 0.810021 0.531783 0.002371 0.001995 0 0 0 0
442021827 0.827342 0.491221 0.002631 0.001929 0 0 0 0
444895960 0.843632 0.448605 0.002703 0.001958 0 0 0 0
447770093 0.855017 0.408303 0.002548 0.001578 0 0 0 0
450644226 0.879558 0.368858 0.002772 0.001898 0 0 0 0
453518359 0.899593 0.330266 0.002984 0.001775 0 0 0 0
456392492 0.918671 0.288959 0.002758 0.001737 0 0 0 0
459266625 0.93405 0.247863 0.0036 0.001334 0 0 0 0
462140758 0.943074 0.204563 0.003101 0.001781 0 0 0 0
465014891 0.950285 0.159322 0.003333 0.001444 0 0 0 0
467889024 0.954512 0.114129 0.003433 0.001211 0 0 0 0
470763157 0.953503 0.066714 0.003596 0.001224 0 0 0 0
473637290 0.947211 0.017825 0.003772 0.001085 0 0 0 0
476511423 0.940906 -0.024437 0.003734 0.000858 0 0 0 0
479385556 0.942185 -0.074164 0.003694 0.000632 0 0 0 0
482259689 0.943755 -0.121711 0.003847 0.000562 0 0 0 0
485133822 0.940887 -0.17013 0.003834 0.000341 0 0 0 0
488007955 0.935823 -0.216597 0.003956 9.3e-05 0 0 0 0
490882088 0.923983 -0.262571 0.003906 9.9e-05 0 0 0 0
493756221 0.908146 -0.307366 0.003862 2e-05 0 0 0 0
496630354 0.891894 -0.350767 0.004029 1.3e-05 0 0 0 0
499504487 0.867883 -0.392184 0.004121 -0.000227 0 0 0 0
502378620 0.842879 -0.435393 0.004089 -0.000275 0 0 0 0
505252753 0.811327 -0.472954 0.004226 -0.000157 0 0 0 0
508126886 0.788252 -0.519525 0.004328 -0.000587 0 0 0 0
511001019 0.765167 -0.559169 0.004242 -0.000686 0 0 0 0
513875152 0.736884 -0.605165 0.004445 -0.000991 0 0 0 0
516749285 0.708472 -0.645642 0.00443 -0.001145 0 0 0 0
519623418 0.675217 -0.680164 0.004493 -0.001172 0 0 0 0
522497551 0.63749 -0.713111 0.004264 -0.00143 0 0 0 0
525371684 0.598594 -0.743272 0.004515 -0.001613 0 0 0 0
528245817 0.557487 -0.768476 0.004272 -0.001918 0 0 0 0
531119950 0.50871 -0.792033 0.004098 -0.002067 0 0 0 0
533994083 0.463474 -0.812313 0.003829 -0.002216 0 0 0 0
536868216 0.370419 -0.874927 0.003911 -0.002334 0 0 0 0
539742349 0.375816 -0.86323 0.003859 -0.002747 0 0 0 0
542616482 0.330584 -0.890809 0.003813 -0.002589 0 0 0 0
545490615 0.285846 -0.908324 0.003869 -0.002903 0 0 0 0
548364748 0.238389 -0.925055 0.00323 -0.003058 0 0 0 0
551238881 0.193337 -0.935333 0.003174 -0.003212 0 0 0 0
554113014 0.141718 -0.940066 0.003486 -0.00344 0 0 0 0
556987147 0.090144 -0.94216 0.003246 -0.003483 0 0 0 0
559861280 0.044187 -0.937191 0.003041 -0.003543 0 0 0 0
562735413 -0.005145 -0.930479 0.002678 -0.003613 0 0 0 0
565609546 -0.058267 -0.929053 0.002391 -0.003755 0 0 0 0
568483679 -0.106337 -0.936079 0.002405 -0.004045 0 0 0 0
571357812 -0.163434 -0.933553 0.002265 -0.003712 0 0 0 0
574231945 -0.208997 -0.928133 0.00223 -0.004125 0 0 0 0
577106078 -0.256942 -0.920258 0.001792 -0.00426 0 0 0 0
579980211 -0.305691 -0.907624 0.001611 -0.004292 0 0 0 0
582854344 -0.354156 -0.882093 0.001658 -0.004511 0 0 0 0
585728477 -0.39305 -0.868075 0.001017 -0.004601 0 0 0 0
588602610 -0.437049 -0.844478 0.000793 -0.004628 0 0 0 0
591476743 -0.476042 -0.817588 0.000805 -0.004337 0 0 0 0
594350876 -0.519324 -0.789351 0.000292 -0.004407 0 0 0 0
597225009 -0.563849 -0.76386 0.000257 -0.004283 0 0 0 0
600099142 -0.601247 -0.742553 0.000347 -0.004142 0 0 0 0
602973275 -0.639514 -0.714584 6.3e-05 -0.003789 0 0 0 0
605847408 -0.677361 -0.682282 -6.6e-05 -0.004187 0 0 0 0
608721541 -0.704671 -0.650712 -0.000371 -0.004302 0 0 0 0
611595674 -0.735384 -0.614259 -0.000638 -0.004157 0 0 0 0
614469807 -0.760774 -0.575686 -0.000585 -0.003829 0 0 0 0
617343940 -0.784585 -0.535819 -0.000824 -0.00385 0 0 0 0
620218073 -0.800877 -0.490956 -0.00044 -0.003598 0 0 0 0
623092206 -0.820757 -0.454057 -0.001186 -0.003458 0 0 0 0
625966339 -0.85354 -0.412437 -0.001142 -0.003507 0 0 0 0
628840472 -0.874446 -0.376875 -0.001381 -0.003326 0 0 0 0
631714605 -0.896877 -0.336121 -0.001585 -0.00327 0 0 0 0
634588738 -0.909976 -0.291691 -0.00181 -0.003237 0 0 0 0
637462871 -0.926305 -0.203142 -0.001767 -0.002957 0 0 0 0
640337004 -0.933881 -0.209873 -0.001614 -0.002924 0 0 0 0
643211137 -0.942514 -0.165505 -0.002063 -0.00273 0 0 0 0
646085270 -0.940576 -0.119752 -0.001686 -0.0026 0 0 0 0
648959403 -0.937595 -0.076386 -0.002093 -0.002637 0 0 0 0
651833536 -0.935399 -0.032509 -0.002247 -0.002858 0 0 0 0
654707669 -0.943649 0.013619 -0.002244 -0.002363 0 0 0 0
657581802 -0.948168 0.057213 -0.002101 -0.00265 0 0 0 0
660455935 -0.951806 0.099113 -0.002542 -0.002423 0 0 0 0
663330068 -0.948185 0.145864 -0.002653 -0.002308 0 0 0 0
666204201 -0.940475 0.180565 -0.002733 -0.001674 0 0 0 0
669078334 -0.927911 0.225526 -0.002575 -0.002468 0 0 0 0
671952467 -0.914853 0.262878 -0.002547 -0.001485 0 0 0 0
674826600 -0.898066 0.30225 -0.002923 -0.002015 0 0 0 0
677700733 -0.875421 0.34202 -0.00313 -0.001669 0 0 0 0
680574866 -0.856819 0.378278 -0.002982 -0.001781 0 0 0 0
683448999 -0.845362 0.41961 -0.003015 -0.001855 0 0 0 0
686323132 -0.83306 0.455685 -0.003329 -0.001404 0 0 0 0
689197265 -0.81374 0.496917 -0.003368 -0.001505 0 0 0 0
692071398 -0.797871 0.534911 -0.003598 -0.001467 0 0 0 0
694945531 -0.769789 0.565516 -0.003797 -0.00151 0 0 0 0
697819664 -0.742799 0.59565 -0.00398 -0.001476 0 0 0 0
700693797 -0.715568 0.627023 -0.004024 -0.001319 0 0 0 0
703567930 -0.684628 0.65214 -0.004152 -0.001033 0 0 0 0
706442063 -0.648806 0.673134 -0.004388 -0.000974 0 0 0 0
709316196 -0.611327 0.696342 -0.004428 -0.000974 0 0 0 0
712190329 -0.585712 0.730414 -0.00478 -0.00099 0 0 0 0
715064462 -0.553255 0.759878 -0.004957 -0.000758 0 0 0 0
717938595 -0.522595 0.785047 -0.005307 -0.00054 0 0 0 0
720812728 -0.518497 0.785714 -0.005429 -0.000769 0 0 0 0
723686861 -0.452331 0.831952 -0.005682 -3.8e-05 0 0 0 0
726560994 -0.409919 0.850749 -0.005854 8.5e-05 0 0 0 0
729435127 -0.373615 0.860171 -0.006087 0.000288 0 0 0 0
732309260 -0.32922 0.868742 -0.006328 0.000583 0 0 0 0
735183393 -0.287137 0.877309 -0.006429 0.000785 0 0 0 0
738057526 -0.239327 0.881771 -0.006643 0.001195 0 0 0 0
740931659 -0.196622 0.898208 -0.006846 0.001539 0 0 0 0
743805792 -0.15436 0.909719 -0.006948 0.001829 0 0 0 0
746679925 -0.109467 0.920255 -0.007068 0.002055 0 0 0 0
749554058 -0.059208 0.923948 -0.00722 0.002507 0 0 0 0
752428191 -0.011431 0.924757 -0.007112 0.002888 0 0 0 0
755302324 -0.045327 0.90899 -0.007499 0.002444 0 0 0 0
758176457 0.085125 0.909711 -0.007019 0.003481 0 0 0 0
761050590 0.136497 0.896399 -0.006714 0.003951 0 0 0 0
763924723 0.18803 0.877321 -0.006416 0.004031 0 0 0 0
766798856 0.235584 0.85368 -0.006 0.00407 0 0 0 0
769672989 0.291459 0.834882 -0.005695 0.004059 0 0 0 0
772547122 0.346826 0.81309 -0.004922 0.00376 0 0 0 0
775421255 0.401174 0.783851 -0.004328 0.003247 0 0 0 0
778295388 0.453863 0.745322 -0.003681 0.002382 0 0 0 0
781169521 0.507332 0.697797 -0.002912 0.001065 0 0 0 0
784043654 0.55475 0.645969 -0.002246 -0.000812 0 0 0 0
786917787 0.60519 0.578298 -0.001804 -0.003223 0 0 0 0
789791920 0.64233 0.502041 -0.001632 -0.006305 0 0 0 0
792666053 0.675194 0.415694 -0.001953 -0.010465 0 0 0 0
795540186 0.693376 0.316564 -0.003035 -0.015688 0 0 0 0
798414319 0.710343 0.210548 -0.005415 -0.021997 0 0 0 0
801288452 0.706225 0.094026 -0.009942 -0.029638 0 0 0 0
804162585 0.675365 -0.037543 -0.017283 -0.037902 0 0 0 0
807036718 0.610343 -0.168193 -0.02821 -0.046295 0 0 0 0
809910851 0.504033 -0.291294 -0.043503 -0.053829 0 0 0 0
812784984 0.355281 -0.387066 -0.063576 -0.057878 0 0 0 0
815659117 0.173767 -0.443813 -0.087732 -0.056811 0 0 0 0
818533250 -0.026922 -0.440495 -0.112233 -0.050953 0 0 0 0
821407383 -0.21918 -0.372556 -0.137476 -0.035029 0 0 0 0
824281516 -0.379355 -0.252127 -0.157399 -0.032607 0 0 0 0
827155649 -0.484757 -0.089971 -0.175334 0.017033 0 0 0 0
830029782 -0.53898 0.083059 -0.185551 0.048777 0 0 0 0
832903915 -0.542003 0.250819 -0.190251 0.08008 0 0 0 0
835778048 -0.502962 0.39802 -0.188279 0.111154 0 0 0 0
838652181 -0.43519 0.523062 -0.171992 0.154164 0 0 0 0
841526314 -0.352249 0.617051 -0.175074 0.172081 0 0 0 0
844400447 -0.255555 0.683971 -0.164088 0.199118 0 0 0 0
847274580 -0.16378 0.728759 -0.150045 0.225395 0 0 0 0
850148713 -0.071983 0.752888 -0.135428 0.251451 0 0 0 0
853022846 0.018066 0.756921 -0.115908 0.276419 0 0 0 0
855896979 0.106073 0.759375 -0.095662 0.302361 0 0 0 0
858771112 0.190848 0.750172 -0.072671 0.328348 0 0 0 0
861645245 0.267772 0.72687 -0.044334 0.354142 0 0 0 0
864519378 0.337525 0.695541 -0.01405 0.379335 0 0 0 0
867393511 0.399528 0.6533 0.021828 0.402594 0 0 0 0
870267644 0.45015 0.603794 0.062257 0.424198 0 0 0 0
873141777 0.496176 0.547793 0.106998 0.442946 0 0 0 0
876015910 0.532696 0.479609 0.156075 0.456796 0 0 0 0
878890043 0.555186 0.412067 0.21015 0.464774 0 0 0 0
881764176 0.567381 0.338977 0.271547 0.466917 0 0 0 0
884638309 0.570952 0.271568 0.336534 0.462001 0 0 0 0
887512442 0.569965 0.200677 0.407018 0.448952 0 0 0 0
890386575 0.554072 0.132068 0.477076 0.427673 0 0 0 0
893260708 0.517326 0.013221 0.575469 0.337214 0 0 0 0
896134841 0.48471 0.0137 0.613691 0.340261 0 0 0 0
899008974 0.434439 -0.030564 0.674105 0.280868 0 0 0 0
901883107 0.37641 -0.066177 0.725521 0.209425 0 0 0 0
904757240 0.298338 -0.118437 0.767389 0.130303 0 0 0 0
907631373 0.248987 -0.097873 0.794105 0.042103 0 0 0 0
910505506 0.183538 -0.093455 0.806289 -0.042209 0 0 0 0
913379639 0.12922 -0.078582 0.811312 -0.134724 0 0 0 0
916253772 0.079449 -0.052978 0.80409 -0.220852 0 0 0 0
919127905 0.03879 -0.018292 0.784644 -0.306679 0 0 0 0
922002038 0.00594 0.020422 0.756192 -0.385662 0 0 0 0
924876171 -0.017231 0.062974 0.717171 -0.459701 0 0 0 0
927750304 -0.032825 0.106554 0.671475 -0.527865 0 0 0 0
930624437 -0.038394 0.148429 0.623667 -0.582542 0 0 0 0
933498570 -0.035506 0.186295 0.568513 -0.632803 0 0 0 0
936372703 -0.026575 0.221905 0.509997 -0.675291 0 0 0 0
939246836 -0.012516 0.251869 0.450851 -0.710459 0 0 0 0
942120969 0.005169 0.277647 0.390954 -0.741162 0 0 0 0
944995102 0.025011 0.303135 0.333969 -0.768915 0 0 0 0
947869235 0.049029 0.324954 0.275977 -0.792262 0 0 0 0
950743368 0.071898 0.340982 0.220051 -0.808405 0 0 0 0
953617501 0.09959 0.351531 0.159873 -0.821066 0 0 0 0
956491634 0.12261 0.360474 0.103615 -0.826603 0 0 0 0
959365767 0.144896 0.365405 0.048695 -0.831043 0 0 0 0
962239900 0.169544 0.36264 -0.009975 -0.828601 0 0 0 0
965114033 0.191217 0.361551 -0.059506 -0.825382 0 0 0 0
967988166 0.213056 0.35302 -0.117741 -0.81416 0 0 0 0
970862299 0.230887 0.34712 -0.16207 -0.80647 0 0 0 0
973736432 0.252119 0.342545 -0.216956 -0.793403 0 0 0 0
976610565 0.272985 0.334932 -0.270483 -0.779063 0 0 0 0
979484698 0.286686 0.326754 -0.316104 -0.762332 0 0 0 0
982358831 0.299866 0.318941 -0.360917 -0.744551 0 0 0 0
985232964 0.313674 0.30572 -0.40706 -0.721419 0 0 0 0
988107097 0.331129 0.286371 -0.493741 -0.638067 0 0 0 0
990981230 0.330925 0.281458 -0.485469 -0.667637 0 0 0 0
993855363 0.335832 0.266296 -0.523333 -0.63708 0 0 0 0
996729496 0.342423 0.25287 -0.561736 -0.600416 0 0 0 0
999603629 0.342974 0.238768 -0.591506 -0.568026 0 0 0 0
1002477762 0.350658 0.22775 -0.625572 -0.53541 0 0 0 0
1005351895 0.356616 0.215071 -0.657754 -0.499947 0 0 0 0
1008226028 0.358711 0.205301 -0.68604 -0.464672 0 0 0 0
1011100161 0.360143 0.192284 -0.7106 -0.425982 0 0 0 0
1013974294 0.359185 0.183852 -0.732936 -0.387902 0 0 0 0
1016848427 0.360133 0.173821 -0.751629 -0.35265 0 0 0 0
1019722560 0.357263 0.162343 -0.767892 -0.310828 0 0 0 0
1022596693 0.353067 0.149209 -0.783923 -0.265114 0 0 0 0
1025470826 0.347631 0.141466 -0.793651 -0.222517 0 0 0 0
1028344959 0.343371 0.134173 -0.80248 -0.180779 0 0 0 0
1031219092 0.344917 0.127468 -0.813827 -0.14146 0 0 0 0
1034093225 0.343773 0.119295 -0.821956 -0.098828 0 0 0 0
1036967358 0.344125 0.110978 -0.828618 -0.062769 0 0 0 0
1039841491 0.342383 0.105475 -0.832126 -0.018204 0 0 0 0
1042715624 0.341284 0.101208 -0.833767 0.023903 0 0 0 0
1045589757 0.336525 0.097856 -0.830561 0.061817 0 0 0 0
1048463890 0.334422 0.091645 -0.827776 0.100856 0 0 0 0
1051338023 0.329008 0.085898 -0.819846 0.138211 0 0 0 0
1054212156 0.327868 0.082064 -0.812748 0.179973 0 0 0 0
1057086289 0.319961 0.076267 -0.801456 0.220042 0 0 0 0
1059960422 0.321924 0.074665 -0.797604 0.257376 0 0 0 0
1062834555 0.320627 0.069513 -0.788016 0.299107 0 0 0 0
1065708688 0.320866 0.067673 -0.775246 0.339615 0 0 0 0
1068582821 0.317806 0.065265 -0.760103 0.375468 0 0 0 0
1071456954 0.315217 0.062865 -0.748669 0.408535 0 0 0 0
1074331087 0.315347 0.062017 -0.727775 0.443929 0 0 0 0
1077205220 0.311577 0.057157 -0.707812 0.481471 0 0 0 0
1080079353 0.30429 0.055489 -0.685621 0.5162 0 0 0 0
1082953486 0.302498 0.051042 -0.659418 0.547848 0 0 0 0
1085827619 0.296657 0.048351 -0.632102 0.581625 0 0 0 0
1088701752 0.296924 0.046063 -0.609432 0.61351 0 0 0 0
1091575885 0.293989 0.043809 -0.583938 0.642237 0 0 0 0
1094450018 0.293799 0.040946 -0.55521 0.674163 0 0 0 0
1097324151 0.290458 0.037743 -0.520519 0.704141 0 0 0 0
1100198284 0.286984 0.033552 -0.484116 0.731986 0 0 0 0
1103072417 0.285143 0.032556 -0.453274 0.754134 0 0 0 0
1105946550 0.282757 0.032604 -0.420591 0.773902 0 0 0 0
1108820683 0.274985 0.030951 -0.378899 0.79412 0 0 0 0
1111694816 0.274775 0.030751 -0.34001 0.814557 0 0 0 0
1114568949 0.268043 0.029922 -0.296496 0.826462 0 0 0 0
1117443082 0.268285 0.029302 -0.257422 0.840201 0 0 0 0
1120317215 0.266388 0.030707 -0.21792 0.856855 0 0 0 0
1123191348 0.265943 0.036279 -0.174955 0.866686 0 0 0 0
1126065481 0.262171 0.037925 -0.131406 0.876912 0 0 0 0
1128939614 0.261841 0.043015 -0.089682 0.880207 0 0 0 0
1131813747 0.259414 0.045484 -0.051619 0.884273 0 0 0 0
1134687880 0.260969 0.048383 -0.003873 0.88367 0 0 0 0
