# HZ S RI R 50
100000000 0.948073 -0.307576
102874133 0.95297 -0.328336
105748266 0.957135 -0.33899
108622399 0.965711 -0.31632
111496532 0.954754 -0.344924
114370665 0.980436 -0.323912
117244798 0.941666 -0.374298
120118931 0.93266 -0.383892
122993064 0.915709 -0.388748
125867197 0.901518 -0.402668
128741330 0.881614 -0.399817
131615463 0.886221 -0.404125
134489596 0.889118 -0.41378
137363729 0.866694 -0.419597
140237862 0.868708 -0.414967
143111995 0.883115 -0.413374
145986128 0.893647 -0.426985
148860261 0.895525 -0.439749
151734394 0.892376 -0.450742
154608527 0.885978 -0.460583
157482660 0.876745 -0.47073
160356793 0.876323 -0.485818
163230926 0.871171 -0.500379
166105059 0.869779 -0.512152
168979192 0.864236 -0.524395
171853325 0.858086 -0.538081
174727458 0.846168 -0.547147
177601591 0.83512 -0.55864
180475724 0.813848 -0.568736
183349857 0.790527 -0.576927
186223990 0.758769 -0.579518
189098123 0.736409 -0.578625
191972256 0.718466 -0.572397
194846389 0.70213 -0.557051
197720522 0.689701 -0.526588
200594655 0.702431 -0.479692
203468788 0.750014 -0.467202
206342921 0.769043 -0.475312
209217054 0.789774 -0.486005
212091187 0.801229 -0.504896
214965320 0.799652 -0.524922
217839453 0.799539 -0.548074
220713586 0.803317 -0.570317
223587719 0.802125 -0.584327
226461852 0.799233 -0.599832
229335985 0.79695 -0.611593
232210118 0.790887 -0.620171
235084251 0.785138 -0.628512
237958384 0.774211 -0.637976
240832517 0.761484 -0.643353
243706650 0.747042 -0.648112
246580783 0.738728 -0.659589
249454916 0.736402 -0.673097
252329049 0.732891 -0.684961
255203182 0.729791 -0.692842
258077315 0.724144 -0.699548
260951448 0.719932 -0.702758
263825581 0.715464 -0.709295
266699714 0.705973 -0.714945
269573847 0.692568 -0.718335
272447980 0.679583 -0.719842
275322113 0.669466 -0.730052
278196246 0.66758 -0.743208
281070379 0.664752 -0.754261
283944512 0.659936 -0.762326
286818645 0.65456 -0.769753
289692778 0.648572 -0.774173
292566911 0.639491 -0.778486
295441044 0.626741 -0.781982
298315177 0.613791 -0.779336
301189310 0.596431 -0.776363
304063443 0.584949 -0.776802
306937576 0.583618 -0.784398
309811709 0.581022 -0.789914
312685842 0.583243 -0.794081
315559975 0.584754 -0.801183
318434108 0.584055 -0.809779
321308241 0.580806 -0.814323
324182374 0.574853 -0.821802
327056507 0.563546 -0.826095
329930640 0.550874 -0.829134
332804773 0.538866 -0.833345
335678906 0.534012 -0.847464
338553039 0.528631 -0.861837
341427172 0.522546 -0.87216
344301305 0.512644 -0.881056
347175438 0.506549 -0.887354
350049571 0.494655 -0.889331
352923704 0.486294 -0.892858
355797837 0.472358 -0.893418
358671970 0.460307 -0.892606
361546103 0.44697 -0.894586
364420236 0.440706 -0.904401
367294369 0.432954 -0.915495
370168502 0.426128 -0.922877
373042635 0.416185 -0.928236
375916768 0.406036 -0.934698
378790901 0.398495 -0.936922
381665034 0.388158 -0.937949
384539167 0.374529 -0.936909
387413300 0.36266 -0.932921
390287433 0.347768 -0.93212
393161566 0.339575 -0.941236
396035699 0.330785 -0.950833
398909832 0.319845 -0.958314
401783965 0.313844 -0.964379
404658098 0.298162 -0.96662
407532231 0.287334 -0.967833
410406364 0.275692 -0.96487
413280497 0.259294 -0.964235
416154630 0.245653 -0.95779
419028763 0.229334 -0.950463
421902896 0.217373 -0.961729
424777029 0.206505 -0.970477
427651162 0.195193 -0.971861
430525295 0.181449 -0.97185
433399428 0.165657 -0.972723
436273561 0.15345 -0.965533
439147694 0.141014 -0.953106
442021827 0.125097 -0.938819
444895960 0.114907 -0.924244
447770093 0.113452 -0.900113
450644226 0.127988 -0.895187
453518359 0.142442 -0.904247
456392492 0.150712 -0.926554
459266625 0.14543 -0.945197
462140758 0.131486 -0.96188
465014891 0.118839 -0.968331
467889024 0.100289 -0.970455
470763157 0.082366 -0.968253
473637290 0.06798 -0.96199
476511423 0.050946 -0.952996
479385556 0.038123 -0.957738
482259689 0.022739 -0.963013
485133822 0.010327 -0.963937
488007955 0.001542 -0.963089
490882088 -0.013017 -0.959816
493756221 -0.023681 -0.954795
496630354 -0.036824 -0.948475
499504487 -0.044003 -0.938116
502378620 -0.050608 -0.926067
505252753 -0.060296 -0.913487
508126886 -0.069462 -0.910415
511001019 -0.082999 -0.915542
513875152 -0.087753 -0.915336
516749285 -0.095101 -0.915151
519623418 -0.105777 -0.912351
522497551 -0.112513 -0.908072
525371684 -0.119545 -0.899607
528245817 -0.126424 -0.88947
531119950 -0.132326 -0.876205
533994083 -0.137576 -0.863233
536868216 -0.141482 -0.859894
539742349 -0.14976 -0.866803
542616482 -0.158521 -0.868091
545490615 -0.164709 -0.866245
548364748 -0.169981 -0.863923
551238881 -0.176982 -0.862445
554113014 -0.180923 -0.853724
556987147 -0.187095 -0.846591
559861280 -0.187738 -0.835739
562735413 -0.192513 -0.825648
565609546 -0.198151 -0.822439
568483679 -0.208167 -0.826472
571357812 -0.2156 -0.822247
574231945 -0.218153 -0.824044
577106078 -0.225392 -0.822177
579980211 -0.22835 -0.816476
582854344 -0.230877 -0.813984
585728477 -0.237375 -0.806064
588602610 -0.23913 -0.795289
591476743 -0.238153 -0.785909
594350876 -0.249454 -0.78581
597225009 -0.255392 -0.791775
600099142 -0.265823 -0.794579
602973275 -0.279807 -0.791956
605847408 -0.284983 -0.794141
608721541 -0.293921 -0.788275
611595674 -0.298718 -0.780856
614469807 -0.302651 -0.769644
617343940 -0.307924 -0.764861
620218073 -0.313608 -0.753831
623092206 -0.318652 -0.746923
625966339 -0.327962 -0.741531
628840472 -0.335136 -0.73222
631714605 -0.337025 -0.726451
634588738 -0.33832 -0.716892
637462871 -0.335196 -0.71456
640337004 -0.334782 -0.705866
643211137 -0.328944 -0.699148
646085270 -0.329792 -0.695456
648959403 -0.329877 -0.684407
651833536 -0.331724 -0.678275
654707669 -0.33936 -0.677965
657581802 -0.340225 -0.676863
660455935 -0.34247 -0.679996
663330068 -0.341196 -0.673503
666204201 -0.335944 -0.674395
669078334 -0.33115 -0.675692
671952467 -0.324973 -0.678921
674826600 -0.327072 -0.674788
677700733 -0.324799 -0.671011
680574866 -0.322422 -0.645901
683448999 -0.314881 -0.65629
686323132 -0.313035 -0.674757
689197265 -0.319653 -0.685666
692071398 -0.326928 -0.696409
694945531 -0.326633 -0.702422
697819664 -0.330748 -0.71348
700693797 -0.334236 -0.716205
703567930 -0.339469 -0.719357
706442063 -0.34349 -0.723881
709316196 -0.350055 -0.725198
712190329 -0.369572 -0.735272
715064462 -0.387891 -0.743516
717938595 -0.402611 -0.750789
720812728 -0.41694 -0.750321
723686861 -0.429988 -0.755582
726560994 -0.445594 -0.751538
729435127 -0.456221 -0.747039
732309260 -0.467321 -0.74141
735183393 -0.479058 -0.732518
738057526 -0.490283 -0.72276
740931659 -0.509343 -0.724521
743805792 -0.52582 -0.726304
746679925 -0.543216 -0.723734
749554058 -0.554135 -0.721558
752428191 -0.567642 -0.71429
755302324 -0.577202 -0.710873
758176457 -0.587723 -0.705899
761050590 -0.601057 -0.694878
763924723 -0.60872 -0.682038
766798856 -0.618288 -0.664781
769672989 -0.637128 -0.660776
772547122 -0.654725 -0.655403
775421255 -0.670552 -0.651924
778295388 -0.683753 -0.644234
781169521 -0.696383 -0.633855
784043654 -0.702675 -0.620457
786917787 -0.713056 -0.610774
789791920 -0.71906 -0.591883
792666053 -0.722623 -0.576639
795540186 -0.726807 -0.557207
798414319 -0.740928 -0.545653
801288452 -0.758972 -0.530981
804162585 -0.769168 -0.523367
807036718 -0.785128 -0.508942
809910851 -0.790273 -0.493081
812784984 -0.795777 -0.473731
815659117 -0.80132 -0.463854
818533250 -0.804744 -0.447993
821407383 -0.805451 -0.430867
824281516 -0.803029 -0.4104
827155649 -0.814458 -0.396083
830029782 -0.826022 -0.377367
832903915 -0.830752 -0.368169
835778048 -0.838269 -0.350691
838652181 -0.84268 -0.333711
841526314 -0.842499 -0.317833
844400447 -0.843438 -0.303906
847274580 -0.83822 -0.284412
850148713 -0.833426 -0.268183
853022846 -0.829637 -0.242316
855896979 -0.829044 -0.232707
858771112 -0.832827 -0.214571
861645245 -0.837022 -0.190216
864519378 -0.835153 -0.175383
867393511 -0.829081 -0.161316
870267644 -0.826037 -0.145603
873141777 -0.819435 -0.130836
876015910 -0.807168 -0.116425
878890043 -0.801531 -0.097947
881764176 -0.788166 -0.086771
884638309 -0.785454 -0.058829
887512442 -0.776684 -0.043421
890386575 -0.769494 -0.033898
893260708 -0.767708 -0.028323
896134841 -0.760412 -0.010115
899008974 -0.744437 0.006145
901883107 -0.732744 0.015376
904757240 -0.724806 0.018909
907631373 -0.710599 0.038072
910505506 -0.690826 0.043371
913379639 -0.682233 0.05225
916253772 -0.676881 0.055318
919127905 -0.672085 0.066216
922002038 -0.663607 0.072893
924876171 -0.653369 0.082262
927750304 -0.642866 0.088568
930624437 -0.63106 0.094844
933498570 -0.618467 0.103522
936372703 -0.604179 0.105963
939246836 -0.590284 0.110286
942120969 -0.579084 0.115632
944995102 -0.578703 0.117435
947869235 -0.576138 0.127759
950743368 -0.567798 0.141265
953617501 -0.556648 0.143231
956491634 -0.545666 0.143953
959365767 -0.539074 0.148337
962239900 -0.526401 0.152044
965114033 -0.518084 0.160187
967988166 -0.500054 0.174841
970862299 -0.481636 0.170646
973736432 -0.468884 0.178558
976610565 -0.456 0.178674
979484698 -0.447905 0.17632
982358831 -0.439331 0.176155
985232964 -0.429491 0.174853
988107097 -0.416687 0.176493
990981230 -0.400548 0.171902
993855363 -0.39204 0.163613
996729496 -0.385552 0.165273
999603629 -0.375264 0.169249
1002477762 -0.364918 0.167829
1005351895 -0.363785 0.171173
1008226028 -0.353002 0.183323
1011100161 -0.330397 0.186327
1013974294 -0.310292 0.179948
1016848427 -0.299901 0.167932
1019722560 -0.287258 0.160333
1022596693 -0.276162 0.152187
1025470826 -0.265255 0.141932
1028344959 -0.250948 0.134662
1031219092 -0.24706 0.124857
1034093225 -0.242224 0.114663
1036967358 -0.245411 0.103338
1039841491 -0.244362 0.099573
1042715624 -0.240388 0.098384
1045589757 -0.230932 0.093585
1048463890 -0.224047 0.080298
1051338023 -0.220276 0.06713
1054212156 -0.221775 0.049748
1057086289 -0.228959 0.043362
1059960422 -0.239589 0.04225
1062834555 -0.242773 0.044916
1065708688 -0.242915 0.052194
1068582821 -0.235273 0.052179
1071456954 -0.228753 0.04588
1074331087 -0.230226 0.041993
1077205220 -0.225962 0.03952
1080079353 -0.220251 0.03822
1082953486 -0.214004 0.029449
1085827619 -0.206903 0.024226
1088701752 -0.206468 0.024493
1091575885 -0.199291 0.019573
1094450018 -0.195735 0.004261
1097324151 -0.202958 -0.0091
1100198284 -0.205511 -0.020948
1103072417 -0.212294 -0.024831
1105946550 -0.221592 -0.030326
1108820683 -0.22668 -0.030646
1111694816 -0.230094 -0.031266
1114568949 -0.232553 -0.026798
1117443082 -0.23394 -0.022753
1120317215 -0.235739 -0.026744
1123191348 -0.241076 -0.022813
1126065481 -0.235428 -0.017416
1128939614 -0.226065 -0.018819
1131813747 -0.220671 -0.022528
1134687880 -0.217611 -0.031142
1137562013 -0.215105 -0.039596
1140436146 -0.214761 -0.050361
1143310279 -0.224948 -0.058536
1146184412 -0.229913 -0.058364
1149058545 -0.237005 -0.055955
1151932678 -0.24123 -0.058822
1154806811 -0.241337 -0.058013
1157680944 -0.24548 -0.06197
1160555077 -0.252639 -0.062743
1163429210 -0.251986 -0.060498
1166303343 -0.251164 -0.066321
1169177476 -0.252715 -0.068375
1172051609 -0.256181 -0.066073
1174925742 -0.260692 -0.065226
1177799875 -0.272165 -0.067302
1180674008 -0.278898 -0.06162
1183548141 -0.284449 -0.057527
1186422274 -0.28561 -0.050122
1189296407 -0.291502 -0.042563
1192170540 -0.291609 -0.030813
1195044673 -0.285547 -0.028554
1197918806 -0.283308 -0.018799
1200792939 -0.280398 -0.01467
1203667072 -0.273014 -0.010871
1206541205 -0.270928 -0.006617
1209415338 -0.26837 -0.002989
1212289471 -0.262937 0.000541
1215163604 -0.259476 0.0037
1218037737 -0.2501 0.005517
1220911870 -0.24255 0.001223
1223786003 -0.237639 -0.00079
1226660136 -0.230038 0.001278
1229534269 -0.223467 -0.002012
1232408402 -0.2186 -0.002078
1235282535 -0.21442 -0.005055
1238156668 -0.206837 -0.004775
1241030801 -0.204406 -0.014312
1243904934 -0.20137 -0.011416
1246779067 -0.193876 -0.016881
1249653200 -0.188256 -0.028756
1252527333 -0.190445 -0.035238
1255401466 -0.189258 -0.033699
1258275599 -0.174802 -0.03292
1261149732 -0.171882 -0.039389
1264023865 -0.167327 -0.045659
1266897998 -0.16188 -0.053603
1269772131 -0.161753 -0.063342
1272646264 -0.152891 -0.067678
1275520397 -0.146761 -0.078705
1278394530 -0.142228 -0.096966
1281268663 -0.143711 -0.111744
1284142796 -0.148025 -0.121742
1287016929 -0.152385 -0.130753
1289891062 -0.154889 -0.138885
1292765195 -0.16072 -0.146057
1295639328 -0.162163 -0.157196
1298513461 -0.179281 -0.169354
1301387594 -0.173027 -0.179502
1304261727 -0.179644 -0.190618
1307135860 -0.182788 -0.203989
1310009993 -0.19747 -0.215973
1312884126 -0.207997 -0.215714
1315758259 -0.21117 -0.220983
1318632392 -0.21938 -0.224927
1321506525 -0.228782 -0.233821
1324380658 -0.242893 -0.241462
1327254791 -0.254899 -0.245434
1330128924 -0.26591 -0.253352
1333003057 -0.272401 -0.252358
1335877190 -0.276426 -0.25783
1338751323 -0.285923 -0.266406
1341625456 -0.292347 -0.270009
1344499589 -0.300351 -0.26896
1347373722 -0.307094 -0.275833
1350247855 -0.322874 -0.27831
1353121988 -0.338144 -0.282731
1355996121 -0.348064 -0.286584
1358870254 -0.361345 -0.292304
1361744387 -0.378666 -0.293923
1364618520 -0.39212 -0.290297
1367492653 -0.399661 -0.289654
1370366786 -0.411566 -0.283855
1373240919 -0.420672 -0.277579
1376115052 -0.43008 -0.270431
1378989185 -0.444722 -0.26501
1381863318 -0.452751 -0.267152
1384737451 -0.46414 -0.267351
1387611584 -0.480839 -0.263509
1390485717 -0.489537 -0.257052
1393359850 -0.498879 -0.252772
1396233983 -0.507978 -0.248979
1399108116 -0.520025 -0.237484
1401982249 -0.523625 -0.228542
1404856382 -0.526559 -0.220029
1407730515 -0.54228 -0.21439
1410604648 -0.553443 -0.203497
1413478781 -0.569631 -0.196273
1416352914 -0.57493 -0.189638
1419227047 -0.583726 -0.18694
1422101180 -0.587856 -0.182576
1424975313 -0.594434 -0.172964
1427849446 -0.598031 -0.167995
1430723579 -0.597719 -0.155088
1433597712 -0.597914 -0.146918
1436471845 -0.608599 -0.139869
1439345978 -0.620724 -0.136597
1442220111 -0.632327 -0.125607
1445094244 -0.636366 -0.112835
1447968377 -0.641519 -0.111295
1450842510 -0.641659 -0.100419
1453716643 -0.645347 -0.093103
1456590776 -0.659592 -0.094141
1459464909 -0.640833 -0.074391
1462339042 -0.637495 -0.068697
1465213175 -0.646275 -0.061441
1468087308 -0.655384 -0.056434
1470961441 -0.663662 -0.042477
1473835574 -0.668468 -0.030661
1476709707 -0.671842 -0.022055
1479583840 -0.669571 -0.018294
1482457973 -0.672574 -0.011693
1485332106 -0.674786 -0.004012
1488206239 -0.670998 0.009189
1491080372 -0.665876 0.017178
1493954505 -0.670111 0.02436
1496828638 -0.678795 0.036114
1499702771 -0.685081 0.041037
1502576904 -0.688507 0.053862
1505451037 -0.686731 0.067738
1508325170 -0.687102 0.073569
1511199303 -0.684822 0.078989
1514073436 -0.685135 0.092029
1516947569 -0.676342 0.093055
1519821702 -0.674231 0.095905
1522695835 -0.677008 0.10679
1525569968 -0.683056 0.113116
1528444101 -0.68832 0.12052
1531318234 -0.690063 0.1316
1534192367 -0.68973 0.140753
1537066500 -0.692863 0.155652
1539940633 -0.689532 0.155341
1542814766 -0.687212 0.161875
1545688899 -0.686244 0.170393
1548563032 -0.681297 0.178194
1551437165 -0.682809 0.194869
1554311298 -0.682918 0.200407
1557185431 -0.686037 0.206799
1560059564 -0.682074 0.221199
1562933697 -0.681666 0.225354
1565807830 -0.67924 0.23978
1568681963 -0.679256 0.241693
1571556096 -0.669724 0.251668
1574430229 -0.66345 0.256046
1577304362 -0.655494 0.26407
1580178495 -0.658627 0.272657
1583052628 -0.658682 0.283841
1585926761 -0.666496 0.286976
1588800894 -0.666862 0.300921
1591675027 -0.663923 0.311929
1594549160 -0.664767 0.316127
1597423293 -0.652715 0.327733
1600297426 -0.64796 0.332292
1603171559 -0.638936 0.33706
1606045692 -0.626474 0.332451
1608919825 -0.62211 0.341089
1611793958 -0.626594 0.34521
1614668091 -0.629492 0.361707
1617542224 -0.629413 0.36841
1620416357 -0.628198 0.375265
1623290490 -0.628631 0.378717
1626164623 -0.620828 0.383406
1629038756 -0.612087 0.393411
1631912889 -0.603437 0.394011
1634787022 -0.593322 0.393338
1637661155 -0.586952 0.395838
1640535288 -0.590569 0.408879
1643409421 -0.595653 0.414838
1646283554 -0.59266 0.423865
1649157687 -0.59214 0.429338
1652031820 -0.59302 0.433799
1654905953 -0.584847 0.441449
1657780086 -0.574365 0.446985
1660654219 -0.571771 0.448012
1663528352 -0.560694 0.450966
1666402485 -0.554395 0.449512
1669276618 -0.557354 0.4578
1672150751 -0.555583 0.467655
1675024884 -0.558534 0.473034
1677899017 -0.554541 0.483603
1680773150 -0.55543 0.485646
1683647283 -0.552299 0.492742
1686521416 -0.545635 0.499837
1689395549 -0.538797 0.499924
1692269682 -0.527942 0.499381
1695143815 -0.501434 0.507008
1698017948 -0.514755 0.51273
1700892081 -0.513631 0.52411
1703766214 -0.512782 0.53031
1706640347 -0.511014 0.531476
1709514480 -0.507118 0.537572
1712388613 -0.506044 0.540119
1715262746 -0.49778 0.542766
1718136879 -0.482135 0.550183
1721011012 -0.492427 0.540141
1723885145 -0.48188 0.537051
1726759278 -0.479287 0.553358
1729633411 -0.479422 0.56057
1732507544 -0.478136 0.565722
1735381677 -0.474313 0.574322
1738255810 -0.470785 0.575333
1741129943 -0.466307 0.583146
1744004076 -0.464409 0.585576
1746878209 -0.456113 0.587619
1749752342 -0.447439 0.588406
1752626475 -0.438396 0.585033
1755500608 -0.42959 0.595895
1758374741 -0.428316 0.605166
1761248874 -0.425187 0.616683
1764123007 -0.423736 0.617309
1766997140 -0.424121 0.619792
1769871273 -0.422079 0.625243
1772745406 -0.415614 0.633087
1775619539 -0.414411 0.631687
1778493672 -0.410937 0.635282
1781367805 -0.401349 0.633482
1784241938 -0.392584 0.642851
1787116071 -0.393278 0.650975
1789990204 -0.385406 0.658917
1792864337 -0.383657 0.666159
1795738470 -0.372444 0.669973
1798612603 -0.374045 0.68022
1801486736 -0.367927 0.677014
1804360869 -0.353201 0.681395
1807235002 -0.343233 0.686651
1810109135 -0.338122 0.683045
1812983268 -0.327843 0.684904
1815857401 -0.323472 0.693692
1818731534 -0.311829 0.701552
1821605667 -0.312217 0.700048
1824479800 -0.26873 0.719804
1827353933 -0.29834 0.71302
1830228066 -0.297839 0.712311
1833102199 -0.297793 0.714444
1835976332 -0.288714 0.718371
1838850465 -0.279601 0.714558
1841724598 -0.274493 0.719778
1844598731 -0.266953 0.731421
1847472864 -0.256826 0.741939
1850346997 -0.251435 0.74488
1853221130 -0.256856 0.745608
1856095263 -0.230316 0.754978
1858969396 -0.23503 0.756829
1861843529 -0.272296 0.752957
1864717662 -0.226469 0.752303
1867591795 -0.208917 0.756356
1870465928 -0.210594 0.754687
1873340061 -0.20007 0.767912
1876214194 -0.191975 0.770593
1879088327 -0.194 0.763553
1881962460 -0.1783 0.78065
1884836593 -0.163845 0.786265
1887710726 -0.156081 0.783812
1890584859 -0.15352 0.777953
1893458992 -0.140832 0.775298
1896333125 -0.131495 0.766248
1899207258 -0.122609 0.765448
1902081391 -0.125807 0.771123
1904955524 -0.115856 0.77752
1907829657 -0.108503 0.78765
1910703790 -0.114251 0.785836
1913577923 -0.099722 0.792019
1916452056 -0.095867 0.790816
1919326189 -0.084062 0.790866
1922200322 -0.079121 0.790558
1925074455 -0.070049 0.784347
1927948588 -0.056094 0.785075
1930822721 -0.053786 0.794866
1933696854 -0.047461 0.792929
1936570987 -0.034871 0.803463
1939445120 -0.031207 0.801835
1942319253 -0.031168 0.798494
1945193386 -0.019467 0.797242
1948067519 -0.014299 0.794052
1950941652 -0.012177 0.786246
1953815785 -0.008201 0.781701
1956689918 0.004967 0.777957
1959564051 0.01062 0.787806
1962438184 0.01906 0.791339
1965312317 0.031654 0.796253
1968186450 0.031297 0.800555
1971060583 0.039143 0.799358
1973934716 0.045021 0.799711
1976808849 0.051775 0.798713
1979682982 0.053933 0.794003
1982557115 0.065637 0.79175
1985431248 0.068499 0.786484
1988305381 0.081658 0.795488
1991179514 0.082549 0.799982
1994053647 0.095932 0.802496
1996927780 0.105511 0.800567
1999801913 0.113122 0.801113
2002676046 0.113913 0.799172
2005550179 0.120899 0.795162
2008424312 0.12357 0.789658
2011298445 0.127932 0.784209
2014172578 0.133812 0.776969
2017046711 0.145785 0.780429
2019920844 0.148188 0.783837
2022794977 0.157977 0.788851
2025669110 0.167011 0.791047
2028543243 0.175247 0.791086
2031417376 0.182573 0.789513
