# HZ S RI R 50
100000000 0.902851 -0.356675
129000000 0.9555 -0.315958
158000000 0.928855 -0.384757
187000000 0.897007 -0.453943
216000000 0.864301 -0.515383
245000000 0.824915 -0.577715
274000000 0.782646 -0.636547
303000000 0.7295 -0.695528
332000000 0.678095 -0.7459
361000000 0.620656 -0.796814
390000000 0.556792 -0.846038
419000000 0.491803 -0.883979
448000000 0.426089 -0.909114
477000000 0.353176 -0.945328
506000000 0.272947 -0.972522
535000000 0.199774 -0.987466
564000000 0.113685 -1.004152
593000000 0.034166 -1.00949
622000000 -0.049656 -1.009237
651000000 -0.141779 -1.001658
680000000 -0.223617 -0.987781
709000000 -0.315319 -0.959695
738000000 -0.417321 -0.920616
767000000 -0.504072 -0.87453
796000000 -0.583376 -0.810155
825000000 -0.677263 -0.73684
854000000 -0.760431 -0.649634
883000000 -0.831737 -0.522876
912000000 -0.871401 -0.368063
941000000 -0.857398 -0.198945
970000000 -0.769722 -0.063697
999000000 -0.677898 -0.00408
1028000000 -0.623409 0.037222
1057000000 -0.603956 0.100101
1086000000 -0.493793 0.164098
1115000000 -0.398865 0.184375
1144000000 -0.322541 0.144545
1173000000 -0.293997 0.11799
1202000000 -0.275016 0.136258
1231000000 -0.206307 0.118834
1260000000 -0.169952 0.09887
1289000000 -0.120948 0.072636
1318000000 -0.084563 0.004547
1347000000 -0.12207 -0.079951
1376000000 -0.182725 -0.107363
1405000000 -0.236515 -0.076126
1434000000 -0.258161 -0.04055
1463000000 -0.236784 -0.00958
1492000000 -0.207259 0.00545
1521000000 -0.176231 -0.009085
1550000000 -0.172905 -0.035552
1579000000 -0.18653 -0.063336
1608000000 -0.222253 -0.078988
1637000000 -0.251515 -0.085603
1666000000 -0.264641 -0.067147
1695000000 -0.267565 -0.043017
1724000000 -0.271963 -0.036357
1753000000 -0.272388 -0.034403
1782000000 -0.290942 -0.03974
1811000000 -0.313228 -0.041275
1840000000 -0.344241 -0.028546
1869000000 -0.370412 -0.008922
1898000000 -0.385224 0.023103
1927000000 -0.394724 0.047508
1956000000 -0.39987 0.078018
1985000000 -0.395624 0.102908
2014000000 -0.39906 0.115099
2043000000 -0.41019 0.124011
2072000000 -0.44383 0.140504
2101000000 -0.477509 0.202309
2130000000 -0.46887 0.244435
2159000000 -0.461956 0.323063
2188000000 -0.427097 0.374894
2217000000 -0.410562 0.389994
2246000000 -0.383143 0.434286
2275000000 -0.366991 0.465995
2304000000 -0.331345 0.506142
2333000000 -0.28952 0.525783
2362000000 -0.256534 0.553266
2391000000 -0.229586 0.568837
2420000000 -0.218435 0.593482
2449000000 -0.186807 0.627075
2478000000 -0.157916 0.663543
2507000000 -0.115892 0.675512
2536000000 -0.061593 0.725384
2565000000 -0.003014 0.757148
2594000000 0.072466 0.793307
2623000000 0.17308 0.81516
2652000000 0.242424 0.806785
2681000000 0.352598 0.778925
2710000000 0.460255 0.728153
2739000000 0.556538 0.659158
2768000000 0.604144 0.532554
2797000000 0.56157 0.465402
2826000000 0.574653 0.427861
2855000000 0.5475 0.399933
2884000000 0.61009 0.398173
2913000000 0.641072 0.352152
2942000000 0.674788 0.271242
2971000000 0.667233 0.229076
3000000000 0.670219 0.169213
