# HZ S RI R 50
100000000 0.957654 -0.282451
102874133 0.970718 -0.274518
105748266 0.97112 -0.283253
108622399 0.975135 -0.291299
111496532 0.973824 -0.298758
114370665 0.970774 -0.303546
117244798 0.967941 -0.312552
120118931 0.963888 -0.315626
122993064 0.960393 -0.321777
125867197 0.948871 -0.322844
128741330 0.942131 -0.3318
131615463 0.946572 -0.338524
134489596 0.95354 -0.351541
137363729 0.936098 -0.364791
140237862 0.93836 -0.372043
143111995 0.890311 -0.443676
145986128 0.935072 -0.383407
148860261 0.93178 -0.392738
151734394 0.928317 -0.395839
154608527 0.918918 -0.399505
157482660 0.911849 -0.404739
160356793 0.910666 -0.41358
163230926 0.912513 -0.42565
166105059 0.91196 -0.433938
168979192 0.910318 -0.442636
171853325 0.905482 -0.452946
174727458 0.900632 -0.45746
177601591 0.893709 -0.465037
180475724 0.885351 -0.472401
183349857 0.875364 -0.477297
186223990 0.86208 -0.484297
189098123 0.862923 -0.493297
191972256 0.868234 -0.501801
194846389 0.872689 -0.511989
197720522 0.872104 -0.519312
200594655 0.872664 -0.525069
203468788 0.870113 -0.530075
206342921 0.865462 -0.534154
209217054 0.859654 -0.538056
212091187 0.851817 -0.543333
214965320 0.840329 -0.544348
217839453 0.838401 -0.553083
220713586 0.843147 -0.564894
223587719 0.845573 -0.572786
226461852 0.84406 -0.581085
229335985 0.842302 -0.588452
232210118 0.837817 -0.593113
235084251 0.831524 -0.598647
237958384 0.822274 -0.601168
240832517 0.81398 -0.604316
243706650 0.801129 -0.607491
246580783 0.797433 -0.616094
249454916 0.797753 -0.627584
252329049 0.798764 -0.639121
255203182 0.798227 -0.645377
258077315 0.795362 -0.653887
260951448 0.790911 -0.659285
263825581 0.783677 -0.665877
266699714 0.774978 -0.667931
269573847 0.764494 -0.668617
272447980 0.751422 -0.671635
275322113 0.745926 -0.677244
278196246 0.746956 -0.69054
281070379 0.74835 -0.700217
283944512 0.745877 -0.708702
286818645 0.744853 -0.715541
289692778 0.74196 -0.719906
292566911 0.735271 -0.722087
295441044 0.727172 -0.72465
298315177 0.717176 -0.724477
301189310 0.707425 -0.724404
304063443 0.69573 -0.727703
306937576 0.693291 -0.740532
309811709 0.692755 -0.752934
312685842 0.68784 -0.76098
315559975 0.684053 -0.768482
318434108 0.674319 -0.775187
321308241 0.667188 -0.779293
324182374 0.656262 -0.782231
327056507 0.64784 -0.784113
329930640 0.631956 -0.782407
332804773 0.624956 -0.787193
335678906 0.62094 -0.801242
338553039 0.618035 -0.809146
341427172 0.61344 -0.818811
344301305 0.60772 -0.82513
347175438 0.60552 -0.828126
350049571 0.594585 -0.83416
352923704 0.584952 -0.835468
355797837 0.575627 -0.836168
358671970 0.564304 -0.834164
361546103 0.554268 -0.835997
364420236 0.550565 -0.846879
367294369 0.54613 -0.858754
370168502 0.538089 -0.867005
373042635 0.531733 -0.874985
375916768 0.527717 -0.880497
378790901 0.519283 -0.883869
381665034 0.513263 -0.88378
384539167 0.500812 -0.886269
387413300 0.490472 -0.884831
390287433 0.47824 -0.883234
393161566 0.474465 -0.89298
396035699 0.470842 -0.90268
398909832 0.465421 -0.911189
401783965 0.456506 -0.913964
404658098 0.429846 -0.922777
407532231 0.442832 -0.922162
410406364 0.435938 -0.920591
413280497 0.425479 -0.920505
416154630 0.412656 -0.916442
419028763 0.396909 -0.911836
421902896 0.394064 -0.925423
424777029 0.390845 -0.932577
427651162 0.384887 -0.939728
430525295 0.378347 -0.950541
433399428 0.366364 -0.952419
436273561 0.356874 -0.95479
439147694 0.346597 -0.954007
442021827 0.338802 -0.957801
444895960 0.326155 -0.953431
447770093 0.315748 -0.94821
450644226 0.307554 -0.956298
453518359 0.301806 -0.965597
456392492 0.297204 -0.973952
459266625 0.285994 -0.973627
462140758 0.28056 -0.977573
465014891 0.271494 -0.976526
467889024 0.262161 -0.975667
470763157 0.252811 -0.971842
473637290 0.240042 -0.96446
476511423 0.227814 -0.956592
479385556 0.21792 -0.965286
482259689 0.21052 -0.971921
485133822 0.20404 -0.978475
488007955 0.195262 -0.984464
490882088 0.183262 -0.987248
493756221 0.176119 -0.987276
496630354 0.166472 -0.983347
499504487 0.157063 -0.980087
502378620 0.146686 -0.975209
505252753 0.134488 -0.966301
508126886 0.124095 -0.972581
511001019 0.114943 -0.979283
513875152 0.103901 -0.98612
516749285 0.094641 -0.988841
519623418 0.082864 -0.991827
522497551 0.071688 -0.992027
525371684 0.061334 -0.988247
528245817 0.051631 -0.98546
531119950 0.039502 -0.976828
533994083 0.028515 -0.970441
536868216 0.015001 -0.974631
539742349 0.006724 -0.979902
542616482 -0.0089 -0.987916
545490615 -0.019187 -0.989909
548364748 -0.027804 -0.989821
551238881 -0.036698 -0.989106
554113014 -0.048819 -0.992208
556987147 -0.059576 -0.98368
559861280 -0.07116 -0.977847
562735413 -0.078792 -0.967721
565609546 -0.093964 -0.970219
568483679 -0.104761 -0.97565
571357812 -0.115286 -0.982076
574231945 -0.125909 -0.986943
577106078 -0.139334 -0.983337
579980211 -0.147227 -0.984286
582854344 -0.15544 -0.981821
585728477 -0.166193 -0.978529
588602610 -0.17455 -0.970788
591476743 -0.181799 -0.962557
594350876 -0.198296 -0.95853
597225009 -0.213651 -0.964194
600099142 -0.225333 -0.968336
602973275 -0.237632 -0.970725
605847408 -0.248929 -0.972359
608721541 -0.259173 -0.969691
611595674 -0.269444 -0.967533
614469807 -0.28025 -0.960426
617343940 -0.290138 -0.956081
620218073 -0.297465 -0.944244
623092206 -0.314764 -0.939118
625966339 -0.331067 -0.942282
628840472 -0.347657 -0.948842
631714605 -0.361525 -0.944698
634588738 -0.377917 -0.942649
637462871 -0.392352 -0.940885
640337004 -0.401722 -0.936882
643211137 -0.418025 -0.92447
646085270 -0.430427 -0.916528
648959403 -0.437857 -0.902496
651833536 -0.454182 -0.893417
654707669 -0.471344 -0.893381
657581802 -0.482755 -0.889605
660455935 -0.501101 -0.888773
663330068 -0.516575 -0.878448
666204201 -0.533997 -0.872256
669078334 -0.540882 -0.860722
671952467 -0.55334 -0.845111
674826600 -0.567692 -0.832664
677700733 -0.575703 -0.812278
680574866 -0.587818 -0.798371
683448999 -0.60618 -0.794104
686323132 -0.657948 -0.724611
689197265 -0.641898 -0.780529
692071398 -0.658367 -0.771461
694945531 -0.672378 -0.759934
697819664 -0.683334 -0.746002
700693797 -0.695078 -0.732061
703567930 -0.704222 -0.714298
706442063 -0.714336 -0.694401
709316196 -0.724889 -0.67238
712190329 -0.74644 -0.664169
715064462 -0.76651 -0.643827
717938595 -0.783349 -0.632638
720812728 -0.800066 -0.61029
723686861 -0.813272 -0.597025
726560994 -0.827089 -0.573014
729435127 -0.836334 -0.552074
732309260 -0.842898 -0.52759
735183393 -0.8536 -0.50137
738057526 -0.858111 -0.468761
740931659 -0.877086 -0.451745
743805792 -0.896388 -0.429477
746679925 -0.909109 -0.405075
749554058 -0.923818 -0.379168
752428191 -0.932445 -0.35396
755302324 -0.940327 -0.322946
758176457 -0.943195 -0.295079
761050590 -0.946122 -0.262992
763924723 -0.943458 -0.237051
766798856 -0.940358 -0.203066
769672989 -0.954349 -0.170808
772547122 -0.960825 -0.135205
775421255 -0.970805 -0.100184
778295388 -0.97477 -0.065824
781169521 -0.97368 -0.026913
784043654 -0.96968 0.008275
786917787 -0.96014 0.046574
789791920 -0.948468 0.080658
792666053 -0.933318 0.11674
795540186 -0.918116 0.156037
798414319 -0.91251 0.195659
801288452 -0.902306 0.239984
804162585 -0.894093 0.278657
807036718 -0.879846 0.317693
809910851 -0.861809 0.357625
812784984 -0.84129 0.400838
815659117 -0.814557 0.433612
818533250 -0.778527 0.477022
821407383 -0.745067 0.517156
824281516 -0.697267 0.547774
827155649 -0.656509 0.583794
830029782 -0.6237 0.616161
832903915 -0.58991 0.653626
835778048 -0.545713 0.687055
838652181 -0.497938 0.719807
841526314 -0.444297 0.745892
844400447 -0.388604 0.766926
847274580 -0.312305 0.784119
850148713 -0.265922 0.786563
853022846 -0.218927 0.796408
855896979 -0.133948 0.803394
858771112 -0.059586 0.801496
861645245 -0.009782 0.792628
864519378 0.025243 0.791869
867393511 0.108335 0.782065
870267644 0.181235 0.760531
873141777 0.237047 0.734063
876015910 0.295382 0.696702
878890043 0.3528 0.643551
881764176 0.384858 0.595285
884638309 0.428122 0.557219
887512442 0.469871 0.512055
890386575 0.504203 0.471601
893260708 0.539227 0.431757
896134841 0.560631 0.383238
899008974 0.590149 0.335908
901883107 0.608408 0.288315
904757240 0.625302 0.243736
907631373 0.641342 0.184378
910505506 0.644076 0.122451
913379639 0.639516 0.070912
916253772 0.638931 0.028327
919127905 0.632072 -0.016389
922002038 0.627681 -0.05134
924876171 0.617264 -0.087831
927750304 0.608889 -0.122633
930624437 0.592858 -0.158314
933498570 0.579014 -0.184932
936372703 0.566272 -0.218243
939246836 0.540462 -0.250452
942120969 0.518122 -0.279008
944995102 0.491637 -0.300335
947869235 0.477938 -0.307144
950743368 0.47329 -0.323825
953617501 0.464518 -0.336877
956491634 0.461787 -0.365085
959365767 0.441375 -0.395503
962239900 0.40854 -0.415206
965114033 0.370554 -0.419476
967988166 0.348982 -0.411567
970862299 0.342558 -0.413925
973736432 0.322355 -0.429691
976610565 0.300007 -0.429333
979484698 0.284108 -0.421713
982358831 0.28704 -0.42123
985232964 0.287444 -0.424845
988107097 0.276459 -0.434944
990981230 0.265743 -0.439371
993855363 0.255606 -0.441987
996729496 0.238621 -0.450875
999603629 0.221417 -0.450664
1002477762 0.199866 -0.452795
1005351895 0.180594 -0.44072
1008226028 0.183543 -0.423646
1011100161 0.183751 -0.426968
1013974294 0.182016 -0.419258
1016848427 0.179916 -0.420144
1019722560 0.177495 -0.415618
1022596693 0.181085 -0.411371
1025470826 0.174051 -0.402376
1028344959 0.193022 -0.402698
1031219092 0.198556 -0.423777
1034093225 0.197064 -0.444159
1036967358 0.187695 -0.457419
1039841491 0.18439 -0.460744
1042715624 0.181176 -0.474852
1045589757 0.166279 -0.473794
1048463890 0.160185 -0.470545
1051338023 0.162081 -0.469048
1054212156 0.15532 -0.470728
1057086289 0.15661 -0.461351
1059960422 0.164554 -0.476676
1062834555 0.159891 -0.50007
1065708688 0.140468 -0.502676
1068582821 0.138283 -0.501091
1071456954 0.136762 -0.507566
1074331087 0.135318 -0.513165
1077205220 0.124395 -0.524698
1080079353 0.115663 -0.518296
1082953486 0.112136 -0.524605
1085827619 0.093396 -0.520795
1088701752 0.090773 -0.520102
1091575885 0.095018 -0.52688
1094450018 0.096163 -0.536604
1097324151 0.096366 -0.555018
1100198284 0.086708 -0.573627
1103072417 0.055166 -0.577417
1105946550 0.035922 -0.565171
1108820683 0.033501 -0.538012
1111694816 0.044635 -0.531276
1114568949 0.055043 -0.536971
1117443082 0.046819 -0.548913
1120317215 0.049199 -0.561674
1123191348 0.032774 -0.580113
1126065481 0.017533 -0.576387
1128939614 0.011907 -0.571299
1131813747 0.014133 -0.567434
1134687880 0.018824 -0.576698
1137562013 0.0049 -0.576697
1140436146 0.001063 -0.568576
1143310279 0.000524 -0.566387
1146184412 0.002248 -0.566742
1149058545 0.005793 -0.577413
1151932678 0.005249 -0.58542
1154806811 0.006953 -0.603222
1157680944 -0.000829 -0.610115
1160555077 -0.006657 -0.619548
1163429210 -0.015168 -0.626501
1166303343 -0.018107 -0.628842
1169177476 -0.024592 -0.628727
1172051609 -0.031653 -0.632524
1174925742 -0.045936 -0.64879
1177799875 -0.064211 -0.662823
1180674008 -0.087175 -0.671056
1183548141 -0.105983 -0.669627
1186422274 -0.122822 -0.658789
1189296407 -0.131244 -0.650282
1192170540 -0.132768 -0.655231
1195044673 -0.148089 -0.647038
1197918806 -0.163169 -0.644574
1200792939 -0.164924 -0.632938
1203667072 -0.177483 -0.622375
1206541205 -0.174376 -0.623802
1209415338 -0.182647 -0.633035
1212289471 -0.191413 -0.640912
1215163604 -0.219981 -0.63557
1218037737 -0.225307 -0.629209
1220911870 -0.231102 -0.610879
1223786003 -0.231044 -0.599082
1226660136 -0.23348 -0.592727
1229534269 -0.233767 -0.586451
1232408402 -0.262934 -0.573997
1235282535 -0.258014 -0.573063
1238156668 -0.244303 -0.569156
1241030801 -0.247592 -0.565715
1243904934 -0.258775 -0.565812
1246779067 -0.253485 -0.575953
1249653200 -0.246622 -0.579652
1252527333 -0.269146 -0.564817
1255401466 -0.277804 -0.545978
1258275599 -0.2581 -0.55268
1261149732 -0.267457 -0.56229
1264023865 -0.287898 -0.564349
1266897998 -0.296158 -0.546586
1269772131 -0.289578 -0.548099
1272646264 -0.28939 -0.55292
1275520397 -0.293312 -0.558141
1278394530 -0.297508 -0.559484
1281268663 -0.304725 -0.559603
1284142796 -0.309674 -0.549222
1287016929 -0.301105 -0.542997
1289891062 -0.303554 -0.547319
1292765195 -0.313553 -0.568789
1295639328 -0.33667 -0.575306
1298513461 -0.35823 -0.569594
1301387594 -0.359277 -0.556809
1304261727 -0.350364 -0.550458
1307135860 -0.343834 -0.554474
1310009993 -0.350788 -0.564556
1312884126 -0.358419 -0.56534
1315758259 -0.367781 -0.559091
1318632392 -0.374934 -0.547053
1321506525 -0.378422 -0.551758
1324380658 -0.38584 -0.559136
1327254791 -0.397656 -0.55888
1330128924 -0.403827 -0.56537
1333003057 -0.412533 -0.567401
1335877190 -0.427708 -0.556374
1338751323 -0.428537 -0.538682
1341625456 -0.426844 -0.532894
1344499589 -0.428415 -0.529152
1347373722 -0.42962 -0.524677
1350247855 -0.445019 -0.522266
1353121988 -0.459739 -0.515976
1355996121 -0.461963 -0.509861
1358870254 -0.463921 -0.506617
1361744387 -0.469842 -0.510158
1364618520 -0.477699 -0.506069
1367492653 -0.484741 -0.486902
1370366786 -0.480049 -0.475451
1373240919 -0.475928 -0.469253
1376115052 -0.482379 -0.457327
1378989185 -0.496806 -0.453085
1381863318 -0.500882 -0.447346
1384737451 -0.50139 -0.44796
1387611584 -0.506652 -0.445602
1390485717 -0.511583 -0.448384
1393359850 -0.523088 -0.437015
1396233983 -0.524754 -0.420778
1399108116 -0.509484 -0.414845
1401982249 -0.511571 -0.415097
1404856382 -0.527018 -0.400719
1407730515 -0.527882 -0.386043
1410604648 -0.521613 -0.377452
1413478781 -0.524799 -0.379956
1416352914 -0.534159 -0.370848
1419227047 -0.5301 -0.36289
1422101180 -0.528584 -0.357166
1424975313 -0.524231 -0.354159
1427849446 -0.522173 -0.360382
1430723579 -0.528241 -0.352751
1433597712 -0.534306 -0.341884
1436471845 -0.540357 -0.326821
1439345978 -0.534081 -0.317255
1442220111 -0.530702 -0.319044
1445094244 -0.531458 -0.320493
1447968377 -0.533649 -0.313284
1450842510 -0.526737 -0.308675
1453716643 -0.520972 -0.309126
1456590776 -0.518974 -0.310608
1459464909 -0.516198 -0.302539
1462339042 -0.510486 -0.301528
1465213175 -0.511164 -0.299228
1468087308 -0.520468 -0.296235
1470961441 -0.521199 -0.286583
1473835574 -0.514575 -0.290148
1476709707 -0.519235 -0.305192
1479583840 -0.534857 -0.299164
1482457973 -0.533249 -0.285492
1485332106 -0.523051 -0.273143
1488206239 -0.514168 -0.277655
1491080372 -0.513603 -0.272246
1493954505 -0.510149 -0.274907
1496828638 -0.515491 -0.273281
1499702771 -0.516816 -0.276404
1502576904 -0.519322 -0.284996
1505451037 -0.527052 -0.292591
1508325170 -0.535358 -0.27786
1511199303 -0.53756 -0.274512
1514073436 -0.52676 -0.265074
1516947569 -0.520033 -0.271154
1519821702 -0.517363 -0.272436
1522695835 -0.519872 -0.261675
1525569968 -0.523281 -0.262654
1528444101 -0.526811 -0.264318
1531318234 -0.527288 -0.266559
1534192367 -0.526816 -0.27444
1537066500 -0.535489 -0.27199
1539940633 -0.542028 -0.269998
1542814766 -0.541584 -0.268235
1545688899 -0.547689 -0.257837
1548563032 -0.547528 -0.24873
1551437165 -0.549041 -0.243249
1554311298 -0.539132 -0.237089
1557185431 -0.538845 -0.248202
1560059564 -0.54723 -0.245577
1562933697 -0.547121 -0.252527
1565807830 -0.552126 -0.252569
1568681963 -0.557976 -0.25719
1571556096 -0.567453 -0.251757
1574430229 -0.577972 -0.245413
1577304362 -0.575732 -0.226215
1580178495 -0.57535 -0.217741
1583052628 -0.573876 -0.213592
1585926761 -0.57707 -0.213685
1588800894 -0.580099 -0.214621
1591675027 -0.585983 -0.204395
1594549160 -0.57995 -0.208216
1597423293 -0.583627 -0.208235
1600297426 -0.585707 -0.212416
1603171559 -0.595315 -0.202712
1606045692 -0.599562 -0.192827
1608919825 -0.597237 -0.182962
1611793958 -0.606197 -0.183236
1614668091 -0.612577 -0.173321
1617542224 -0.612917 -0.167739
1620416357 -0.612913 -0.16147
1623290490 -0.614448 -0.165491
1626164623 -0.615581 -0.163463
1629038756 -0.621487 -0.15768
1631912889 -0.615365 -0.14852
1634787022 -0.610523 -0.148428
1637661155 -0.616386 -0.137153
1640535288 -0.621544 -0.123505
1643409421 -0.619002 -0.119285
1646283554 -0.619082 -0.125107
1649157687 -0.625735 -0.125617
1652031820 -0.629735 -0.125582
1654905953 -0.635828 -0.116015
1657780086 -0.632348 -0.110991
1660654219 -0.626516 -0.098043
1663528352 -0.620717 -0.095228
1666402485 -0.622405 -0.089373
1669276618 -0.631638 -0.081311
1672150751 -0.633576 -0.068545
1675024884 -0.62253 -0.061611
1677899017 -0.618284 -0.072976
1680773150 -0.626072 -0.075003
1683647283 -0.629984 -0.07501
1686521416 -0.631663 -0.071746
1689395549 -0.629679 -0.060186
1692269682 -0.613937 -0.054847
1695143815 -0.614522 -0.058866
1698017948 -0.62926 -0.049259
1700892081 -0.629444 -0.036781
1703766214 -0.632044 -0.034306
1706640347 -0.625966 -0.025746
1709514480 -0.621055 -0.02279
1712388613 -0.618359 -0.026829
1715262746 -0.616012 -0.028559
1718136879 -0.617068 -0.026859
1721011012 -0.615199 -0.023662
1723885145 -0.61239 -0.020602
1726759278 -0.614014 -0.010373
1729633411 -0.609809 -0.009599
1732507544 -0.617163 -0.007452
1735381677 -0.615986 -0.002919
1738255810 -0.617085 -0.001619
1741129943 -0.61617 0.000189
1744004076 -0.620041 -0.002311
1746878209 -0.617537 0.006188
1749752342 -0.612152 0.013333
1752626475 -0.604273 0.018878
1755500608 -0.60408 0.01684
1758374741 -0.612208 0.024794
1761248874 -0.609857 0.032397
1764123007 -0.60485 0.021559
1766997140 -0.613895 0.016804
1769871273 -0.619357 0.019218
1772745406 -0.618304 0.021888
1775619539 -0.621391 0.028955
1778493672 -0.612008 0.033147
1781367805 -0.606362 0.028974
1784241938 -0.611758 0.037413
1787116071 -0.623112 0.035266
1789990204 -0.631023 0.055864
1792864337 -0.625591 0.061675
1795738470 -0.625345 0.067568
1798612603 -0.621808 0.070941
1801486736 -0.618541 0.069363
1804360869 -0.619604 0.074515
1807235002 -0.611987 0.079285
1810109135 -0.612476 0.072688
1812983268 -0.621699 0.07675
1815857401 -0.627 0.088221
1818731534 -0.633717 0.094485
1821605667 -0.637549 0.102768
1824479800 -0.637365 0.114293
1827353933 -0.62676 0.117064
1830228066 -0.624284 0.114822
1833102199 -0.624483 0.106564
1835976332 -0.628905 0.108644
1838850465 -0.627895 0.118856
1841724598 -0.620091 0.124704
1844598731 -0.627627 0.132867
1847472864 -0.627511 0.139252
1850346997 -0.635697 0.137077
1853221130 -0.634077 0.126661
1856095263 -0.632301 0.149477
1858969396 -0.630011 0.147805
1861843529 -0.624129 0.155952
1864717662 -0.613548 0.153365
1867591795 -0.610852 0.156307
1870465928 -0.614861 0.156593
1873340061 -0.620241 0.161854
1876214194 -0.630378 0.171545
1879088327 -0.630618 0.180673
1881962460 -0.624481 0.189171
1884836593 -0.625138 0.205099
1887710726 -0.618301 0.191249
1890584859 -0.61274 0.193723
1893458992 -0.604995 0.200686
1896333125 -0.603646 0.201179
1899207258 -0.608718 0.20712
1902081391 -0.599177 0.20862
1904955524 -0.608456 0.205714
1907829657 -0.609781 0.224559
1910703790 -0.613167 0.218037
1913577923 -0.610954 0.23128
1916452056 -0.601928 0.234033
1919326189 -0.594167 0.228381
1922200322 -0.58877 0.226703
1925074455 -0.584166 0.231302
1927948588 -0.575373 0.234694
1930822721 -0.575789 0.242113
1933696854 -0.582038 0.241357
1936570987 -0.586925 0.244332
1939445120 -0.590539 0.251638
1942319253 -0.584059 0.25809
1945193386 -0.583886 0.262558
1948067519 -0.573896 0.268865
1950941652 -0.563001 0.270575
1953815785 -0.552769 0.269295
1956689918 -0.543039 0.270004
1959564051 -0.549243 0.274061
1962438184 -0.553834 0.270824
1965312317 -0.558559 0.278554
1968186450 -0.56189 0.284201
1971060583 -0.55868 0.285923
1973934716 -0.554182 0.287711
1976808849 -0.549581 0.287723
1979682982 -0.539105 0.285476
1982557115 -0.53862 0.282069
1985431248 -0.537328 0.281089
1988305381 -0.540078 0.298128
1991179514 -0.539876 0.30405
1994053647 -0.531251 0.308104
1996927780 -0.529953 0.30152
1999801913 -0.531171 0.299527
2002676046 -0.539644 0.29554
2005550179 -0.534135 0.305917
2008424312 -0.525105 0.313074
2011298445 -0.521363 0.304842
2014172578 -0.516811 0.305699
2017046711 -0.516515 0.3129
2019920844 -0.514217 0.316224
2022794977 -0.518914 0.315303
2025669110 -0.518615 0.311095
2028543243 -0.527224 0.313505
