# HZ S RI R 50
100000000 0.971391 -0.245049
102874133 0.974861 -0.256686
105748266 0.978188 -0.267714
108622399 0.979608 -0.269634
111496532 0.981597 -0.276451
114370665 0.986489 -0.281721
117244798 0.980243 -0.288089
120118931 0.974617 -0.297608
122993064 0.969049 -0.297512
125867197 0.958622 -0.300897
128741330 0.949845 -0.311129
131615463 0.95183 -0.320213
134489596 0.958911 -0.327854
137363729 0.945698 -0.341484
140237862 0.946184 -0.347188
143111995 0.908464 -0.397754
145986128 0.947621 -0.359243
148860261 0.943207 -0.364776
151734394 0.936878 -0.367325
154608527 0.931932 -0.371975
157482660 0.924996 -0.376721
160356793 0.924713 -0.384142
163230926 0.925622 -0.395616
166105059 0.926577 -0.403829
168979192 0.923491 -0.413173
171853325 0.922752 -0.419313
174727458 0.91734 -0.426974
177601591 0.911668 -0.433067
180475724 0.90199 -0.439861
183349857 0.891492 -0.444815
186223990 0.880466 -0.453152
189098123 0.881522 -0.460739
191972256 0.886808 -0.47103
194846389 0.890954 -0.477916
197720522 0.89337 -0.48533
200594655 0.892185 -0.490563
203468788 0.890799 -0.494568
206342921 0.888047 -0.498097
209217054 0.879888 -0.503751
212091187 0.873533 -0.50453
214965320 0.863771 -0.506552
217839453 0.862192 -0.515845
220713586 0.868677 -0.526058
223587719 0.870226 -0.533515
226461852 0.871001 -0.540487
229335985 0.867673 -0.547423
232210118 0.864707 -0.552104
235084251 0.858618 -0.55736
237958384 0.851669 -0.559462
240832517 0.84211 -0.563137
243706650 0.829937 -0.566041
246580783 0.82593 -0.573199
249454916 0.831053 -0.5844
252329049 0.832231 -0.595159
255203182 0.831466 -0.602137
258077315 0.83016 -0.608347
260951448 0.826498 -0.614907
263825581 0.819586 -0.617727
266699714 0.813052 -0.62092
269573847 0.803093 -0.623352
272447980 0.790595 -0.624407
275322113 0.783994 -0.630497
278196246 0.790943 -0.642716
281070379 0.789582 -0.650598
283944512 0.792232 -0.659402
286818645 0.79024 -0.665917
289692778 0.786862 -0.669651
292566911 0.781342 -0.672368
295441044 0.774075 -0.67349
298315177 0.768846 -0.673331
301189310 0.756221 -0.674166
304063443 0.74625 -0.677915
306937576 0.745159 -0.689802
309811709 0.745998 -0.701355
312685842 0.740555 -0.710458
315559975 0.736933 -0.716263
318434108 0.729368 -0.723461
321308241 0.722917 -0.727143
324182374 0.71491 -0.731011
327056507 0.70586 -0.732279
329930640 0.69278 -0.73454
332804773 0.682045 -0.737891
335678906 0.682794 -0.749181
338553039 0.681463 -0.759078
341427172 0.67881 -0.76768
344301305 0.674706 -0.774186
347175438 0.669438 -0.776388
350049571 0.663457 -0.781066
352923704 0.654404 -0.783532
355797837 0.64724 -0.782919
358671970 0.635885 -0.781845
361546103 0.626801 -0.782207
364420236 0.624198 -0.793994
367294369 0.624187 -0.805907
370168502 0.616723 -0.814903
373042635 0.613566 -0.822216
375916768 0.611449 -0.82683
378790901 0.602513 -0.829304
381665034 0.596262 -0.831416
384539167 0.587776 -0.832451
387413300 0.576595 -0.831528
390287433 0.567194 -0.832712
393161566 0.564118 -0.841476
396035699 0.562543 -0.851002
398909832 0.556465 -0.857044
401783965 0.554399 -0.863696
404658098 0.547137 -0.866564
407532231 0.543431 -0.867478
410406364 0.533529 -0.868549
413280497 0.523586 -0.864023
416154630 0.516327 -0.863803
419028763 0.50291 -0.86382
421902896 0.501428 -0.869731
424777029 0.497128 -0.881668
427651162 0.491398 -0.889359
430525295 0.502808 -0.889342
433399428 0.482347 -0.902457
436273561 0.45788 -0.914545
439147694 0.467949 -0.904643
442021827 0.47613 -0.897813
444895960 0.448269 -0.903109
447770093 0.420088 -0.90892
450644226 0.432625 -0.909474
453518359 0.448217 -0.910976
456392492 0.426079 -0.924223
459266625 0.419406 -0.929451
462140758 0.414068 -0.932836
465014891 0.407506 -0.930847
467889024 0.401076 -0.929576
470763157 0.389081 -0.927668
473637290 0.378515 -0.921925
476511423 0.367049 -0.915922
479385556 0.362992 -0.924817
482259689 0.360392 -0.932598
485133822 0.353087 -0.940617
488007955 0.346823 -0.945089
490882088 0.342806 -0.948195
493756221 0.336607 -0.948439
496630354 0.327756 -0.950985
499504487 0.316446 -0.94742
502378620 0.31095 -0.942749
505252753 0.296923 -0.938028
508126886 0.289441 -0.944281
511001019 0.284989 -0.952787
513875152 0.274416 -0.958338
516749285 0.26857 -0.966759
519623418 0.261065 -0.970551
522497551 0.251751 -0.970658
525371684 0.243527 -0.969874
528245817 0.232393 -0.969814
531119950 0.22436 -0.965056
533994083 0.210834 -0.956681
536868216 0.202686 -0.960069
539742349 0.192661 -0.971587
542616482 0.187668 -0.980137
545490615 0.178353 -0.982428
548364748 0.169073 -0.988862
551238881 0.162185 -0.986004
554113014 0.153675 -0.984214
556987147 0.147551 -0.974486
559861280 0.139373 -0.972439
562735413 0.136113 -0.964685
565609546 0.132037 -0.970249
568483679 0.124023 -0.981737
571357812 0.116245 -0.990952
574231945 0.107646 -0.998542
577106078 0.100647 -1.003157
579980211 0.092939 -1.001756
582854344 0.08588 -1.006852
585728477 0.075311 -1.001596
588602610 0.067797 -0.997731
591476743 0.05857 -0.989025
594350876 0.052643 -0.992368
597225009 0.042263 -0.996399
600099142 0.033348 -1.008188
602973275 0.025517 -1.011442
605847408 0.018542 -1.014838
608721541 0.011217 -1.01516
611595674 0.003298 -1.018983
614469807 -0.000726 -1.01425
617343940 -0.006433 -1.006953
620218073 -0.014068 -0.998766
623092206 -0.024855 -0.997727
625966339 -0.035304 -1.006734
628840472 -0.044378 -1.012818
631714605 -0.052861 -1.020353
634588738 -0.060446 -1.020293
637462871 -0.067218 -1.02708
640337004 -0.075412 -1.02471
643211137 -0.083007 -1.017985
646085270 -0.087994 -1.013671
648959403 -0.098348 -1.006578
651833536 -0.111138 -1.004399
654707669 -0.118275 -1.010061
657581802 -0.128669 -1.015101
660455935 -0.135287 -1.018755
663330068 -0.14577 -1.021089
666204201 -0.15394 -1.017648
669078334 -0.159324 -1.016675
671952467 -0.169617 -1.008198
674826600 -0.179043 -0.999294
677700733 -0.182895 -0.98833
680574866 -0.194659 -0.978445
683448999 -0.207001 -0.987395
686323132 -0.221184 -0.992301
689197265 -0.225414 -0.995474
692071398 -0.235676 -0.99474
694945531 -0.244693 -0.995509
697819664 -0.256133 -0.989518
700693797 -0.260168 -0.984413
703567930 -0.268825 -0.977611
706442063 -0.276015 -0.969159
709316196 -0.284711 -0.960814
712190329 -0.296811 -0.966886
715064462 -0.30873 -0.969248
717938595 -0.322098 -0.971435
720812728 -0.334092 -0.966184
723686861 -0.342245 -0.963812
726560994 -0.353012 -0.959357
729435127 -0.360714 -0.952257
732309260 -0.3696 -0.946577
735183393 -0.379844 -0.93113
738057526 -0.384775 -0.920393
740931659 -0.401352 -0.922003
743805792 -0.41528 -0.925213
746679925 -0.425551 -0.926448
749554058 -0.436385 -0.923446
752428191 -0.444265 -0.921301
755302324 -0.456278 -0.912727
758176457 -0.465231 -0.907709
761050590 -0.467612 -0.893538
763924723 -0.475118 -0.884373
766798856 -0.481352 -0.867215
769672989 -0.495883 -0.868099
772547122 -0.511828 -0.866772
775421255 -0.523111 -0.865717
778295388 -0.53744 -0.864617
781169521 -0.544905 -0.860268
784043654 -0.552197 -0.853435
786917787 -0.557099 -0.844715
789791920 -0.564777 -0.834269
792666053 -0.572077 -0.816958
795540186 -0.576299 -0.801822
798414319 -0.589143 -0.804021
801288452 -0.599987 -0.79943
804162585 -0.613872 -0.796942
807036718 -0.628143 -0.788383
809910851 -0.63231 -0.787084
812784984 -0.65533 -0.764562
815659117 -0.647385 -0.76521
818533250 -0.633361 -0.768331
821407383 -0.655033 -0.738333
824281516 -0.664177 -0.71186
827155649 -0.664514 -0.718504
830029782 -0.665451 -0.728719
832903915 -0.688092 -0.709839
835778048 -0.708045 -0.692694
838652181 -0.704692 -0.697097
841526314 -0.700607 -0.702137
844400447 -0.699265 -0.69206
847274580 -0.711908 -0.666978
850148713 -0.719511 -0.652216
853022846 -0.714596 -0.637313
855896979 -0.724594 -0.622968
858771112 -0.742037 -0.616389
861645245 -0.755442 -0.602723
864519378 -0.769009 -0.591322
867393511 -0.779464 -0.581905
870267644 -0.787436 -0.562539
873141777 -0.795295 -0.549954
876015910 -0.800198 -0.528681
878890043 -0.804073 -0.511508
881764176 -0.807953 -0.491697
884638309 -0.816073 -0.47838
887512442 -0.825523 -0.457174
890386575 -0.840256 -0.444102
893260708 -0.845529 -0.420686
896134841 -0.852931 -0.402783
899008974 -0.852844 -0.378084
901883107 -0.85875 -0.360388
904757240 -0.85694 -0.335293
907631373 -0.848928 -0.312258
910505506 -0.842524 -0.287032
913379639 -0.843154 -0.273182
916253772 -0.849878 -0.253598
919127905 -0.849247 -0.23257
922002038 -0.851286 -0.214123
924876171 -0.850158 -0.193735
927750304 -0.845701 -0.166704
930624437 -0.833962 -0.143964
933498570 -0.817803 -0.11642
936372703 -0.792113 -0.094239
939246836 -0.765103 -0.081642
942120969 -0.75411 -0.077673
944995102 -0.757145 -0.06681
947869235 -0.755058 -0.047947
950743368 -0.748246 -0.026224
953617501 -0.725819 -0.001137
956491634 -0.688239 0.012342
959365767 -0.660257 -0.000166
962239900 -0.650837 -0.009717
965114033 -0.647736 -0.003474
967988166 -0.628577 0.013723
970862299 -0.602904 0.015476
973736432 -0.597836 0.016994
976610565 -0.578396 0.031096
979484698 -0.584001 0.018029
982358831 -0.569833 0.022957
985232964 -0.551965 0.019768
988107097 -0.540522 0.015988
990981230 -0.529961 0.001784
993855363 -0.529229 -0.00177
996729496 -0.522709 0.008019
999603629 -0.505207 0.006374
1002477762 -0.499371 0.000958
1005351895 -0.505448 -0.003392
1008226028 -0.501618 -0.002479
1011100161 -0.505553 -0.019097
1013974294 -0.519922 -0.014175
1016848427 -0.534311 -0.007772
1019722560 -0.531364 0.013932
1022596693 -0.522354 0.025906
1025470826 -0.518522 0.041949
1028344959 -0.503158 0.055868
1031219092 -0.485039 0.061268
1034093225 -0.480856 0.06412
1036967358 -0.468209 0.064116
1039841491 -0.465368 0.054301
1042715624 -0.47933 0.049153
1045589757 -0.489954 0.067699
1048463890 -0.474713 0.097514
1051338023 -0.448143 0.099826
1054212156 -0.434506 0.097441
1057086289 -0.418607 0.106569
1059960422 -0.396806 0.101398
1062834555 -0.393367 0.09032
1065708688 -0.404942 0.086625
1068582821 -0.408269 0.096084
1071456954 -0.403197 0.111517
1074331087 -0.389195 0.118721
1077205220 -0.379687 0.117242
1080079353 -0.374213 0.120685
1082953486 -0.371436 0.133244
1085827619 -0.344573 0.157541
1088701752 -0.307983 0.15802
1091575885 -0.290674 0.130545
1094450018 -0.295383 0.10856
1097324151 -0.315268 0.096018
1100198284 -0.326867 0.104333
1103072417 -0.33054 0.120546
1105946550 -0.312505 0.138306
1108820683 -0.297359 0.151884
1111694816 -0.275384 0.148191
1114568949 -0.263033 0.12992
1117443082 -0.266945 0.129001
1120317215 -0.260736 0.133622
1123191348 -0.26982 0.133852
1126065481 -0.260461 0.138029
1128939614 -0.256389 0.149943
1131813747 -0.243557 0.151344
1134687880 -0.244384 0.144202
1137562013 -0.251627 0.163589
1140436146 -0.237992 0.178902
1143310279 -0.221429 0.196998
1146184412 -0.194821 0.217338
1149058545 -0.15889 0.221104
1151932678 -0.131202 0.214707
1154806811 -0.114462 0.209648
1157680944 -0.080921 0.208884
1160555077 -0.050205 0.19522
1163429210 -0.028238 0.17524
1166303343 -0.002121 0.157552
1169177476 0.015581 0.133257
1172051609 0.04011 0.102061
1174925742 0.048294 0.057706
1177799875 0.034422 0.028154
1180674008 0.029189 0.022284
1183548141 0.0283 -0.004858
1186422274 0.019626 -0.01491
1189296407 0.028682 -0.026887
1192170540 0.019091 -0.054486
1195044673 0.003845 -0.066457
1197918806 -0.005207 -0.073422
1200792939 -0.0111 -0.0794
1203667072 -0.020204 -0.07816
1206541205 -0.015354 -0.088393
1209415338 -0.018503 -0.099676
1212289471 -0.023659 -0.121584
1215163604 -0.038231 -0.129832
1218037737 -0.051872 -0.137914
1220911870 -0.059254 -0.141447
1223786003 -0.081419 -0.156624
1226660136 -0.107595 -0.142531
1229534269 -0.117501 -0.12962
1232408402 -0.121772 -0.107233
1235282535 -0.105508 -0.085826
1238156668 -0.081554 -0.095143
1241030801 -0.084896 -0.110901
1243904934 -0.089009 -0.115506
1246779067 -0.093824 -0.117644
1249653200 -0.08436 -0.110262
1252527333 -0.071929 -0.125391
1255401466 -0.080201 -0.147033
1258275599 -0.107403 -0.158815
1261149732 -0.137846 -0.135258
1264023865 -0.131447 -0.098629
1266897998 -0.105047 -0.089358
1269772131 -0.087057 -0.103519
1272646264 -0.084038 -0.111973
1275520397 -0.078726 -0.120107
1278394530 -0.076243 -0.131455
1281268663 -0.085848 -0.139524
1284142796 -0.087875 -0.129241
1287016929 -0.071152 -0.128775
1289891062 -0.06248 -0.149211
1292765195 -0.081268 -0.174154
1295639328 -0.104873 -0.16345
1298513461 -0.096252 -0.143901
1301387594 -0.079308 -0.150336
1304261727 -0.069467 -0.157971
1307135860 -0.066941 -0.18124
1310009993 -0.081548 -0.191415
1312884126 -0.085358 -0.180865
1315758259 -0.076549 -0.174346
1318632392 -0.05732 -0.180316
1321506525 -0.052134 -0.208217
1324380658 -0.054006 -0.231936
1327254791 -0.0636 -0.256914
1330128924 -0.087696 -0.27192
1333003057 -0.113232 -0.27058
1335877190 -0.124612 -0.259305
1338751323 -0.128914 -0.251793
1341625456 -0.130701 -0.253374
1344499589 -0.137018 -0.241149
1347373722 -0.126531 -0.234392
1350247855 -0.119978 -0.24868
1353121988 -0.117901 -0.264681
1355996121 -0.131862 -0.28427
1358870254 -0.157369 -0.292106
1361744387 -0.179194 -0.285541
1364618520 -0.191009 -0.267028
1367492653 -0.182416 -0.268901
1370366786 -0.191824 -0.267996
1373240919 -0.195318 -0.265225
1376115052 -0.204032 -0.258543
1378989185 -0.211443 -0.256789
1381863318 -0.212033 -0.255349
1384737451 -0.212749 -0.261535
1387611584 -0.22643 -0.259891
1390485717 -0.226598 -0.261092
1393359850 -0.233819 -0.267854
1396233983 -0.245684 -0.268423
1399108116 -0.269049 -0.268861
1401982249 -0.287194 -0.244709
1404856382 -0.279907 -0.207403
1407730515 -0.265001 -0.206536
1410604648 -0.267353 -0.212224
1413478781 -0.271164 -0.204075
1416352914 -0.271761 -0.202708
1419227047 -0.268658 -0.196056
1422101180 -0.263342 -0.200888
1424975313 -0.270235 -0.209726
1427849446 -0.284236 -0.204079
1430723579 -0.290162 -0.192861
1433597712 -0.288848 -0.181462
1436471845 -0.29345 -0.173026
1439345978 -0.29669 -0.169103
1442220111 -0.304339 -0.154652
1445094244 -0.292221 -0.138326
1447968377 -0.277038 -0.143493
1450842510 -0.272192 -0.138612
1453716643 -0.260202 -0.143527
1456590776 -0.264888 -0.146788
1459464909 -0.256559 -0.143518
1462339042 -0.253037 -0.146527
1465213175 -0.262603 -0.147248
1468087308 -0.261323 -0.142333
1470961441 -0.263672 -0.146458
1473835574 -0.266937 -0.139888
1476709707 -0.269645 -0.135948
1479583840 -0.266883 -0.122786
1482457973 -0.251247 -0.117856
1485332106 -0.243218 -0.12179
1488206239 -0.234849 -0.121221
1491080372 -0.22291 -0.130025
1493954505 -0.225483 -0.139306
1496828638 -0.228907 -0.144994
1499702771 -0.239121 -0.154382
1502576904 -0.249257 -0.156159
1505451037 -0.261893 -0.139964
1508325170 -0.247598 -0.123607
1511199303 -0.233758 -0.125168
1514073436 -0.224001 -0.131721
1516947569 -0.227062 -0.129885
1519821702 -0.214048 -0.12909
1522695835 -0.20241 -0.140175
1525569968 -0.202161 -0.154425
1528444101 -0.204193 -0.164391
1531318234 -0.210438 -0.181781
1534192367 -0.237863 -0.189198
1537066500 -0.25575 -0.16573
1539940633 -0.252889 -0.151937
1542814766 -0.242623 -0.13721
1545688899 -0.222623 -0.12405
1548563032 -0.199434 -0.135612
1551437165 -0.18995 -0.155101
1554311298 -0.194077 -0.178723
1557185431 -0.211809 -0.193942
1560059564 -0.217481 -0.197382
1562933697 -0.228495 -0.21419
1565807830 -0.257719 -0.210655
1568681963 -0.270448 -0.19116
1571556096 -0.273577 -0.169353
1574430229 -0.250789 -0.153578
1577304362 -0.235201 -0.16084
1580178495 -0.23547 -0.16919
1583052628 -0.235838 -0.173676
1585926761 -0.240291 -0.185379
1588800894 -0.243136 -0.189725
1591675027 -0.249687 -0.202853
1594549160 -0.261498 -0.206981
1597423293 -0.277291 -0.205508
1600297426 -0.281054 -0.195153
1603171559 -0.281193 -0.198327
1606045692 -0.295283 -0.190096
1608919825 -0.299419 -0.17657
1611793958 -0.298715 -0.166236
1614668091 -0.288943 -0.166586
1617542224 -0.287275 -0.170217
1620416357 -0.288403 -0.181028
1623290490 -0.291818 -0.178519
1626164623 -0.292514 -0.186196
1629038756 -0.300611 -0.188695
1631912889 -0.303127 -0.180281
1634787022 -0.304274 -0.176633
1637661155 -0.3015 -0.173819
1640535288 -0.306342 -0.191235
1643409421 -0.325548 -0.19771
1646283554 -0.341265 -0.186766
1649157687 -0.352959 -0.172074
1652031820 -0.349959 -0.154203
1654905953 -0.33399 -0.140503
1657780086 -0.314781 -0.147127
1660654219 -0.314839 -0.1587
1663528352 -0.317059 -0.160951
1666402485 -0.32083 -0.167121
1669276618 -0.341842 -0.170768
1672150751 -0.354481 -0.165647
1675024884 -0.363852 -0.151447
1677899017 -0.365233 -0.135357
1680773150 -0.353044 -0.12802
1683647283 -0.344745 -0.129211
1686521416 -0.333603 -0.1321
1689395549 -0.326855 -0.144316
1692269682 -0.336405 -0.15133
1695143815 -0.342073 -0.145948
1698017948 -0.354545 -0.147143
1700892081 -0.367807 -0.141809
1703766214 -0.374867 -0.130342
1706640347 -0.374928 -0.111767
1709514480 -0.358892 -0.102331
1712388613 -0.346327 -0.101087
1715262746 -0.335762 -0.109581
1718136879 -0.332019 -0.12279
1721011012 -0.334296 -0.12416
1723885145 -0.33584 -0.129296
1726759278 -0.339008 -0.13934
1729633411 -0.355019 -0.129315
1732507544 -0.364379 -0.123524
1735381677 -0.372807 -0.120634
1738255810 -0.373062 -0.109058
1741129943 -0.371249 -0.109433
1744004076 -0.367366 -0.088091
1746878209 -0.348158 -0.088502
1749752342 -0.33155 -0.10126
1752626475 -0.332781 -0.113609
1755500608 -0.34452 -0.116092
1758374741 -0.347394 -0.11719
1761248874 -0.357453 -0.127443
1764123007 -0.365446 -0.121209
1766997140 -0.371959 -0.119306
1769871273 -0.373437 -0.115459
1772745406 -0.36813 -0.111149
1775619539 -0.364592 -0.112491
1778493672 -0.364701 -0.115209
1781367805 -0.367304 -0.114936
1784241938 -0.375346 -0.10998
1787116071 -0.370516 -0.099122
1789990204 -0.360445 -0.105136
1792864337 -0.356156 -0.081994
1795738470 -0.379833 -0.132163
1798612603 -0.40151 -0.130184
1801486736 -0.398949 -0.113801
1804360869 -0.400741 -0.112774
1807235002 -0.402711 -0.101855
1810109135 -0.394007 -0.091962
1812983268 -0.387937 -0.090436
1815857401 -0.392313 -0.097587
1818731534 -0.389232 -0.103333
1821605667 -0.391537 -0.112342
1824479800 -0.413834 -0.126868
1827353933 -0.434005 -0.110388
1830228066 -0.436657 -0.098027
1833102199 -0.429291 -0.085816
1835976332 -0.417782 -0.074979
1838850465 -0.405273 -0.086737
1841724598 -0.413448 -0.091455
1844598731 -0.421585 -0.09445
1847472864 -0.435396 -0.092008
1850346997 -0.436924 -0.092228
1853221130 -0.439265 -0.09077
1856095263 -0.441481 -0.091748
1858969396 -0.445109 -0.097552
1861843529 -0.456534 -0.086427
1864717662 -0.454084 -0.086409
1867591795 -0.448798 -0.065102
1870465928 -0.442618 -0.060572
1873340061 -0.437894 -0.070617
1876214194 -0.448963 -0.079215
1879088327 -0.461831 -0.0703
1881962460 -0.468328 -0.068982
1884836593 -0.4717 -0.053432
1887710726 -0.463937 -0.0612
1890584859 -0.470877 -0.060538
1893458992 -0.47701 -0.04821
1896333125 -0.464279 -0.037142
1899207258 -0.457596 -0.038004
1902081391 -0.464453 -0.045284
1904955524 -0.472094 -0.040698
1907829657 -0.485023 -0.032416
1910703790 -0.484084 -0.039501
1913577923 -0.484633 -0.033136
1916452056 -0.485422 -0.026736
1919326189 -0.484299 -0.019633
1922200322 -0.468018 -0.021591
1925074455 -0.474655 -0.023877
1927948588 -0.475524 -0.019565
1930822721 -0.482072 -0.01036
1933696854 -0.487266 -0.003958
1936570987 -0.480215 0.001609
1939445120 -0.484208 -0.000603
1942319253 -0.485299 0.003359
1945193386 -0.481913 0.011051
1948067519 -0.477944 0.013432
1950941652 -0.471246 0.01783
1953815785 -0.467603 0.010268
1956689918 -0.468378 0.007745
1959564051 -0.478377 0.014652
1962438184 -0.489233 0.018438
1965312317 -0.488319 0.029379
1968186450 -0.489388 0.033581
1971060583 -0.485269 0.038543
1973934716 -0.481509 0.035053
1976808849 -0.4811 0.033431
1979682982 -0.479715 0.040321
1982557115 -0.471684 0.037013
1985431248 -0.46624 0.038747
1988305381 -0.465813 0.033578
1991179514 -0.475955 0.032642
1994053647 -0.491252 0.041301
1996927780 -0.493928 0.053123
1999801913 -0.480093 0.057644
2002676046 -0.474758 0.052771
2005550179 -0.472585 0.043517
2008424312 -0.477235 0.038306
2011298445 -0.477849 0.044863
2014172578 -0.472673 0.041532
2017046711 -0.488674 0.041176
