# HZ S RI R 50
100000000 0.968652 -0.255538
102874133 0.975867 -0.266122
105748266 0.97535 -0.274377
108622399 0.989005 -0.265117
111496532 0.979651 -0.293801
114370665 1.005393 -0.227355
117244798 0.99096 -0.265676
120118931 0.968168 -0.307408
122993064 0.961945 -0.313196
125867197 0.949307 -0.318231
128741330 0.944986 -0.323033
131615463 0.951712 -0.328482
134489596 0.954003 -0.338851
137363729 0.939329 -0.356086
140237862 0.894129 -0.424959
143111995 0.940876 -0.369623
145986128 0.939392 -0.375177
148860261 0.936596 -0.379914
151734394 0.930873 -0.384446
154608527 0.923807 -0.388532
157482660 0.917703 -0.392969
160356793 0.916366 -0.401649
163230926 0.9175 -0.412481
166105059 0.926983 -0.404396
168979192 0.915376 -0.429772
171853325 0.912208 -0.439752
174727458 0.907723 -0.446221
177601591 0.90191 -0.451983
180475724 0.89237 -0.459731
183349857 0.881465 -0.466622
186223990 0.870251 -0.471676
189098123 0.871179 -0.48136
191972256 0.876361 -0.490559
194846389 0.879583 -0.498257
197720522 0.882266 -0.504993
200594655 0.881338 -0.51192
203468788 0.879862 -0.51637
206342921 0.875866 -0.52014
209217054 0.869071 -0.524346
212091187 0.859683 -0.52704
214965320 0.850198 -0.529822
217839453 0.848994 -0.538884
220713586 0.852696 -0.549386
223587719 0.855439 -0.558523
226461852 0.854486 -0.566404
229335985 0.853014 -0.572737
232210118 0.847611 -0.578365
235084251 0.843417 -0.582104
237958384 0.835091 -0.585623
240832517 0.825161 -0.588989
243706650 0.812778 -0.590773
246580783 0.809341 -0.599138
249454916 0.811405 -0.612191
252329049 0.81233 -0.621088
255203182 0.811761 -0.628928
258077315 0.809468 -0.637152
260951448 0.805651 -0.641349
263825581 0.797673 -0.643867
266699714 0.791297 -0.64872
269573847 0.780632 -0.650559
272447980 0.768394 -0.651515
275322113 0.760523 -0.659593
278196246 0.765251 -0.671364
281070379 0.766752 -0.682348
283944512 0.766549 -0.690213
286818645 0.760907 -0.695517
289692778 0.758044 -0.701298
292566911 0.75444 -0.705692
295441044 0.746967 -0.704687
298315177 0.738757 -0.707236
301189310 0.725872 -0.705548
304063443 0.71542 -0.708631
306937576 0.714061 -0.720798
309811709 0.711825 -0.73556
312685842 0.709398 -0.74237
315559975 0.704842 -0.748152
318434108 0.698421 -0.754049
321308241 0.690752 -0.75889
324182374 0.681353 -0.764531
327056507 0.668937 -0.763022
329930640 0.657208 -0.764317
332804773 0.647212 -0.765447
335678906 0.645226 -0.780489
338553039 0.642076 -0.791304
341427172 0.640859 -0.798635
344301305 0.633704 -0.807081
347175438 0.628824 -0.81089
350049571 0.622759 -0.81283
352923704 0.6151 -0.814589
355797837 0.605673 -0.813923
358671970 0.59293 -0.81482
361546103 0.581464 -0.814588
364420236 0.578767 -0.826988
367294369 0.575742 -0.839816
370168502 0.571825 -0.847322
373042635 0.566728 -0.854963
375916768 0.561864 -0.858939
378790901 0.555345 -0.862918
381665034 0.544804 -0.864584
384539167 0.536971 -0.866029
387413300 0.526348 -0.863682
390287433 0.513527 -0.863357
393161566 0.511137 -0.873751
396035699 0.509246 -0.8825
398909832 0.50206 -0.888758
401783965 0.45852 -0.903084
404658098 0.491457 -0.897058
407532231 0.483092 -0.899005
410406364 0.475008 -0.899674
413280497 0.464821 -0.90085
416154630 0.454775 -0.89606
419028763 0.445058 -0.891042
421902896 0.437005 -0.903715
424777029 0.431626 -0.915242
427651162 0.427038 -0.919788
430525295 0.425572 -0.927415
433399428 0.414458 -0.933571
436273561 0.40856 -0.936234
439147694 0.3998 -0.937578
442021827 0.388948 -0.93499
444895960 0.379555 -0.932954
447770093 0.367742 -0.92971
450644226 0.360167 -0.939546
453518359 0.355672 -0.946587
456392492 0.348098 -0.957122
459266625 0.344917 -0.957177
462140758 0.337023 -0.959906
465014891 0.332626 -0.956723
467889024 0.322425 -0.95856
470763157 0.312613 -0.953918
473637290 0.300852 -0.948317
476511423 0.288267 -0.941076
479385556 0.281112 -0.951175
482259689 0.277221 -0.959375
485133822 0.268111 -0.967122
488007955 0.26296 -0.971427
490882088 0.255292 -0.972753
493756221 0.247461 -0.973235
496630354 0.238565 -0.974033
499504487 0.229694 -0.97141
502378620 0.215821 -0.966885
505252753 0.205243 -0.959814
508126886 0.195532 -0.964316
511001019 0.188037 -0.974436
513875152 0.178937 -0.982122
516749285 0.166593 -0.987086
519623418 0.158967 -0.988434
522497551 0.15028 -0.987953
525371684 0.139454 -0.987028
528245817 0.130105 -0.982624
531119950 0.118353 -0.981482
533994083 0.122933 -0.971471
536868216 0.093855 -0.977537
539742349 0.069443 -0.985193
542616482 0.073688 -0.99152
545490615 0.079675 -0.997801
548364748 0.050326 -0.999274
551238881 0.027812 -0.997026
554113014 0.031394 -0.995111
556987147 0.041519 -0.991951
559861280 0.013576 -0.982637
562735413 0.004158 -0.970346
565609546 -0.007808 -0.969445
568483679 -0.010377 -0.972703
571357812 -0.01666 -0.979155
574231945 -0.021088 -0.988555
577106078 -0.027484 -0.992713
579980211 -0.037726 -0.993744
582854344 -0.045944 -0.995594
585728477 -0.051842 -0.99495
588602610 -0.060777 -0.987155
591476743 -0.074066 -0.982146
594350876 -0.08404 -0.982277
597225009 -0.095217 -0.988356
600099142 -0.109313 -0.997255
602973275 -0.120325 -1.000904
605847408 -0.127557 -1.003418
608721541 -0.139807 -1.004863
611595674 -0.144446 -0.999815
614469807 -0.154769 -0.99737
617343940 -0.16489 -0.993375
620218073 -0.173667 -0.982611
623092206 -0.179938 -0.978301
625966339 -0.198885 -0.98232
628840472 -0.209323 -0.990576
631714605 -0.219803 -0.992663
634588738 -0.236111 -0.994378
637462871 -0.246686 -0.993038
640337004 -0.254135 -0.988963
643211137 -0.267043 -0.986076
646085270 -0.275302 -0.975917
648959403 -0.283722 -0.966712
651833536 -0.295927 -0.962392
654707669 -0.312781 -0.964914
657581802 -0.322508 -0.967857
660455935 -0.334776 -0.966064
663330068 -0.3453 -0.964402
666204201 -0.356574 -0.956097
669078334 -0.36767 -0.953713
671952467 -0.37601 -0.9454
674826600 -0.383918 -0.934327
677700733 -0.399353 -0.920772
680574866 -0.407042 -0.90795
683448999 -0.423117 -0.912336
686323132 -0.395436 -0.946548
689197265 -0.452172 -0.90947
692071398 -0.464069 -0.906087
694945531 -0.478701 -0.90435
697819664 -0.490769 -0.892702
700693797 -0.496708 -0.88711
703567930 -0.507976 -0.871791
706442063 -0.511699 -0.858349
709316196 -0.524774 -0.843597
712190329 -0.541893 -0.844836
715064462 -0.554957 -0.836764
717938595 -0.573939 -0.833838
720812728 -0.589726 -0.82536
723686861 -0.605381 -0.817114
726560994 -0.615361 -0.808788
729435127 -0.625746 -0.796338
732309260 -0.635061 -0.779189
735183393 -0.644079 -0.763324
738057526 -0.653587 -0.742397
740931659 -0.673202 -0.737672
743805792 -0.692377 -0.727983
746679925 -0.704177 -0.721981
749554058 -0.718295 -0.714832
752428191 -0.733193 -0.699763
755302324 -0.742105 -0.682793
758176457 -0.753314 -0.666749
761050590 -0.757039 -0.653721
763924723 -0.763799 -0.635557
766798856 -0.7675 -0.609378
769672989 -0.78456 -0.596883
772547122 -0.801441 -0.584737
775421255 -0.820126 -0.567735
778295388 -0.83046 -0.552886
781169521 -0.842387 -0.535287
784043654 -0.852178 -0.519837
786917787 -0.859857 -0.497317
789791920 -0.86265 -0.477343
792666053 -0.863417 -0.454079
795540186 -0.865582 -0.427897
798414319 -0.877954 -0.410878
801288452 -0.893065 -0.391644
804162585 -0.907982 -0.372856
807036718 -0.92304 -0.348886
809910851 -0.92613 -0.328473
812784984 -0.930616 -0.301164
815659117 -0.930726 -0.280293
818533250 -0.931521 -0.252499
821407383 -0.926169 -0.226822
824281516 -0.92173 -0.198143
827155649 -0.926838 -0.173218
830029782 -0.938054 -0.149234
832903915 -0.947582 -0.122448
835778048 -0.949862 -0.090904
838652181 -0.947526 -0.064407
841526314 -0.947886 -0.03021
844400447 -0.941947 0.000545
847274580 -0.926622 0.02813
850148713 -0.914049 0.057564
853022846 -0.899083 0.091325
855896979 -0.889762 0.128044
858771112 -0.882624 0.165837
861645245 -0.87482 0.204145
864519378 -0.864626 0.249201
867393511 -0.83765 0.293536
870267644 -0.809751 0.328513
873141777 -0.77534 0.366262
876015910 -0.734949 0.395292
878890043 -0.701732 0.414351
881764176 -0.66494 0.440144
884638309 -0.631601 0.475724
887512442 -0.593348 0.507009
890386575 -0.549502 0.542374
893260708 -0.507795 0.564798
896134841 -0.458458 0.592402
899008974 -0.391424 0.607909
901883107 -0.338247 0.613431
904757240 -0.274389 0.615115
907631373 -0.213518 0.597031
910505506 -0.164306 0.581216
913379639 -0.119629 0.57688
916253772 -0.06945 0.562598
919127905 -0.030841 0.542626
922002038 0.013808 0.527444
924876171 0.050264 0.506095
927750304 0.09937 0.46662
930624437 0.137837 0.436993
933498570 0.169438 0.398762
936372703 0.178 0.352501
939246836 0.193663 0.315769
942120969 0.212593 0.278157
944995102 0.218956 0.265303
947869235 0.249867 0.246736
950743368 0.27405 0.193075
953617501 0.288282 0.146864
956491634 0.279813 0.082966
959365767 0.245939 0.05376
962239900 0.223047 0.044167
965114033 0.220836 0.043175
967988166 0.232986 0.020762
970862299 0.223733 -0.013097
973736432 0.205453 -0.024397
976610565 0.203772 -0.023924
979484698 0.206877 -0.034732
982358831 0.218829 -0.051587
985232964 0.215285 -0.08235
988107097 0.204115 -0.105518
990981230 0.187315 -0.126477
993855363 0.161172 -0.141601
996729496 0.14056 -0.137056
999603629 0.125944 -0.136527
1002477762 0.117244 -0.133867
1005351895 0.117604 -0.128687
1008226028 0.115478 -0.145129
1011100161 0.089096 -0.137072
1013974294 0.087907 -0.12115
1016848427 0.092808 -0.102888
1019722560 0.114355 -0.095557
1022596693 0.132107 -0.109034
1025470826 0.139351 -0.116132
1028344959 0.138237 -0.13676
1031219092 0.134743 -0.147569
1034093225 0.134394 -0.154857
1036967358 0.133085 -0.157972
1039841491 0.135818 -0.17211
1042715624 0.117006 -0.174853
1045589757 0.120388 -0.159393
1048463890 0.137968 -0.155378
1051338023 0.147024 -0.170222
1054212156 0.146892 -0.181626
1057086289 0.15278 -0.187303
1059960422 0.14694 -0.207859
1062834555 0.13972 -0.212452
1065708688 0.141738 -0.210319
1068582821 0.146494 -0.219453
1071456954 0.148488 -0.229588
1074331087 0.147004 -0.243536
1077205220 0.136252 -0.245963
1080079353 0.138383 -0.251563
1082953486 0.131519 -0.256213
1085827619 0.13227 -0.253291
1088701752 0.140225 -0.267021
1091575885 0.135697 -0.288346
1094450018 0.13017 -0.298946
1097324151 0.109522 -0.313507
1100198284 0.094098 -0.298942
1103072417 0.099718 -0.281067
1105946550 0.12176 -0.273405
1108820683 0.140628 -0.293518
1111694816 0.137071 -0.321221
1114568949 0.117335 -0.334726
1117443082 0.105635 -0.336459
1120317215 0.095085 -0.352454
1123191348 0.079687 -0.339085
1126065481 0.084224 -0.33818
1128939614 0.085316 -0.34102
1131813747 0.084151 -0.34252
1134687880 0.073635 -0.336902
1137562013 0.08478 -0.321253
1140436146 0.098783 -0.324608
1143310279 0.108483 -0.33454
1146184412 0.117668 -0.345546
1149058545 0.118906 -0.366847
1151932678 0.115432 -0.38326
1154806811 0.111515 -0.385152
1157680944 0.122679 -0.388064
1160555077 0.131543 -0.403584
1163429210 0.137304 -0.421479
1166303343 0.133329 -0.445201
1169177476 0.125401 -0.459044
1172051609 0.110976 -0.471708
1174925742 0.093631 -0.492509
1177799875 0.076703 -0.497368
1180674008 0.069652 -0.506681
1183548141 0.05743 -0.512244
1186422274 0.049712 -0.531006
1189296407 0.032269 -0.550291
1192170540 0.00342 -0.553716
1195044673 -0.012511 -0.540902
1197918806 -0.016296 -0.534526
1200792939 -0.028603 -0.537586
1203667072 -0.038796 -0.540332
1206541205 -0.065286 -0.547573
1209415338 -0.084885 -0.543966
1212289471 -0.102738 -0.53233
1215163604 -0.102901 -0.518793
1218037737 -0.107714 -0.51912
1220911870 -0.106457 -0.515842
1223786003 -0.117374 -0.518157
1226660136 -0.128483 -0.504444
1229534269 -0.136988 -0.493089
1232408402 -0.138427 -0.480026
1235282535 -0.126617 -0.484559
1238156668 -0.13024 -0.499204
1241030801 -0.146587 -0.504598
1243904934 -0.170108 -0.497193
1246779067 -0.174123 -0.475946
1249653200 -0.166561 -0.469452
1252527333 -0.155597 -0.46617
1255401466 -0.155788 -0.473998
1258275599 -0.164386 -0.470118
1261149732 -0.172089 -0.456726
1264023865 -0.16255 -0.453429
1266897998 -0.158388 -0.47073
1269772131 -0.169659 -0.485433
1272646264 -0.179999 -0.487163
1275520397 -0.18647 -0.481112
1278394530 -0.189815 -0.48307
1281268663 -0.192186 -0.481208
1284142796 -0.194082 -0.477196
1287016929 -0.194671 -0.481662
1289891062 -0.203499 -0.484751
1292765195 -0.216065 -0.479367
1295639328 -0.211504 -0.475367
1298513461 -0.201257 -0.486297
1301387594 -0.206821 -0.501131
1304261727 -0.215574 -0.513677
1307135860 -0.231939 -0.520035
1310009993 -0.245213 -0.50939
1312884126 -0.243985 -0.502082
1315758259 -0.240841 -0.501771
1318632392 -0.241473 -0.50661
1321506525 -0.260762 -0.519245
1324380658 -0.265475 -0.519499
1327254791 -0.27821 -0.524325
1330128924 -0.291441 -0.522761
1333003057 -0.294006 -0.515722
1335877190 -0.293175 -0.511592
1338751323 -0.298641 -0.516824
1341625456 -0.310291 -0.513676
1344499589 -0.318983 -0.500632
1347373722 -0.320713 -0.487039
1350247855 -0.328668 -0.48625
1353121988 -0.331664 -0.492912
1355996121 -0.343306 -0.499756
1358870254 -0.361002 -0.497969
1361744387 -0.37811 -0.485624
1364618520 -0.375391 -0.473422
1367492653 -0.370243 -0.467688
1370366786 -0.374227 -0.461634
1373240919 -0.37692 -0.453749
1376115052 -0.385476 -0.442608
1378989185 -0.398056 -0.441601
1381863318 -0.402146 -0.438241
1384737451 -0.416348 -0.431515
1387611584 -0.422768 -0.428947
1390485717 -0.422639 -0.414011
1393359850 -0.417997 -0.413399
1396233983 -0.419573 -0.409618
1399108116 -0.428828 -0.404932
1401982249 -0.43429 -0.381441
1404856382 -0.413532 -0.364778
1407730515 -0.414173 -0.374109
1410604648 -0.429638 -0.381735
1413478781 -0.441767 -0.365584
1416352914 -0.436314 -0.358043
1419227047 -0.436461 -0.359532
1422101180 -0.44294 -0.359366
1424975313 -0.44994 -0.351494
1427849446 -0.455694 -0.332723
1430723579 -0.446765 -0.320891
1433597712 -0.438238 -0.305648
1436471845 -0.433844 -0.308119
1439345978 -0.439784 -0.315197
1442220111 -0.445088 -0.307185
1445094244 -0.440542 -0.30491
1447968377 -0.440151 -0.304086
1450842510 -0.436425 -0.298117
1453716643 -0.431123 -0.298272
1456590776 -0.430954 -0.29407
1459464909 -0.426749 -0.28963
1462339042 -0.417649 -0.28611
1465213175 -0.421159 -0.2885
1468087308 -0.425587 -0.286839
1470961441 -0.427277 -0.288339
1473835574 -0.436594 -0.28193
1476709707 -0.433233 -0.274108
1479583840 -0.420831 -0.271746
1482457973 -0.415455 -0.283036
1485332106 -0.425748 -0.282773
1488206239 -0.421324 -0.279541
1491080372 -0.419958 -0.279111
1493954505 -0.423278 -0.2792
1496828638 -0.429414 -0.274568
1499702771 -0.431172 -0.276795
1502576904 -0.433074 -0.276038
1505451037 -0.429709 -0.267299
1508325170 -0.425654 -0.27635
1511199303 -0.423092 -0.279857
1514073436 -0.428735 -0.282629
1516947569 -0.429575 -0.273114
1519821702 -0.420204 -0.266612
1522695835 -0.419858 -0.26972
1525569968 -0.42479 -0.274785
1528444101 -0.426561 -0.278149
1531318234 -0.436319 -0.290879
1534192367 -0.450285 -0.287138
1537066500 -0.452404 -0.267776
1539940633 -0.446433 -0.262866
1542814766 -0.437368 -0.261948
1545688899 -0.427933 -0.262625
1548563032 -0.424849 -0.272615
1551437165 -0.424428 -0.280582
1554311298 -0.452396 -0.283527
1557185431 -0.465787 -0.276602
1560059564 -0.469231 -0.27508
1562933697 -0.48078 -0.263801
1565807830 -0.480518 -0.254182
1568681963 -0.47383 -0.252804
1571556096 -0.46553 -0.249233
1574430229 -0.458451 -0.248859
1577304362 -0.460652 -0.251787
1580178495 -0.465679 -0.256054
1583052628 -0.478329 -0.255938
1585926761 -0.488537 -0.253665
1588800894 -0.492385 -0.250622
1591675027 -0.498727 -0.246166
1594549160 -0.503677 -0.24962
1597423293 -0.510768 -0.241417
1600297426 -0.508131 -0.231849
1603171559 -0.5073 -0.2315
1606045692 -0.507842 -0.222792
1608919825 -0.508213 -0.215943
1611793958 -0.513233 -0.210403
1614668091 -0.514238 -0.216267
1617542224 -0.523752 -0.215981
1620416357 -0.530844 -0.213479
1623290490 -0.531461 -0.205077
1626164623 -0.527758 -0.214659
1629038756 -0.538501 -0.199947
1631912889 -0.538422 -0.193792
1634787022 -0.536612 -0.183748
1637661155 -0.526253 -0.178308
1640535288 -0.5323 -0.187052
1643409421 -0.550804 -0.18183
1646283554 -0.554882 -0.173931
1649157687 -0.554628 -0.169499
1652031820 -0.555524 -0.162771
1654905953 -0.553151 -0.158406
1657780086 -0.548873 -0.155946
1660654219 -0.546356 -0.152932
1663528352 -0.544917 -0.141268
1666402485 -0.534279 -0.139405
1669276618 -0.542264 -0.146672
1672150751 -0.557294 -0.149984
1675024884 -0.573438 -0.135543
1677899017 -0.571891 -0.127655
1680773150 -0.566841 -0.117373
1683647283 -0.562774 -0.113852
1686521416 -0.560513 -0.117956
1689395549 -0.558921 -0.115708
1692269682 -0.558275 -0.106042
1695143815 -0.544766 -0.09402
1698017948 -0.541178 -0.101785
1700892081 -0.55302 -0.104936
1703766214 -0.561894 -0.100292
1706640347 -0.565221 -0.097838
1709514480 -0.566836 -0.092445
1712388613 -0.562548 -0.082783
1715262746 -0.562255 -0.083983
1718136879 -0.554253 -0.085311
1721011012 -0.545871 -0.075307
1723885145 -0.545994 -0.080891
1726759278 -0.550785 -0.078752
1729633411 -0.557729 -0.07554
1732507544 -0.564968 -0.06733
1735381677 -0.56858 -0.06015
1738255810 -0.562329 -0.053514
1741129943 -0.557198 -0.050617
1744004076 -0.550742 -0.056503
1746878209 -0.547204 -0.064837
1749752342 -0.546925 -0.059415
1752626475 -0.550138 -0.055618
1755500608 -0.553807 -0.046501
1758374741 -0.558103 -0.046524
1761248874 -0.563964 -0.049601
1764123007 -0.565668 -0.042882
1766997140 -0.563446 -0.041693
1769871273 -0.564549 -0.039364
1772745406 -0.55966 -0.036429
1775619539 -0.565178 -0.043931
1778493672 -0.568096 -0.038372
1781367805 -0.563227 -0.033241
1784241938 -0.560129 -0.020942
1787116071 -0.558996 -0.017871
1789990204 -0.558662 -0.029305
1792864337 -0.575201 -0.030401
1795738470 -0.583711 -0.031363
1798612603 -0.59094 -0.015202
1801486736 -0.587577 -0.010045
1804360869 -0.5859 -0.003037
1807235002 -0.584725 0.003856
1810109135 -0.578779 0.016484
1812983268 -0.573358 0.018558
1815857401 -0.579438 0.009403
1818731534 -0.577981 0.016204
1821605667 -0.591038 0.007126
1824479800 -0.603629 0.01098
1827353933 -0.608046 0.018028
1830228066 -0.610725 0.039801
1833102199 -0.596338 0.048819
1835976332 -0.584988 0.041311
1838850465 -0.586339 0.040576
1841724598 -0.590295 0.043379
1844598731 -0.594572 0.045365
1847472864 -0.601508 0.053963
1850346997 -0.605086 0.053522
1853221130 -0.60507 0.055077
1856095263 -0.6089 0.053304
1858969396 -0.610169 0.063463
1861843529 -0.610536 0.065333
1864717662 -0.605714 0.083001
1867591795 -0.590081 0.081547
1870465928 -0.58805 0.083211
1873340061 -0.584798 0.090184
1876214194 -0.588553 0.079707
1879088327 -0.603174 0.08213
1881962460 -0.606263 0.095436
1884836593 -0.606944 0.101285
1887710726 -0.60295 0.108239
1890584859 -0.603334 0.100282
1893458992 -0.599605 0.11691
1896333125 -0.59144 0.130002
1899207258 -0.589372 0.122056
1902081391 -0.589847 0.126585
1904955524 -0.586756 0.131429
1907829657 -0.589941 0.131075
1910703790 -0.596418 0.125311
1913577923 -0.600053 0.133607
1916452056 -0.601623 0.134706
1919326189 -0.596553 0.145482
1922200322 -0.583788 0.149939
1925074455 -0.576499 0.151123
1927948588 -0.571302 0.155696
1930822721 -0.569683 0.161817
1933696854 -0.570001 0.165183
1936570987 -0.566306 0.161802
1939445120 -0.569396 0.162224
1942319253 -0.574116 0.16292
1945193386 -0.575843 0.163947
1948067519 -0.577818 0.16607
1950941652 -0.573829 0.181399
1953815785 -0.565003 0.186731
1956689918 -0.557441 0.186599
1959564051 -0.553842 0.196082
1962438184 -0.552246 0.194457
1965312317 -0.559087 0.190244
1968186450 -0.566702 0.19633
1971060583 -0.564783 0.19222
1973934716 -0.564995 0.198887
1976808849 -0.561848 0.201516
1979682982 -0.552952 0.202626
1982557115 -0.535858 0.215223
1985431248 -0.533372 0.198917
1988305381 -0.546556 0.193424
1991179514 -0.558905 0.206142
1994053647 -0.556957 0.231227
1996927780 -0.552788 0.226558
1999801913 -0.551664 0.217257
2002676046 -0.542788 0.221432
2005550179 -0.54064 0.221246
2008424312 -0.547887 0.217532
2011298445 -0.548484 0.205326
2014172578 -0.538937 0.219164
2017046711 -0.54183 0.227669
2019920844 -0.543025 0.236415
2022794977 -0.54348 0.241217
2025669110 -0.540776 0.239159
2028543243 -0.539821 0.235923
