# HZ S RI R 50
100000000 0.963375 -0.283145
102874133 0.968576 -0.290804
105748266 0.968047 -0.300911
108622399 0.968205 -0.307994
111496532 0.977719 -0.298089
114370665 0.968678 -0.324186
117244798 0.943965 -0.363215
120118931 0.965792 -0.316095
122993064 1.013916 -0.242627
125867197 0.981459 -0.278973
128741330 0.999337 -0.25752
131615463 0.938303 -0.361953
134489596 0.947243 -0.373402
137363729 0.926108 -0.38695
140237862 0.928266 -0.395741
143111995 0.92723 -0.402792
145986128 0.926155 -0.408419
148860261 0.921458 -0.414614
151734394 0.915255 -0.419116
154608527 0.907198 -0.425195
157482660 0.899725 -0.428281
160356793 0.898349 -0.438837
163230926 0.891392 -0.462877
166105059 0.899407 -0.458256
168979192 0.895759 -0.468064
171853325 0.892227 -0.47654
174727458 0.887054 -0.483253
177601591 0.879486 -0.491963
180475724 0.870157 -0.499004
183349857 0.858896 -0.505629
186223990 0.8462 -0.511312
189098123 0.846747 -0.521577
191972256 0.850082 -0.531873
194846389 0.852326 -0.54135
197720522 0.853806 -0.549664
200594655 0.85217 -0.556498
203468788 0.849884 -0.563076
206342921 0.844659 -0.566308
209217054 0.837441 -0.571911
212091187 0.829382 -0.574662
214965320 0.81661 -0.578859
217839453 0.814602 -0.587099
220713586 0.817782 -0.598098
223587719 0.819465 -0.609612
226461852 0.818505 -0.619865
229335985 0.814682 -0.623217
232210118 0.809472 -0.630378
235084251 0.80319 -0.634767
237958384 0.79622 -0.639598
240832517 0.782716 -0.642578
243706650 0.771658 -0.644278
246580783 0.764606 -0.653433
249454916 0.766112 -0.665472
252329049 0.764415 -0.676785
255203182 0.762886 -0.684804
258077315 0.760821 -0.692211
260951448 0.754459 -0.698701
263825581 0.749253 -0.702531
266699714 0.739729 -0.705917
269573847 0.727433 -0.706808
272447980 0.714513 -0.709458
275322113 0.705449 -0.71542
278196246 0.708023 -0.728403
281070379 0.707978 -0.739296
283944512 0.703562 -0.748516
286818645 0.701127 -0.753974
289692778 0.696308 -0.760945
292566911 0.689895 -0.765544
295441044 0.680586 -0.76656
298315177 0.67247 -0.766962
301189310 0.660281 -0.766057
304063443 0.650263 -0.769152
306937576 0.647329 -0.783918
309811709 0.641436 -0.79494
312685842 0.634903 -0.804115
315559975 0.628846 -0.813264
318434108 0.62079 -0.818162
321308241 0.611622 -0.82475
324182374 0.601329 -0.826314
327056507 0.589851 -0.829093
329930640 0.576302 -0.827222
332804773 0.562888 -0.83081
335678906 0.5584 -0.843061
338553039 0.551823 -0.854459
341427172 0.54657 -0.863921
344301305 0.541382 -0.870445
347175438 0.532668 -0.877563
350049571 0.525037 -0.878718
352923704 0.516168 -0.881878
355797837 0.506381 -0.880283
358671970 0.491056 -0.880386
361546103 0.479414 -0.878619
364420236 0.473658 -0.89173
367294369 0.467271 -0.903752
370168502 0.461676 -0.912951
373042635 0.450301 -0.918258
375916768 0.444238 -0.923969
378790901 0.43413 -0.928494
381665034 0.423735 -0.930556
384539167 0.411715 -0.930146
387413300 0.417568 -0.92157
390287433 0.38752 -0.926538
393161566 0.378256 -0.939114
396035699 0.372166 -0.94694
398909832 0.364061 -0.956059
401783965 0.318832 -0.962729
404658098 0.346561 -0.96327
407532231 0.337242 -0.96445
410406364 0.327348 -0.96549
413280497 0.316679 -0.961243
416154630 0.302666 -0.955673
419028763 0.287733 -0.954057
421902896 0.280383 -0.963808
424777029 0.268513 -0.97599
427651162 0.259782 -0.983638
430525295 0.248208 -0.98946
433399428 0.238347 -0.991321
436273561 0.224783 -0.99363
439147694 0.214206 -0.993704
442021827 0.203535 -0.993326
444895960 0.18677 -0.989696
447770093 0.172124 -0.983307
450644226 0.161886 -0.990949
453518359 0.154665 -0.99779
456392492 0.1432 -1.0036
459266625 0.130844 -1.007587
462140758 0.118575 -1.008351
465014891 0.109568 -1.00593
467889024 0.097 -1.001239
470763157 0.083426 -0.99496
473637290 0.069416 -0.988121
476511423 0.056662 -0.976545
479385556 0.041048 -0.98141
482259689 0.031149 -0.988458
485133822 0.016158 -0.99223
488007955 0.004949 -0.993604
490882088 -0.008635 -0.992084
493756221 -0.020145 -0.9901
496630354 -0.030694 -0.984434
499504487 -0.044433 -0.976306
502378620 -0.055811 -0.967134
505252753 -0.066602 -0.955997
508126886 -0.081705 -0.95823
511001019 -0.094486 -0.964136
513875152 -0.108127 -0.966656
516749285 -0.122631 -0.967484
519623418 -0.135677 -0.966963
522497551 -0.146044 -0.966017
525371684 -0.161759 -0.960915
528245817 -0.172363 -0.953364
531119950 -0.188056 -0.948299
533994083 -0.200031 -0.936818
536868216 -0.217588 -0.935289
539742349 -0.234897 -0.939366
542616482 -0.25511 -0.941999
545490615 -0.270364 -0.939222
548364748 -0.28764 -0.935845
551238881 -0.302257 -0.932349
554113014 -0.317435 -0.926256
556987147 -0.331318 -0.916465
559861280 -0.348768 -0.904238
562735413 -0.361461 -0.889421
565609546 -0.377649 -0.883052
568483679 -0.397782 -0.883437
571357812 -0.413165 -0.879097
574231945 -0.433874 -0.875061
577106078 -0.44873 -0.86851
579980211 -0.463017 -0.862885
582854344 -0.477627 -0.854924
585728477 -0.493294 -0.840507
588602610 -0.506859 -0.825708
591476743 -0.521062 -0.812391
594350876 -0.537344 -0.802877
597225009 -0.557927 -0.795688
600099142 -0.5799 -0.790513
602973275 -0.602552 -0.783762
605847408 -0.622197 -0.769772
608721541 -0.639154 -0.760788
611595674 -0.654131 -0.745287
614469807 -0.673893 -0.725622
617343940 -0.688657 -0.709614
620218073 -0.702056 -0.68647
623092206 -0.720635 -0.662194
625966339 -0.745013 -0.649338
628840472 -0.771752 -0.631055
631714605 -0.795536 -0.609599
634588738 -0.815317 -0.586472
637462871 -0.834882 -0.562164
640337004 -0.849294 -0.535145
643211137 -0.865326 -0.506945
646085270 -0.877225 -0.472511
648959403 -0.885932 -0.441512
651833536 -0.899539 -0.403446
654707669 -0.919699 -0.376557
657581802 -0.937149 -0.340913
660455935 -0.952257 -0.306068
663330068 -0.966772 -0.266962
666204201 -0.972951 -0.227982
669078334 -0.978082 -0.188277
671952467 -0.981087 -0.142373
674826600 -0.980613 -0.095662
677700733 -0.973266 -0.051663
680574866 -0.968843 -0.005762
683448999 -0.974778 0.043925
686323132 -0.975234 0.091472
689197265 -0.972652 0.146984
692071398 -0.964956 0.197087
694945531 -0.954601 0.245405
697819664 -0.936191 0.300178
700693797 -0.908588 0.348825
703567930 -0.883761 0.39498
706442063 -0.847961 0.442581
709316196 -0.809837 0.493098
712190329 -0.783515 0.546588
715064462 -0.747377 0.605955
717938595 -0.704809 0.65834
720812728 -0.654089 0.703248
723686861 -0.602916 0.74304
726560994 -0.546178 0.780968
729435127 -0.48461 0.811191
732309260 -0.428474 0.838962
735183393 -0.359262 0.863938
738057526 -0.287754 0.878216
740931659 -0.222072 0.901753
743805792 -0.15267 0.91981
746679925 -0.082274 0.92928
749554058 -0.017321 0.934741
752428191 0.052815 0.935918
755302324 0.124532 0.923035
758176457 0.191909 0.908929
761050590 0.257913 0.883178
763924723 0.316896 0.85188
766798856 0.369949 0.818816
769672989 0.432654 0.796918
772547122 0.49076 0.769979
775421255 0.54234 0.737977
778295388 0.592173 0.700757
781169521 0.64329 0.662662
784043654 0.684689 0.616987
786917787 0.718663 0.570187
789791920 0.748544 0.519066
792666053 0.77287 0.471023
795540186 0.792915 0.414287
798414319 0.822024 0.373223
801288452 0.848389 0.325496
804162585 0.870698 0.275754
807036718 0.884514 0.228521
809910851 0.892199 0.182204
812784984 0.900811 0.142504
815659117 0.908427 0.101221
818533250 0.913283 0.055474
821407383 0.908798 0.00499
824281516 0.902079 -0.040216
827155649 0.901352 -0.089514
830029782 0.899239 -0.128813
832903915 0.897279 -0.167777
835778048 0.889589 -0.204082
838652181 0.881376 -0.238942
841526314 0.872781 -0.270948
844400447 0.854155 -0.305208
847274580 0.838893 -0.329881
850148713 0.816765 -0.359129
853022846 0.799381 -0.380052
855896979 0.790075 -0.409352
858771112 0.783219 -0.445899
861645245 0.770142 -0.477074
864519378 0.749196 -0.506137
867393511 0.733183 -0.527728
870267644 0.716849 -0.543297
873141777 0.699472 -0.560525
876015910 0.681421 -0.578592
878890043 0.664673 -0.600978
881764176 0.630058 -0.614452
884638309 0.610143 -0.625224
887512442 0.595732 -0.647544
890386575 0.578872 -0.668186
893260708 0.557976 -0.682675
896134841 0.538474 -0.697778
899008974 0.51901 -0.710385
901883107 0.501316 -0.720343
904757240 0.479408 -0.727203
907631373 0.461176 -0.735714
910505506 0.431607 -0.745999
913379639 0.40816 -0.751021
916253772 0.389832 -0.760705
919127905 0.373465 -0.768768
922002038 0.355956 -0.778383
924876171 0.342201 -0.781106
927750304 0.326052 -0.782309
930624437 0.307073 -0.786085
933498570 0.289771 -0.7845
936372703 0.274206 -0.783619
939246836 0.258523 -0.781103
942120969 0.241046 -0.781958
944995102 0.219941 -0.79091
947869235 0.204208 -0.790817
950743368 0.190017 -0.78431
953617501 0.174735 -0.779989
956491634 0.180195 -0.77545
959365767 0.169657 -0.782139
962239900 0.157781 -0.779878
965114033 0.133601 -0.777017
967988166 0.119191 -0.762276
970862299 0.108292 -0.751601
973736432 0.097477 -0.750087
976610565 0.109353 -0.738904
979484698 0.082903 -0.738101
982358831 0.076564 -0.725353
985232964 0.079044 -0.716586
988107097 0.084006 -0.710453
990981230 0.076139 -0.705521
993855363 0.076299 -0.697441
996729496 0.079409 -0.684275
999603629 0.079173 -0.682162
1002477762 0.082674 -0.688131
1005351895 0.074733 -0.696425
1008226028 0.065602 -0.687272
1011100161 0.075335 -0.687538
1013974294 0.071178 -0.686769
1016848427 0.071467 -0.684294
1019722560 0.070902 -0.681516
1022596693 0.078234 -0.676984
1025470826 0.074133 -0.67381
1028344959 0.078972 -0.668728
1031219092 0.088768 -0.684374
1034093225 0.097967 -0.704523
1036967358 0.097191 -0.728129
1039841491 0.094358 -0.74649
1042715624 0.089053 -0.767041
1045589757 0.069751 -0.781113
1048463890 0.055127 -0.782966
1051338023 0.04862 -0.784409
1054212156 0.030703 -0.783035
1057086289 0.013478 -0.776528
1059960422 0.01216 -0.782657
1062834555 0.00477 -0.796599
1065708688 -0.009316 -0.808642
1068582821 -0.028394 -0.81218
1071456954 -0.044802 -0.807382
1074331087 -0.054984 -0.80518
1077205220 -0.062076 -0.804462
1080079353 -0.075644 -0.803706
1082953486 -0.089611 -0.799095
1085827619 -0.106955 -0.784548
1088701752 -0.124265 -0.78226
1091575885 -0.126713 -0.781029
1094450018 -0.124993 -0.785994
1097324151 -0.130704 -0.792986
1100198284 -0.136062 -0.798399
1103072417 -0.153372 -0.807107
1105946550 -0.168615 -0.806086
1108820683 -0.184876 -0.793179
1111694816 -0.190475 -0.776075
1114568949 -0.191214 -0.760165
1117443082 -0.195007 -0.769227
1120317215 -0.211574 -0.772816
1123191348 -0.219995 -0.77561
1126065481 -0.229757 -0.776308
1128939614 -0.239888 -0.777773
1131813747 -0.250295 -0.768373
1134687880 -0.251754 -0.756286
1137562013 -0.252361 -0.758225
1140436146 -0.254155 -0.755973
1143310279 -0.266578 -0.749734
1146184412 -0.282128 -0.750099
1149058545 -0.296197 -0.746295
1151932678 -0.296289 -0.741418
1154806811 -0.300285 -0.735842
1157680944 -0.307823 -0.736806
1160555077 -0.313207 -0.734828
1163429210 -0.316546 -0.726534
1166303343 -0.317037 -0.717545
1169177476 -0.324254 -0.710445
1172051609 -0.328767 -0.69609
1174925742 -0.335943 -0.687065
1177799875 -0.329933 -0.684501
1180674008 -0.345459 -0.688557
1183548141 -0.348702 -0.693893
1186422274 -0.360986 -0.691348
1189296407 -0.372209 -0.684531
1192170540 -0.371547 -0.672738
1195044673 -0.377489 -0.664722
1197918806 -0.37951 -0.657968
1200792939 -0.381738 -0.648113
1203667072 -0.389497 -0.645212
1206541205 -0.398206 -0.637596
1209415338 -0.396759 -0.630902
1212289471 -0.396934 -0.631082
1215163604 -0.402599 -0.626443
1218037737 -0.399405 -0.623049
1220911870 -0.400817 -0.616722
1223786003 -0.396081 -0.614088
1226660136 -0.394577 -0.610549
1229534269 -0.396256 -0.606481
1232408402 -0.407383 -0.61312
1235282535 -0.426106 -0.610327
1238156668 -0.437097 -0.597386
1241030801 -0.439395 -0.587463
1243904934 -0.433678 -0.583483
1246779067 -0.429267 -0.585574
1249653200 -0.430961 -0.583146
1252527333 -0.442036 -0.57119
1255401466 -0.43763 -0.559116
1258275599 -0.425328 -0.5483
1261149732 -0.412551 -0.554475
1264023865 -0.425439 -0.575625
1266897998 -0.44868 -0.581603
1269772131 -0.459638 -0.576112
1272646264 -0.464576 -0.574179
1275520397 -0.473482 -0.567622
1278394530 -0.472124 -0.564911
1281268663 -0.469909 -0.560284
1284142796 -0.470859 -0.562335
1287016929 -0.482233 -0.55391
1289891062 -0.489801 -0.543046
1292765195 -0.490162 -0.54279
1295639328 -0.489589 -0.548786
1298513461 -0.497774 -0.558382
1301387594 -0.509119 -0.565963
1304261727 -0.518088 -0.568044
1307135860 -0.529223 -0.558636
1310009993 -0.527497 -0.550742
1312884126 -0.531811 -0.550989
1315758259 -0.535631 -0.547722
1318632392 -0.545865 -0.539063
1321506525 -0.559433 -0.53387
1324380658 -0.566456 -0.526745
1327254791 -0.573773 -0.521767
1330128924 -0.568971 -0.520142
1333003057 -0.569984 -0.520194
1335877190 -0.572751 -0.522158
1338751323 -0.577255 -0.521243
1341625456 -0.579449 -0.511778
1344499589 -0.580872 -0.502154
1347373722 -0.580137 -0.498898
1350247855 -0.602827 -0.492434
1353121988 -0.622054 -0.487803
1355996121 -0.623679 -0.471227
1358870254 -0.621818 -0.456301
1361744387 -0.617201 -0.456975
1364618520 -0.621132 -0.454277
1367492653 -0.618534 -0.448401
1370366786 -0.620499 -0.44181
1373240919 -0.624836 -0.429267
1376115052 -0.617872 -0.418871
1378989185 -0.623469 -0.416296
1381863318 -0.636723 -0.414952
1384737451 -0.647264 -0.40633
1387611584 -0.652012 -0.39911
1390485717 -0.650367 -0.390143
1393359850 -0.65061 -0.387215
1396233983 -0.653697 -0.377425
1399108116 -0.649159 -0.359881
1401982249 -0.630162 -0.35074
1404856382 -0.6171 -0.357386
1407730515 -0.637435 -0.359703
1410604648 -0.651186 -0.350465
1413478781 -0.654471 -0.342996
1416352914 -0.667193 -0.331763
1419227047 -0.668725 -0.319019
1422101180 -0.665718 -0.317437
1424975313 -0.669054 -0.298044
1427849446 -0.655955 -0.291563
1430723579 -0.640676 -0.277266
1433597712 -0.630717 -0.277591
1436471845 -0.634266 -0.289104
1439345978 -0.643427 -0.283688
1442220111 -0.645123 -0.281337
1445094244 -0.645465 -0.281867
1447968377 -0.654499 -0.283284
1450842510 -0.655492 -0.279808
1453716643 -0.655485 -0.268849
1456590776 -0.649799 -0.262503
1459464909 -0.648872 -0.257633
1462339042 -0.640664 -0.248725
1465213175 -0.634883 -0.236966
1468087308 -0.63615 -0.240486
1470961441 -0.641855 -0.237526
1473835574 -0.645608 -0.234615
1476709707 -0.637913 -0.232845
1479583840 -0.634122 -0.23176
1482457973 -0.637114 -0.240091
1485332106 -0.64203 -0.234627
1488206239 -0.641263 -0.226848
1491080372 -0.639395 -0.219881
1493954505 -0.642562 -0.216553
1496828638 -0.650101 -0.212825
1499702771 -0.651014 -0.205307
1502576904 -0.644081 -0.20062
1505451037 -0.636962 -0.203054
1508325170 -0.63549 -0.212618
1511199303 -0.632828 -0.221115
1514073436 -0.645692 -0.213692
1516947569 -0.640204 -0.204681
1519821702 -0.635467 -0.205787
1522695835 -0.632237 -0.208114
1525569968 -0.648298 -0.20198
1528444101 -0.658512 -0.200182
1531318234 -0.665364 -0.188411
1534192367 -0.663761 -0.183158
1537066500 -0.656151 -0.167768
1539940633 -0.647009 -0.173846
1542814766 -0.640371 -0.175598
1545688899 -0.635759 -0.178884
1548563032 -0.637412 -0.183231
1551437165 -0.654531 -0.154015
1554311298 -0.665674 -0.164351
1557185431 -0.673557 -0.169326
1560059564 -0.67968 -0.163394
1562933697 -0.688018 -0.152412
1565807830 -0.683433 -0.121802
1568681963 -0.671814 -0.131161
1571556096 -0.656684 -0.128808
1574430229 -0.642491 -0.138945
1577304362 -0.651638 -0.143478
1580178495 -0.661253 -0.136916
1583052628 -0.675426 -0.134269
1585926761 -0.682396 -0.130462
1588800894 -0.688243 -0.1254
1591675027 -0.694977 -0.117837
1594549160 -0.693311 -0.105155
1597423293 -0.6957 -0.099062
1600297426 -0.687092 -0.089306
1603171559 -0.679255 -0.08302
1606045692 -0.676005 -0.086274
1608919825 -0.676076 -0.075635
1611793958 -0.680263 -0.078288
1614668091 -0.684984 -0.073402
1617542224 -0.696491 -0.069449
1620416357 -0.704636 -0.062762
1623290490 -0.702632 -0.056534
1626164623 -0.706294 -0.048418
1629038756 -0.700277 -0.04126
1631912889 -0.688956 -0.031924
1634787022 -0.684099 -0.01851
1637661155 -0.678067 -0.023482
1640535288 -0.691637 -0.027981
1643409421 -0.703566 -0.015972
1646283554 -0.710423 -0.002952
1649157687 -0.707956 0.007545
1652031820 -0.699419 0.016064
1654905953 -0.687252 0.01503
1657780086 -0.682426 0.01511
1660654219 -0.684062 0.014895
1663528352 -0.682275 0.020063
1666402485 -0.679529 0.023454
1669276618 -0.687462 0.033234
1672150751 -0.700168 0.0395
1675024884 -0.70376 0.050129
1677899017 -0.702657 0.060978
1680773150 -0.689448 0.069696
1683647283 -0.684525 0.068163
1686521416 -0.675942 0.065971
1689395549 -0.674822 0.064508
1692269682 -0.678424 0.070814
1695143815 -0.666993 0.083411
1698017948 -0.668766 0.085155
1700892081 -0.676935 0.088818
1703766214 -0.68467 0.091798
1706640347 -0.679145 0.103299
1709514480 -0.676369 0.106266
1712388613 -0.668201 0.105424
1715262746 -0.666552 0.10294
1718136879 -0.659219 0.106384
1721011012 -0.654639 0.103276
1723885145 -0.649768 0.110395
1726759278 -0.660185 0.118091
1729633411 -0.663055 0.127186
1732507544 -0.657389 0.13727
1735381677 -0.6598 0.137295
1738255810 -0.65726 0.140596
1741129943 -0.657885 0.149083
1744004076 -0.647204 0.148995
1746878209 -0.635402 0.146549
1749752342 -0.626876 0.140345
1752626475 -0.630667 0.134
1755500608 -0.635651 0.147004
1758374741 -0.643769 0.149816
1761248874 -0.656728 0.152838
1764123007 -0.660479 0.167649
1766997140 -0.652236 0.176013
1769871273 -0.648414 0.175192
1772745406 -0.636775 0.178205
1775619539 -0.634208 0.172655
1778493672 -0.630024 0.177341
1781367805 -0.628436 0.172808
1784241938 -0.628139 0.18385
1787116071 -0.626303 0.187846
1789990204 -0.631589 0.187884
1792864337 -0.641554 0.189826
1795738470 -0.640562 0.201654
1798612603 -0.642414 0.205748
1801486736 -0.637674 0.21512
1804360869 -0.631522 0.225511
1807235002 -0.624686 0.229096
1810109135 -0.615323 0.230566
1812983268 -0.610489 0.229204
1815857401 -0.62449 0.228881
1818731534 -0.626825 0.235098
1821605667 -0.625356 0.242513
1824479800 -0.636439 0.237161
1827353933 -0.648601 0.245176
1830228066 -0.640536 0.263978
1833102199 -0.632655 0.271447
1835976332 -0.615395 0.262823
1838850465 -0.599787 0.25874
1841724598 -0.617799 0.239683
1844598731 -0.619683 0.261157
1847472864 -0.619384 0.278273
1850346997 -0.622314 0.276185
1853221130 -0.624303 0.279783
1856095263 -0.625181 0.285441
1858969396 -0.615196 0.294555
1861843529 -0.613257 0.290118
1864717662 -0.607771 0.302335
1867591795 -0.595603 0.297374
1870465928 -0.589522 0.304945
1873340061 -0.589609 0.313279
1876214194 -0.592944 0.304615
1879088327 -0.605997 0.311006
1881962460 -0.608562 0.32433
1884836593 -0.605904 0.334485
1887710726 -0.597149 0.334819
1890584859 -0.597528 0.332254
1893458992 -0.59129 0.339462
1896333125 -0.580414 0.350342
1899207258 -0.571741 0.342348
1902081391 -0.576526 0.349498
1904955524 -0.580925 0.35923
1907829657 -0.575123 0.366614
1910703790 -0.570099 0.365315
1913577923 -0.571989 0.36891
1916452056 -0.56478 0.373889
1919326189 -0.562056 0.369773
1922200322 -0.55463 0.367271
1925074455 -0.543954 0.372354
1927948588 -0.541866 0.372919
1930822721 -0.544066 0.386417
1933696854 -0.544855 0.39529
1936570987 -0.536948 0.401948
1939445120 -0.533852 0.403941
1942319253 -0.533137 0.404164
1945193386 -0.52791 0.403258
1948067519 -0.522582 0.410868
1950941652 -0.517126 0.411875
1953815785 -0.507495 0.413331
1956689918 -0.500942 0.412191
1959564051 -0.502954 0.420947
1962438184 -0.499861 0.434442
1965312317 -0.494625 0.439162
1968186450 -0.492166 0.437139
1971060583 -0.493514 0.439176
1973934716 -0.505583 0.429815
1976808849 -0.480714 0.450483
1979682982 -0.472953 0.45164
1982557115 -0.464604 0.444451
1985431248 -0.459581 0.448068
1988305381 -0.451981 0.456423
1991179514 -0.45514 0.457312
1994053647 -0.45439 0.46537
1996927780 -0.450838 0.475846
1999801913 -0.441629 0.477513
2002676046 -0.432471 0.479807
2005550179 -0.422907 0.47932
2008424312 -0.420563 0.471425
2011298445 -0.41644 0.473111
2014172578 -0.402399 0.472121
2017046711 -0.400287 0.47177
2019920844 -0.393161 0.488591
2022794977 -0.400683 0.483964
2025669110 -0.386954 0.494339
2028543243 -0.372052 0.48934
2031417376 -0.366591 0.479289
