# HZ S RI R 50
100000000 0.969322 -0.25716
102874133 0.97221 -0.264711
105748266 0.968075 -0.270272
108622399 0.97962 -0.278421
111496532 0.97783 -0.282457
114370665 0.963983 -0.30855
117244798 0.974082 -0.297934
120118931 0.970082 -0.301771
122993064 0.963902 -0.308056
125867197 0.958058 -0.308733
128741330 0.994493 -0.262907
131615463 0.959739 -0.307274
134489596 0.960233 -0.335159
137363729 0.931862 -0.368901
140237862 0.934463 -0.376049
143111995 0.94105 -0.36302
145986128 0.962649 -0.33752
148860261 0.925002 -0.389101
151734394 0.932972 -0.378383
154608527 0.92676 -0.381939
157482660 0.919943 -0.385578
160356793 0.917952 -0.397119
163230926 0.920104 -0.405076
166105059 0.87915 -0.455459
168979192 0.919716 -0.421165
171853325 0.91606 -0.430576
174727458 0.909279 -0.439879
177601591 0.903747 -0.444432
180475724 0.897094 -0.452691
183349857 0.885984 -0.457983
186223990 0.874913 -0.4652
189098123 0.875243 -0.473381
191972256 0.8814 -0.482589
194846389 0.883429 -0.491088
197720522 0.885767 -0.497577
200594655 0.885879 -0.503335
203468788 0.884541 -0.509063
206342921 0.87746 -0.513037
209217054 0.872809 -0.51388
212091187 0.866796 -0.519263
214965320 0.854993 -0.521077
217839453 0.853719 -0.530364
220713586 0.857699 -0.540343
223587719 0.861328 -0.549152
226461852 0.861067 -0.555839
229335985 0.857468 -0.562587
232210118 0.854779 -0.567322
235084251 0.849069 -0.571987
237958384 0.841249 -0.577648
240832517 0.831162 -0.578693
243706650 0.818914 -0.582211
246580783 0.81476 -0.589646
249454916 0.81842 -0.600809
252329049 0.820587 -0.611473
255203182 0.818026 -0.618762
258077315 0.818569 -0.626048
260951448 0.812878 -0.632526
263825581 0.807343 -0.636286
266699714 0.798035 -0.639278
269573847 0.788553 -0.640766
272447980 0.776662 -0.641037
275322113 0.771032 -0.648449
278196246 0.774163 -0.659613
281070379 0.774651 -0.670397
283944512 0.774998 -0.678061
286818645 0.773853 -0.685333
289692778 0.769704 -0.688681
292566911 0.764334 -0.691945
295441044 0.759341 -0.694962
298315177 0.748919 -0.692555
301189310 0.737837 -0.692488
304063443 0.727348 -0.699405
306937576 0.727481 -0.711191
309811709 0.726755 -0.721502
312685842 0.723312 -0.730249
315559975 0.717087 -0.738109
318434108 0.71274 -0.743091
321308241 0.703485 -0.747274
324182374 0.693366 -0.752191
327056507 0.68395 -0.753971
329930640 0.672688 -0.752206
332804773 0.661171 -0.75513
335678906 0.659316 -0.767511
338553039 0.656978 -0.77813
341427172 0.656136 -0.78688
344301305 0.65013 -0.793617
347175438 0.644185 -0.79777
350049571 0.637338 -0.801644
352923704 0.629397 -0.80269
355797837 0.621444 -0.80265
358671970 0.609943 -0.804374
361546103 0.598816 -0.805139
364420236 0.596299 -0.817182
367294369 0.591071 -0.828359
370168502 0.588509 -0.8345
373042635 0.582857 -0.841955
375916768 0.579493 -0.847884
378790901 0.573272 -0.852042
381665034 0.563565 -0.85209
384539167 0.555771 -0.852592
387413300 0.547188 -0.851436
390287433 0.534235 -0.851113
393161566 0.531635 -0.861675
396035699 0.529022 -0.871079
398909832 0.523605 -0.87896
401783965 0.463557 -0.888634
404658098 0.513166 -0.885773
407532231 0.506057 -0.888626
410406364 0.499294 -0.88943
413280497 0.485135 -0.887203
416154630 0.478784 -0.884552
419028763 0.464489 -0.880685
421902896 0.460856 -0.890595
424777029 0.457851 -0.898382
427651162 0.452994 -0.908553
430525295 0.446345 -0.916335
433399428 0.440212 -0.921326
436273561 0.432963 -0.924441
439147694 0.427019 -0.926899
442021827 0.414577 -0.925634
444895960 0.406544 -0.923357
447770093 0.395948 -0.919636
450644226 0.388784 -0.928191
453518359 0.383995 -0.935856
456392492 0.380604 -0.942244
459266625 0.374936 -0.944701
462140758 0.367545 -0.946752
465014891 0.36129 -0.948295
467889024 0.352507 -0.946461
470763157 0.342165 -0.944284
473637290 0.331571 -0.939563
476511423 0.320736 -0.931922
479385556 0.311455 -0.940019
482259689 0.307819 -0.95024
485133822 0.303044 -0.956429
488007955 0.295056 -0.962715
490882088 0.289819 -0.962672
493756221 0.281584 -0.965822
496630354 0.272991 -0.96396
499504487 0.265954 -0.963378
502378620 0.253288 -0.957946
505252753 0.243048 -0.951493
508126886 0.23419 -0.958258
511001019 0.227341 -0.966103
513875152 0.216789 -0.97345
516749285 0.210168 -0.977969
519623418 0.200315 -0.983769
522497551 0.190501 -0.984055
525371684 0.181775 -0.983119
528245817 0.173469 -0.977132
531119950 0.161669 -0.974336
533994083 0.149632 -0.966478
536868216 0.138865 -0.970687
539742349 0.132084 -0.981449
542616482 0.122602 -0.990178
545490615 0.11513 -0.991551
548364748 0.101569 -0.997995
551238881 0.095314 -0.99731
554113014 0.083241 -0.996416
556987147 0.073947 -0.990217
559861280 0.063001 -0.984846
562735413 0.054999 -0.974545
565609546 0.042673 -0.974609
568483679 0.037915 -0.980472
571357812 0.032237 -0.982552
574231945 0.027869 -0.990021
577106078 0.024663 -0.995412
579980211 0.01592 -0.998472
582854344 0.007792 -1.000248
585728477 -0.000943 -0.995751
588602610 -0.011607 -0.990595
591476743 -0.0212 -0.984476
594350876 -0.031734 -0.986332
597225009 -0.04057 -0.99593
600099142 -0.049821 -1.000734
602973275 -0.057162 -1.005328
605847408 -0.066682 -1.009496
608721541 -0.077063 -1.011589
611595674 -0.082286 -1.006983
614469807 -0.08989 -1.007116
617343940 -0.101189 -1.00066
620218073 -0.110853 -0.987945
623092206 -0.120748 -0.987769
625966339 -0.130648 -0.997946
628840472 -0.140883 -1.003227
631714605 -0.155286 -1.006263
634588738 -0.16331 -1.009672
637462871 -0.173573 -1.012045
640337004 -0.180903 -1.004627
643211137 -0.189997 -1.006699
646085270 -0.200132 -0.993002
648959403 -0.207607 -0.987609
651833536 -0.218755 -0.982096
654707669 -0.232239 -0.984102
657581802 -0.244322 -0.989776
660455935 -0.251669 -0.991759
663330068 -0.264775 -0.988254
666204201 -0.276567 -0.989069
669078334 -0.285717 -0.980972
671952467 -0.292503 -0.974102
674826600 -0.303597 -0.963677
677700733 -0.309081 -0.950696
680574866 -0.320894 -0.942093
683448999 -0.344529 -0.934857
686323132 -0.34738 -0.95091
689197265 -0.357283 -0.951919
692071398 -0.368584 -0.948238
694945531 -0.381238 -0.94944
697819664 -0.386583 -0.942999
700693797 -0.398051 -0.933438
703567930 -0.406177 -0.924483
706442063 -0.415107 -0.912232
709316196 -0.422741 -0.899681
712190329 -0.435205 -0.904073
715064462 -0.457665 -0.897768
717938595 -0.470013 -0.896537
720812728 -0.481503 -0.896757
723686861 -0.496129 -0.890022
726560994 -0.510705 -0.879663
729435127 -0.516587 -0.872363
732309260 -0.525292 -0.857879
735183393 -0.534863 -0.847567
738057526 -0.538992 -0.83082
740931659 -0.560811 -0.830778
743805792 -0.576612 -0.826448
746679925 -0.590487 -0.82267
749554058 -0.599226 -0.818404
752428191 -0.614064 -0.807745
755302324 -0.624357 -0.80116
758176457 -0.633639 -0.784968
761050590 -0.639069 -0.775767
763924723 -0.644937 -0.759348
766798856 -0.649821 -0.743328
769672989 -0.668742 -0.736577
772547122 -0.684758 -0.72884
775421255 -0.698174 -0.72056
778295388 -0.712324 -0.710523
781169521 -0.722932 -0.700227
784043654 -0.734491 -0.689898
786917787 -0.742456 -0.671511
789791920 -0.747412 -0.65709
792666053 -0.748598 -0.64061
795540186 -0.751689 -0.618977
798414319 -0.769951 -0.605827
801288452 -0.787839 -0.596605
804162585 -0.799151 -0.586783
807036718 -0.809656 -0.574471
809910851 -0.820732 -0.561317
812784984 -0.826563 -0.547396
815659117 -0.833109 -0.527785
818533250 -0.833081 -0.514023
821407383 -0.837461 -0.49262
824281516 -0.836633 -0.475224
827155649 -0.850349 -0.456122
830029782 -0.862501 -0.434623
832903915 -0.868078 -0.427873
835778048 -0.880199 -0.406975
838652181 -0.886788 -0.392171
841526314 -0.889434 -0.371884
844400447 -0.89477 -0.351617
847274580 -0.890974 -0.332136
850148713 -0.890685 -0.308997
853022846 -0.887299 -0.287358
855896979 -0.887937 -0.263762
858771112 -0.904806 -0.233983
861645245 -0.910963 -0.203398
864519378 -0.912702 -0.175214
867393511 -0.913573 -0.145674
870267644 -0.90712 -0.116906
873141777 -0.902939 -0.086832
876015910 -0.900148 -0.058473
878890043 -0.891496 -0.026534
881764176 -0.874164 0.014824
884638309 -0.858601 0.043348
887512442 -0.848997 0.076358
890386575 -0.842169 0.107156
893260708 -0.826357 0.14231
896134841 -0.80605 0.173212
899008974 -0.787163 0.201661
901883107 -0.761804 0.231426
904757240 -0.731936 0.256885
907631373 -0.707023 0.287781
910505506 -0.670964 0.319627
913379639 -0.626309 0.342604
916253772 -0.582253 0.357103
919127905 -0.553672 0.364356
922002038 -0.518356 0.378486
924876171 -0.477263 0.384019
927750304 -0.442208 0.382355
930624437 -0.403603 0.38404
933498570 -0.360412 0.373309
936372703 -0.336176 0.364303
939246836 -0.300264 0.362748
942120969 -0.259228 0.357187
944995102 -0.221739 0.341255
947869235 -0.187619 0.321221
950743368 -0.161055 0.287547
953617501 -0.156031 0.251646
956491634 -0.165924 0.247985
959365767 -0.141091 0.250994
962239900 -0.112409 0.234819
965114033 -0.080167 0.205145
967988166 -0.07489 0.166115
970862299 -0.076342 0.144678
973736432 -0.076916 0.123338
976610565 -0.08012 0.10913
979484698 -0.079833 0.085766
982358831 -0.09891 0.077439
985232964 -0.113209 0.082255
988107097 -0.098488 0.080311
990981230 -0.090181 0.069461
993855363 -0.085633 0.053503
996729496 -0.095629 0.036735
999603629 -0.10497 0.035356
1002477762 -0.112099 0.041021
1005351895 -0.100147 0.038231
1008226028 -0.113 0.024512
1011100161 -0.120241 0.034494
1013974294 -0.124461 0.031808
1016848427 -0.132008 0.041453
1019722560 -0.131619 0.051182
1022596693 -0.126517 0.061545
1025470826 -0.115758 0.061165
1028344959 -0.118232 0.065789
1031219092 -0.113394 0.080484
1034093225 -0.103832 0.093921
1036967358 -0.089622 0.097454
1039841491 -0.07817 0.10121
1042715624 -0.0547 0.110464
1045589757 -0.030999 0.099875
1048463890 -0.027845 0.08415
1051338023 -0.017924 0.087619
1054212156 -0.002806 0.076554
1057086289 -0.00608 0.063413
1059960422 -0.013873 0.080025
1062834555 0.008967 0.095056
1065708688 0.039998 0.089892
1068582821 0.052261 0.079025
1071456954 0.063554 0.072992
1074331087 0.074084 0.067123
1077205220 0.0967 0.06362
1080079353 0.116572 0.048431
1082953486 0.134515 0.031152
1085827619 0.140174 0.000851
1088701752 0.130784 -0.015236
1091575885 0.129363 -0.013323
1094450018 0.14074 -0.011587
1097324151 0.161347 -0.01269
1100198284 0.184838 -0.023979
1103072417 0.218385 -0.053188
1105946550 0.224457 -0.096007
1108820683 0.208537 -0.131544
1111694816 0.192376 -0.149608
1114568949 0.180631 -0.148082
1117443082 0.189827 -0.158623
1120317215 0.189662 -0.18334
1123191348 0.192473 -0.190966
1126065481 0.191905 -0.214331
1128939614 0.188755 -0.239783
1131813747 0.168185 -0.25439
1134687880 0.155534 -0.250569
1137562013 0.165562 -0.255457
1140436146 0.166621 -0.268226
1143310279 0.161121 -0.290797
1146184412 0.151111 -0.313284
1149058545 0.132604 -0.333864
1151932678 0.114235 -0.334212
1154806811 0.107327 -0.337325
1157680944 0.098181 -0.343493
1160555077 0.097195 -0.352222
1163429210 0.080464 -0.360742
1166303343 0.069704 -0.366226
1169177476 0.068216 -0.363941
1172051609 0.0574 -0.375758
1174925742 0.033295 -0.371362
1177799875 0.027066 -0.366633
1180674008 0.025507 -0.371193
1183548141 0.024772 -0.376187
1186422274 0.026733 -0.390632
1189296407 0.005991 -0.406734
1192170540 -0.013777 -0.398768
1195044673 -0.014884 -0.394716
1197918806 -0.025518 -0.390015
1200792939 -0.04087 -0.386677
1203667072 -0.044272 -0.387787
1206541205 -0.062844 -0.382192
1209415338 -0.063752 -0.373624
1212289471 -0.062196 -0.373204
1215163604 -0.069203 -0.38057
1218037737 -0.074335 -0.379628
1220911870 -0.08659 -0.371747
1223786003 -0.088593 -0.356261
1226660136 -0.075415 -0.351683
1229534269 -0.068776 -0.351808
1232408402 -0.062325 -0.365885
1235282535 -0.075752 -0.382716
1238156668 -0.099919 -0.391974
1241030801 -0.117165 -0.37379
1243904934 -0.115133 -0.363109
1246779067 -0.109523 -0.35417
1249653200 -0.100217 -0.363603
1252527333 -0.113362 -0.372816
1255401466 -0.1285 -0.362037
1258275599 -0.133091 -0.333169
1261149732 -0.110894 -0.315465
1264023865 -0.08084 -0.329515
1266897998 -0.064176 -0.370743
1269772131 -0.093255 -0.373178
1272646264 -0.105706 -0.381305
1275520397 -0.110898 -0.385326
1278394530 -0.120911 -0.381187
1281268663 -0.120536 -0.374251
1284142796 -0.108782 -0.375914
1287016929 -0.111145 -0.388815
1289891062 -0.129439 -0.394532
1292765195 -0.130512 -0.388268
1295639328 -0.132162 -0.391895
1298513461 -0.125653 -0.400765
1301387594 -0.129093 -0.412915
1304261727 -0.133537 -0.422092
1307135860 -0.149995 -0.426145
1310009993 -0.148238 -0.42069
1312884126 -0.147768 -0.427118
1315758259 -0.144005 -0.438451
1318632392 -0.160894 -0.452671
1321506525 -0.183598 -0.456864
1324380658 -0.194603 -0.452794
1327254791 -0.209032 -0.45182
1330128924 -0.208875 -0.44058
1333003057 -0.20702 -0.442056
1335877190 -0.214334 -0.443734
1338751323 -0.212375 -0.446467
1341625456 -0.220983 -0.443229
1344499589 -0.224225 -0.434153
1347373722 -0.215913 -0.440822
1350247855 -0.230803 -0.459049
1353121988 -0.261375 -0.468211
1355996121 -0.281994 -0.455444
1358870254 -0.292113 -0.436169
1361744387 -0.292656 -0.434576
1364618520 -0.293975 -0.427477
1367492653 -0.298701 -0.422643
1370366786 -0.304313 -0.417957
1373240919 -0.313154 -0.4099
1376115052 -0.314571 -0.394703
1378989185 -0.317055 -0.393184
1381863318 -0.321357 -0.398138
1384737451 -0.332597 -0.400305
1387611584 -0.34262 -0.392822
1390485717 -0.344271 -0.385961
1393359850 -0.348999 -0.384493
1396233983 -0.357678 -0.380474
1399108116 -0.367909 -0.363946
1401982249 -0.363035 -0.337183
1404856382 -0.337527 -0.329532
1407730515 -0.34086 -0.340283
1410604648 -0.357877 -0.348003
1413478781 -0.361715 -0.342585
1416352914 -0.371014 -0.347167
1419227047 -0.380951 -0.333466
1422101180 -0.382773 -0.328393
1424975313 -0.389351 -0.317468
1427849446 -0.393175 -0.29923
1430723579 -0.385061 -0.27934
1433597712 -0.368234 -0.27198
1436471845 -0.363725 -0.275545
1439345978 -0.368712 -0.283388
1442220111 -0.375987 -0.273481
1445094244 -0.370426 -0.263316
1447968377 -0.364852 -0.276962
1450842510 -0.359297 -0.281348
1453716643 -0.359314 -0.270338
1456590776 -0.357981 -0.265463
1459464909 -0.358594 -0.278105
1462339042 -0.363573 -0.26694
1465213175 -0.365822 -0.254042
1468087308 -0.36327 -0.254838
1470961441 -0.362068 -0.253613
1473835574 -0.361706 -0.25377
1476709707 -0.362141 -0.243748
1479583840 -0.350671 -0.24654
1482457973 -0.349462 -0.251641
1485332106 -0.349864 -0.258965
1488206239 -0.345462 -0.257124
1491080372 -0.348073 -0.254997
1493954505 -0.349717 -0.256551
1496828638 -0.354988 -0.256559
1499702771 -0.36631 -0.254265
1502576904 -0.366344 -0.246001
1505451037 -0.358097 -0.240134
1508325170 -0.348439 -0.244466
1511199303 -0.343229 -0.252572
1514073436 -0.350288 -0.26174
1516947569 -0.347502 -0.250993
1519821702 -0.33585 -0.252999
1522695835 -0.338083 -0.258945
1525569968 -0.349151 -0.262547
1528444101 -0.355319 -0.275949
1531318234 -0.367641 -0.281147
1534192367 -0.383209 -0.265287
1537066500 -0.381786 -0.249628
1539940633 -0.366425 -0.248898
1542814766 -0.362262 -0.24426
1545688899 -0.349682 -0.248571
1548563032 -0.343308 -0.255237
1551437165 -0.351327 -0.265844
1554311298 -0.363449 -0.269908
1557185431 -0.37496 -0.276096
1560059564 -0.380059 -0.274865
1562933697 -0.397647 -0.279383
1565807830 -0.409358 -0.266021
1568681963 -0.412364 -0.248839
1571556096 -0.401241 -0.238148
1574430229 -0.382814 -0.235841
1577304362 -0.374282 -0.244773
1580178495 -0.381744 -0.255626
1583052628 -0.393065 -0.257972
1585926761 -0.406963 -0.256607
1588800894 -0.408945 -0.260722
1591675027 -0.421513 -0.265559
1594549160 -0.431944 -0.253722
1597423293 -0.438041 -0.250128
1600297426 -0.440647 -0.236519
1603171559 -0.430902 -0.233486
1606045692 -0.429518 -0.237585
1608919825 -0.435291 -0.230983
1611793958 -0.442118 -0.226213
1614668091 -0.44592 -0.224005
1617542224 -0.449662 -0.230345
1620416357 -0.456383 -0.231399
1623290490 -0.463617 -0.225169
1626164623 -0.470097 -0.221302
1629038756 -0.472946 -0.214633
1631912889 -0.469221 -0.202628
1634787022 -0.464907 -0.193129
1637661155 -0.454104 -0.189409
1640535288 -0.453321 -0.203542
1643409421 -0.47173 -0.214091
1646283554 -0.488589 -0.207633
1649157687 -0.497517 -0.195816
1652031820 -0.499432 -0.181477
1654905953 -0.491986 -0.173874
1657780086 -0.479124 -0.164611
1660654219 -0.472896 -0.166409
1663528352 -0.466949 -0.165901
1666402485 -0.468788 -0.171565
1669276618 -0.478308 -0.175619
1672150751 -0.493734 -0.181272
1675024884 -0.510121 -0.173945
1677899017 -0.521183 -0.161191
1680773150 -0.512916 -0.142068
1683647283 -0.503139 -0.134614
1686521416 -0.491337 -0.13223
1689395549 -0.485996 -0.139963
1692269682 -0.487276 -0.142526
1695143815 -0.483515 -0.131338
1698017948 -0.486275 -0.133873
1700892081 -0.491715 -0.139406
1703766214 -0.504246 -0.135088
1706640347 -0.513386 -0.131018
1709514480 -0.513288 -0.121268
1712388613 -0.507832 -0.109796
1715262746 -0.499245 -0.109597
1718136879 -0.490568 -0.110775
1721011012 -0.487009 -0.112712
1723885145 -0.477631 -0.114539
1726759278 -0.49304 -0.111637
1729633411 -0.502509 -0.109602
1732507544 -0.50169 -0.105931
1735381677 -0.508988 -0.101605
1738255810 -0.509103 -0.099615
1741129943 -0.5145 -0.097755
1744004076 -0.51183 -0.08412
1746878209 -0.497136 -0.075389
1749752342 -0.479502 -0.08032
1752626475 -0.47767 -0.092354
1755500608 -0.489215 -0.096092
1758374741 -0.494756 -0.097219
1761248874 -0.507787 -0.107573
1764123007 -0.525938 -0.100258
1766997140 -0.525992 -0.085199
1769871273 -0.528916 -0.070256
1772745406 -0.516744 -0.073613
1775619539 -0.509785 -0.077599
1778493672 -0.50699 -0.072483
1781367805 -0.507235 -0.0785
1784241938 -0.512735 -0.06772
1787116071 -0.511417 -0.067678
1789990204 -0.510964 -0.069963
1792864337 -0.520188 -0.074461
1795738470 -0.530707 -0.076082
1798612603 -0.536734 -0.073081
1801486736 -0.542715 -0.061115
1804360869 -0.542357 -0.054247
1807235002 -0.54351 -0.045434
1810109135 -0.536455 -0.038346
1812983268 -0.533073 -0.028145
1815857401 -0.532612 -0.040968
1818731534 -0.540563 -0.038211
1821605667 -0.546933 -0.037577
1824479800 -0.548802 -0.048663
1827353933 -0.561702 -0.04756
1830228066 -0.571412 -0.025271
1833102199 -0.576854 -0.012597
1835976332 -0.562272 -0.004075
1838850465 -0.54949 -0.003417
1841724598 -0.544789 -0.006801
1844598731 -0.552571 -0.008003
1847472864 -0.564211 -0.007411
1850346997 -0.566879 -0.006074
1853221130 -0.56481 0.019893
1856095263 -0.575973 -0.00402
1858969396 -0.577571 0.005594
1861843529 -0.575392 0.008652
1864717662 -0.57498 0.014083
1867591795 -0.569555 0.024901
1870465928 -0.567565 0.039815
1873340061 -0.560213 0.040973
1876214194 -0.556645 0.033546
1879088327 -0.564491 0.027652
1881962460 -0.575889 0.030486
1884836593 -0.58349 0.04514
1887710726 -0.578846 0.051199
1890584859 -0.572128 0.052272
1893458992 -0.577897 0.049702
1896333125 -0.573688 0.060024
1899207258 -0.571507 0.07211
1902081391 -0.567016 0.069482
1904955524 -0.569552 0.078349
1907829657 -0.573675 0.07127
1910703790 -0.568637 0.077215
1913577923 -0.569146 0.084317
1916452056 -0.568847 0.082224
1919326189 -0.572279 0.086151
1922200322 -0.56384 0.092783
1925074455 -0.555127 0.094949
1927948588 -0.549561 0.095337
1930822721 -0.556227 0.099104
1933696854 -0.559818 0.112243
1936570987 -0.556583 0.113736
1939445120 -0.552392 0.116039
1942319253 -0.552503 0.117705
1945193386 -0.558066 0.109602
1948067519 -0.556732 0.119162
1950941652 -0.558313 0.121219
1953815785 -0.54671 0.131117
1956689918 -0.535205 0.128194
1959564051 -0.538072 0.131486
1962438184 -0.545358 0.137828
1965312317 -0.541708 0.144446
1968186450 -0.547683 0.138149
1971060583 -0.543388 0.136961
1973934716 -0.547296 0.135051
1976808849 -0.548836 0.138587
1979682982 -0.545207 0.144141
1982557115 -0.536622 0.147487
1985431248 -0.53022 0.143764
1988305381 -0.532349 0.151617
1991179514 -0.534118 0.144539
1994053647 -0.546888 0.142553
1996927780 -0.554831 0.152002
1999801913 -0.551861 0.163388
2002676046 -0.549186 0.168936
2005550179 -0.542869 0.164826
2008424312 -0.536283 0.161818
2011298445 -0.539481 0.159688
2014172578 -0.529477 0.168905
2017046711 -0.530083 0.158773
2019920844 -0.543786 0.161687
2022794977 -0.554686 0.166788
