# HZ S RI R 50
100000000 0.969923 -0.247873
102874133 0.972776 -0.25917
105748266 0.969244 -0.287002
108622399 0.995671 -0.237515
111496532 0.999899 -0.248495
114370665 0.978264 -0.288029
117244798 0.975216 -0.291971
120118931 0.971269 -0.296854
122993064 0.971175 -0.286448
125867197 0.957016 -0.306633
128741330 0.949296 -0.31157
131615463 0.953404 -0.322657
134489596 0.960296 -0.326121
137363729 0.943552 -0.344527
140237862 0.944209 -0.351047
143111995 0.945104 -0.356865
145986128 0.943736 -0.361412
148860261 0.941672 -0.367486
151734394 0.936205 -0.371106
154608527 0.89032 -0.417889
157482660 0.921807 -0.379109
160356793 0.923671 -0.388799
163230926 0.923948 -0.400432
166105059 0.923122 -0.408665
168979192 0.922454 -0.415993
171853325 0.916721 -0.423196
174727458 0.914416 -0.431444
177601591 0.907366 -0.436084
180475724 0.899771 -0.444803
183349857 0.889363 -0.450915
186223990 0.878628 -0.457176
189098123 0.880164 -0.465872
191972256 0.883519 -0.474454
194846389 0.889123 -0.481728
197720522 0.879946 -0.503679
200594655 0.891202 -0.494291
203468788 0.899506 -0.485342
206342921 0.884697 -0.503239
209217054 0.86762 -0.521696
212091187 0.870342 -0.511036
214965320 0.8597 -0.512395
217839453 0.858596 -0.520065
220713586 0.863598 -0.530495
223587719 0.863129 -0.541717
226461852 0.865866 -0.54823
229335985 0.865477 -0.551708
232210118 0.860623 -0.559512
235084251 0.85601 -0.56373
237958384 0.847423 -0.566424
240832517 0.838531 -0.568742
243706650 0.826484 -0.572136
246580783 0.821715 -0.579405
249454916 0.824258 -0.590995
252329049 0.827259 -0.599313
255203182 0.825936 -0.607733
258077315 0.824441 -0.616133
260951448 0.820957 -0.620039
263825581 0.814762 -0.624681
266699714 0.807199 -0.627748
269573847 0.797716 -0.62848
272447980 0.784824 -0.632178
275322113 0.7782 -0.636737
278196246 0.781975 -0.650519
281070379 0.785633 -0.660362
283944512 0.784982 -0.66648
286818645 0.78399 -0.672684
289692778 0.779617 -0.678014
292566911 0.775181 -0.679353
295441044 0.769677 -0.681753
298315177 0.759104 -0.683253
301189310 0.747987 -0.682386
304063443 0.73916 -0.68464
306937576 0.736384 -0.696301
309811709 0.736034 -0.711439
312685842 0.7341 -0.718123
315559975 0.728217 -0.726994
318434108 0.722663 -0.733819
321308241 0.713842 -0.735337
324182374 0.707574 -0.738605
327056507 0.697951 -0.741061
329930640 0.686282 -0.741003
332804773 0.673809 -0.744764
335678906 0.673886 -0.758327
338553039 0.673544 -0.765401
341427172 0.667424 -0.775182
344301305 0.666227 -0.780024
347175438 0.660029 -0.787521
350049571 0.651782 -0.790957
352923704 0.645202 -0.792571
355797837 0.63446 -0.791275
358671970 0.623179 -0.789123
361546103 0.614648 -0.792263
364420236 0.612421 -0.802898
367294369 0.610141 -0.813906
370168502 0.607023 -0.822769
373042635 0.603637 -0.828415
375916768 0.597013 -0.835535
378790901 0.590031 -0.83795
381665034 0.582332 -0.838771
384539167 0.574256 -0.838741
387413300 0.563645 -0.83824
390287433 0.499317 -0.854149
393161566 0.550764 -0.849622
396035699 0.54884 -0.857977
398909832 0.544237 -0.863633
401783965 0.540299 -0.871005
404658098 0.53494 -0.875247
407532231 0.527489 -0.874707
410406364 0.52026 -0.877914
413280497 0.511158 -0.87285
416154630 0.500782 -0.873057
419028763 0.491096 -0.869117
421902896 0.483753 -0.880032
424777029 0.48193 -0.893147
427651162 0.479073 -0.898503
430525295 0.46939 -0.906047
433399428 0.46441 -0.907476
436273561 0.458752 -0.911752
439147694 0.452437 -0.91245
442021827 0.441301 -0.91492
444895960 0.429321 -0.911773
447770093 0.421883 -0.907766
450644226 0.414598 -0.917784
453518359 0.410018 -0.925392
456392492 0.407515 -0.93289
459266625 0.406331 -0.935751
462140758 0.396328 -0.938184
465014891 0.390201 -0.939481
467889024 0.380729 -0.936703
470763157 0.372402 -0.931627
473637290 0.359621 -0.928044
476511423 0.348914 -0.921864
479385556 0.341582 -0.928832
482259689 0.337533 -0.940332
485133822 0.332355 -0.945392
488007955 0.328889 -0.95187
490882088 0.32115 -0.954522
493756221 0.314034 -0.957348
496630354 0.306993 -0.955823
499504487 0.296952 -0.953863
502378620 0.284462 -0.949915
505252753 0.277512 -0.943215
508126886 0.266373 -0.950352
511001019 0.25981 -0.957802
513875152 0.253925 -0.963677
516749285 0.245532 -0.970425
519623418 0.237782 -0.97387
522497551 0.23005 -0.973662
525371684 0.221195 -0.974807
528245817 0.210248 -0.971087
531119950 0.199876 -0.967523
533994083 0.186637 -0.960751
536868216 0.175707 -0.968535
539742349 0.170141 -0.974986
542616482 0.160722 -0.982371
545490615 0.15236 -0.985292
548364748 0.143531 -0.98645
551238881 0.138003 -0.986829
554113014 0.129891 -0.98668
556987147 0.119778 -0.979474
559861280 0.112425 -0.976005
562735413 0.10708 -0.968111
565609546 0.102365 -0.972001
568483679 0.094402 -0.983761
571357812 0.085904 -0.991188
574231945 0.08088 -0.995829
577106078 0.069398 -1.003329
579980211 0.06262 -1.005937
582854344 0.058402 -1.002912
585728477 0.05033 -1.000874
588602610 0.041231 -0.994877
591476743 0.015535 -0.984646
594350876 0.022766 -0.990091
597225009 0.011934 -0.998403
600099142 -0.000557 -1.003815
602973275 -0.019391 -1.006501
605847408 -0.011921 -1.013602
608721541 -0.005689 -1.017901
611595674 -0.028937 -1.013666
614469807 -0.052911 -1.008338
617343940 -0.042852 -1.005986
620218073 -0.02 -1.003773
623092206 -0.061637 -0.995632
625966339 -0.071022 -1.00555
628840472 -0.084482 -1.012304
631714605 -0.08933 -1.015525
634588738 -0.098982 -1.01798
637462871 -0.107114 -1.020265
640337004 -0.114517 -1.01701
643211137 -0.126135 -1.013639
646085270 -0.131768 -1.006314
648959403 -0.142285 -1.003992
651833536 -0.151145 -0.996603
654707669 -0.162147 -1.001967
657581802 -0.170328 -1.007487
660455935 -0.181768 -1.008496
663330068 -0.191788 -1.007346
666204201 -0.200151 -1.00456
669078334 -0.210559 -1.003764
671952467 -0.21406 -0.997882
674826600 -0.2244 -0.987177
677700733 -0.232643 -0.977503
680574866 -0.243501 -0.966529
683448999 -0.328988 -0.927158
686323132 -0.265979 -0.978101
689197265 -0.275035 -0.982622
692071398 -0.286385 -0.981086
694945531 -0.294238 -0.977536
697819664 -0.310229 -0.973091
700693797 -0.309794 -0.967032
703567930 -0.321837 -0.959519
706442063 -0.328955 -0.948132
709316196 -0.337066 -0.939178
712190329 -0.351454 -0.941274
715064462 -0.362545 -0.944104
717938595 -0.376951 -0.945044
720812728 -0.390248 -0.940518
723686861 -0.398098 -0.940572
726560994 -0.414539 -0.933642
729435127 -0.420894 -0.92493
732309260 -0.427822 -0.916735
735183393 -0.439256 -0.90352
738057526 -0.448833 -0.88844
740931659 -0.4561 -0.893148
743805792 -0.472003 -0.894177
746679925 -0.486882 -0.891395
749554058 -0.498288 -0.890653
752428191 -0.50818 -0.8831
755302324 -0.518043 -0.876451
758176457 -0.523251 -0.863377
761050590 -0.534349 -0.852931
763924723 -0.538749 -0.842735
766798856 -0.542357 -0.828781
769672989 -0.559598 -0.827638
772547122 -0.574549 -0.823802
775421255 -0.586762 -0.820384
778295388 -0.600007 -0.813795
781169521 -0.609906 -0.806796
784043654 -0.617 -0.796391
786917787 -0.627977 -0.786427
789791920 -0.632056 -0.773854
792666053 -0.642028 -0.758893
795540186 -0.6427 -0.74268
798414319 -0.656242 -0.737902
801288452 -0.668561 -0.732413
804162585 -0.68245 -0.729622
807036718 -0.694647 -0.7212
809910851 -0.702784 -0.713741
812784984 -0.712349 -0.704068
815659117 -0.720924 -0.691322
818533250 -0.721758 -0.676314
821407383 -0.721663 -0.661932
824281516 -0.722718 -0.643979
827155649 -0.734541 -0.637218
830029782 -0.74804 -0.628116
832903915 -0.761173 -0.625218
835778048 -0.770067 -0.613826
838652181 -0.779079 -0.603912
841526314 -0.781865 -0.589242
844400447 -0.788339 -0.577346
847274580 -0.78596 -0.565286
850148713 -0.787823 -0.549407
853022846 -0.788214 -0.529588
855896979 -0.798591 -0.513465
858771112 -0.810915 -0.498268
861645245 -0.823622 -0.479603
864519378 -0.839357 -0.465356
867393511 -0.845059 -0.447308
870267644 -0.854268 -0.423638
873141777 -0.856597 -0.405894
876015910 -0.858956 -0.378909
878890043 -0.855779 -0.35688
881764176 -0.855494 -0.334138
884638309 -0.865102 -0.313662
887512442 -0.872619 -0.294193
890386575 -0.87806 -0.269062
893260708 -0.883137 -0.242831
896134841 -0.882715 -0.212858
899008974 -0.880079 -0.185422
901883107 -0.875064 -0.159459
904757240 -0.866582 -0.128376
907631373 -0.852498 -0.099098
910505506 -0.830986 -0.076126
913379639 -0.819634 -0.051926
916253772 -0.819563 -0.03007
919127905 -0.810434 -0.006539
922002038 -0.792894 0.015207
924876171 -0.784254 0.037292
927750304 -0.761995 0.05818
930624437 -0.742849 0.075353
933498570 -0.712988 0.097033
936372703 -0.680652 0.110796
939246836 -0.651582 0.11589
942120969 -0.626663 0.12091
944995102 -0.620113 0.124671
947869235 -0.605962 0.143383
950743368 -0.577718 0.156706
953617501 -0.544204 0.167531
956491634 -0.498918 0.163453
959365767 -0.473967 0.132338
962239900 -0.464468 0.112042
965114033 -0.465044 0.102193
967988166 -0.450565 0.109092
970862299 -0.426639 0.102371
973736432 -0.42546 0.088943
976610565 -0.425368 0.088569
979484698 -0.426508 0.089646
982358831 -0.409064 0.096276
985232964 -0.3924 0.091333
988107097 -0.374654 0.077679
990981230 -0.364872 0.055815
993855363 -0.366449 0.04118
996729496 -0.373188 0.033499
999603629 -0.373119 0.033904
1002477762 -0.381854 0.033316
1005351895 -0.392017 0.039638
1008226028 -0.387898 0.043826
1011100161 -0.393681 0.027726
1013974294 -0.411317 0.037309
1016848427 -0.420714 0.049658
1019722560 -0.418458 0.076034
1022596693 -0.406666 0.091856
1025470826 -0.393718 0.104979
1028344959 -0.373261 0.111455
1031219092 -0.36165 0.112354
1034093225 -0.361942 0.114337
1036967358 -0.351083 0.116719
1039841491 -0.345989 0.116172
1042715624 -0.349603 0.109658
1045589757 -0.364958 0.121627
1048463890 -0.35504 0.150678
1051338023 -0.334797 0.161295
1054212156 -0.320665 0.166675
1057086289 -0.299243 0.177042
1059960422 -0.282803 0.179325
1062834555 -0.274088 0.181025
1065708688 -0.270343 0.18761
1068582821 -0.259091 0.197029
1071456954 -0.241496 0.208923
1074331087 -0.217964 0.217797
1077205220 -0.20211 0.214571
1080079353 -0.183802 0.215796
1082953486 -0.170403 0.214492
1085827619 -0.154052 0.227897
1088701752 -0.12411 0.237249
1091575885 -0.083591 0.232667
1094450018 -0.052908 0.21659
1097324151 -0.032853 0.182739
1100198284 -0.032841 0.159904
1103072417 -0.042197 0.15543
1105946550 -0.036683 0.165612
1108820683 -0.009209 0.173332
1111694816 0.026493 0.163002
1114568949 0.059339 0.130711
1117443082 0.068389 0.10112
1120317215 0.073518 0.078001
1123191348 0.064683 0.053243
1126065481 0.076538 0.047658
1128939614 0.073311 0.02753
1131813747 0.082687 0.01316
1134687880 0.087817 -0.013028
1137562013 0.074699 -0.030905
1140436146 0.075169 -0.037998
1143310279 0.069167 -0.048422
1146184412 0.072104 -0.049702
1149058545 0.084415 -0.0634
1151932678 0.091253 -0.091174
1154806811 0.078793 -0.117661
1157680944 0.071581 -0.124994
1160555077 0.064433 -0.127248
1163429210 0.063485 -0.136422
1166303343 0.067898 -0.152155
1169177476 0.059987 -0.171834
1172051609 0.047894 -0.183873
1174925742 0.032822 -0.195528
1177799875 0.013719 -0.203555
1180674008 0.002872 -0.198924
1183548141 -0.005944 -0.19821
1186422274 -0.001896 -0.192424
1189296407 0.002862 -0.205183
1192170540 -0.006685 -0.222306
1195044673 -0.032105 -0.220208
1197918806 -0.033403 -0.205677
1200792939 -0.024672 -0.207131
1203667072 -0.027205 -0.215068
1206541205 -0.027849 -0.229323
1209415338 -0.049585 -0.238595
1212289471 -0.061171 -0.23732
1215163604 -0.072732 -0.225015
1218037737 -0.070483 -0.220147
1220911870 -0.064311 -0.219047
1223786003 -0.061836 -0.236914
1226660136 -0.083741 -0.243102
1229534269 -0.095995 -0.229224
1232408402 -0.106887 -0.21303
1235282535 -0.094576 -0.196062
1238156668 -0.076404 -0.20226
1241030801 -0.07493 -0.220578
1243904934 -0.093657 -0.233501
1246779067 -0.101378 -0.219697
1249653200 -0.105049 -0.208502
1252527333 -0.08961 -0.194673
1255401466 -0.070858 -0.209369
1258275599 -0.078554 -0.225368
1261149732 -0.126144 -0.207104
1264023865 -0.111656 -0.208598
1266897998 -0.090562 -0.199309
1269772131 -0.079214 -0.211349
1272646264 -0.080796 -0.220312
1275520397 -0.078732 -0.222353
1278394530 -0.073351 -0.229041
1281268663 -0.077216 -0.238925
1284142796 -0.083706 -0.23896
1287016929 -0.080782 -0.237887
1289891062 -0.074626 -0.241068
1292765195 -0.081184 -0.255715
1295639328 -0.087077 -0.255776
1298513461 -0.080837 -0.257148
1301387594 -0.073037 -0.27202
1304261727 -0.078345 -0.28337
1307135860 -0.081528 -0.300078
1310009993 -0.101993 -0.300696
1312884126 -0.100208 -0.298633
1315758259 -0.108471 -0.291671
1318632392 -0.096438 -0.28695
1321506525 -0.087367 -0.304846
1324380658 -0.091954 -0.325205
1327254791 -0.101282 -0.341349
1330128924 -0.117679 -0.349528
1333003057 -0.138016 -0.355056
1335877190 -0.141316 -0.343244
1338751323 -0.139462 -0.346152
1341625456 -0.14987 -0.355561
1344499589 -0.167457 -0.35236
1347373722 -0.174567 -0.341477
1350247855 -0.176205 -0.334996
1353121988 -0.174398 -0.337879
1355996121 -0.173266 -0.350939
1358870254 -0.192734 -0.365526
1361744387 -0.215282 -0.360545
1364618520 -0.225484 -0.341701
1367492653 -0.219925 -0.330279
1370366786 -0.220163 -0.333203
1373240919 -0.225499 -0.339084
1376115052 -0.239661 -0.336931
1378989185 -0.254969 -0.333309
1381863318 -0.258761 -0.323117
1384737451 -0.264681 -0.324375
1387611584 -0.275463 -0.322156
1390485717 -0.281075 -0.310466
1393359850 -0.275189 -0.307108
1396233983 -0.27294 -0.304834
1399108116 -0.281892 -0.320612
1401982249 -0.303651 -0.30505
1404856382 -0.3035 -0.277741
1407730515 -0.297145 -0.267951
1410604648 -0.299098 -0.276522
1413478781 -0.316721 -0.266492
1416352914 -0.312458 -0.254006
1419227047 -0.304897 -0.24441
1422101180 -0.302942 -0.25055
1424975313 -0.302277 -0.25447
1427849446 -0.312801 -0.25038
1430723579 -0.317053 -0.240496
1433597712 -0.311443 -0.229471
1436471845 -0.312324 -0.226522
1439345978 -0.312872 -0.22239
1442220111 -0.322287 -0.217284
1445094244 -0.321496 -0.207034
1447968377 -0.312847 -0.207119
1450842510 -0.31187 -0.199558
1453716643 -0.304379 -0.193564
1456590776 -0.29788 -0.196832
1459464909 -0.291912 -0.189577
1462339042 -0.281362 -0.192228
1465213175 -0.285461 -0.201056
1468087308 -0.290286 -0.202533
1470961441 -0.293094 -0.196024
1473835574 -0.298705 -0.197783
1476709707 -0.299399 -0.194798
1479583840 -0.295305 -0.179691
1482457973 -0.281946 -0.184173
1485332106 -0.280692 -0.190873
1488206239 -0.27971 -0.185686
1491080372 -0.274101 -0.186453
1493954505 -0.276115 -0.188749
1496828638 -0.276087 -0.187224
1499702771 -0.274631 -0.198062
1502576904 -0.281463 -0.199334
1505451037 -0.282594 -0.191617
1508325170 -0.277222 -0.191003
1511199303 -0.268107 -0.196393
1514073436 -0.273582 -0.201052
1516947569 -0.274829 -0.200898
1519821702 -0.272586 -0.192416
1522695835 -0.263406 -0.191308
1525569968 -0.260898 -0.199723
1528444101 -0.256907 -0.200347
1531318234 -0.255684 -0.217527
1534192367 -0.2711 -0.230932
1537066500 -0.284924 -0.227305
1539940633 -0.294485 -0.220654
1542814766 -0.295408 -0.204763
1545688899 -0.282606 -0.193232
1548563032 -0.269795 -0.195458
1551437165 -0.260913 -0.201257
1554311298 -0.26399 -0.220323
1557185431 -0.279153 -0.228188
1560059564 -0.28408 -0.22719
1562933697 -0.288711 -0.22805
1565807830 -0.294977 -0.233392
1568681963 -0.304843 -0.234793
1571556096 -0.315699 -0.221659
1574430229 -0.308371 -0.211713
1577304362 -0.300278 -0.206527
1580178495 -0.296576 -0.215838
1583052628 -0.297673 -0.223409
1585926761 -0.315339 -0.229503
1588800894 -0.321969 -0.223065
1591675027 -0.316644 -0.228743
1594549160 -0.324276 -0.234785
1597423293 -0.335753 -0.232902
1600297426 -0.347942 -0.217327
1603171559 -0.347034 -0.218652
1606045692 -0.348905 -0.206187
1608919825 -0.346289 -0.222743
1611793958 -0.357251 -0.207213
1614668091 -0.35313 -0.210305
1617542224 -0.358248 -0.202302
1620416357 -0.357317 -0.218343
1623290490 -0.364597 -0.200304
1626164623 -0.362349 -0.216023
1629038756 -0.366928 -0.207521
1631912889 -0.370438 -0.20816
1634787022 -0.378932 -0.199333
1637661155 -0.373595 -0.188233
1640535288 -0.370513 -0.186389
1643409421 -0.37616 -0.200027
1646283554 -0.385186 -0.202575
1649157687 -0.394624 -0.200764
1652031820 -0.40423 -0.196942
1654905953 -0.407652 -0.185197
1657780086 -0.406044 -0.175482
1660654219 -0.398651 -0.170653
1663528352 -0.400605 -0.160344
1666402485 -0.384515 -0.141858
1669276618 -0.382996 -0.165818
1672150751 -0.388557 -0.175083
1675024884 -0.40672 -0.183198
1677899017 -0.422615 -0.174012
1680773150 -0.424212 -0.159196
1683647283 -0.420826 -0.151686
1686521416 -0.412051 -0.157938
1689395549 -0.409577 -0.147089
1692269682 -0.412357 -0.14256
1695143815 -0.408806 -0.125281
1698017948 -0.397407 -0.1318
1700892081 -0.400782 -0.139638
1703766214 -0.407601 -0.142516
1706640347 -0.417302 -0.143231
1709514480 -0.423356 -0.143445
1712388613 -0.424253 -0.130957
1715262746 -0.419973 -0.127716
1718136879 -0.417934 -0.120183
1721011012 -0.407912 -0.114219
1723885145 -0.398538 -0.119975
1726759278 -0.402298 -0.127243
1729633411 -0.407153 -0.128182
1732507544 -0.413745 -0.127009
1735381677 -0.423248 -0.13142
1738255810 -0.427164 -0.122678
1741129943 -0.426927 -0.123121
1744004076 -0.427463 -0.114561
1746878209 -0.419383 -0.109494
1749752342 -0.41182 -0.107093
1752626475 -0.407069 -0.113875
1755500608 -0.413058 -0.109484
1758374741 -0.411749 -0.111459
1761248874 -0.419283 -0.118522
1764123007 -0.430707 -0.118161
1766997140 -0.429447 -0.114653
1769871273 -0.42768 -0.112244
1772745406 -0.432976 -0.10821
1775619539 -0.427625 -0.115908
1778493672 -0.428068 -0.115232
1781367805 -0.434639 -0.118943
1784241938 -0.446708 -0.104575
1787116071 -0.444206 -0.096745
1789990204 -0.434623 -0.097566
1792864337 -0.434733 -0.103364
1795738470 -0.445574 -0.112805
1798612603 -0.452894 -0.115421
1801486736 -0.462595 -0.103616
1804360869 -0.459075 -0.103005
1807235002 -0.468935 -0.097385
1810109135 -0.470851 -0.083955
1812983268 -0.466888 -0.073698
1815857401 -0.466558 -0.077736
1818731534 -0.468685 -0.069797
1821605667 -0.463663 -0.08656
1824479800 -0.469936 -0.091472
1827353933 -0.491169 -0.080506
1830228066 -0.501335 -0.087022
1833102199 -0.503925 -0.062263
1835976332 -0.4877 -0.062892
1838850465 -0.484245 -0.061488
1841724598 -0.485471 -0.060245
1844598731 -0.492431 -0.0595
1847472864 -0.499547 -0.06139
1850346997 -0.506404 -0.053901
1853221130 -0.505911 -0.053778
1856095263 -0.504263 -0.057794
1858969396 -0.512258 -0.050234
1861843529 -0.51299 -0.051942
1864717662 -0.518031 -0.043603
1867591795 -0.513293 -0.033542
1870465928 -0.506602 -0.018934
1873340061 -0.50997 -0.010768
1876214194 -0.496763 -0.01537
1879088327 -0.503593 -0.032681
1881962460 -0.51473 -0.035653
1884836593 -0.528617 -0.028202
1887710726 -0.530095 -0.021804
1890584859 -0.523872 -0.007484
1893458992 -0.525144 -0.006608
1896333125 -0.519407 0.000779
1899207258 -0.518152 0.005502
1902081391 -0.523417 0.0112
1904955524 -0.52028 0.01253
1907829657 -0.522233 0.013358
1910703790 -0.516 0.006755
1913577923 -0.522663 0.002543
1916452056 -0.526805 0.011629
1919326189 -0.53151 0.015912
1922200322 -0.526516 0.030085
1925074455 -0.516623 0.028671
1927948588 -0.51414 0.03408
1930822721 -0.518695 0.039945
1933696854 -0.523613 0.046225
1936570987 -0.516527 0.050464
1939445120 -0.513087 0.040992
1942319253 -0.512509 0.045734
1945193386 -0.519292 0.044608
1948067519 -0.520837 0.049474
1950941652 -0.520063 0.055685
1953815785 -0.518409 0.06239
1956689918 -0.509169 0.06989
1959564051 -0.508795 0.070537
1962438184 -0.509983 0.07091
1965312317 -0.516082 0.074219
1968186450 -0.519243 0.071774
1971060583 -0.5177 0.075411
1973934716 -0.516861 0.075069
1976808849 -0.52402 0.049665
1979682982 -0.51927 0.084372
1982557115 -0.508849 0.088948
1985431248 -0.499956 0.088761
1988305381 -0.499791 0.086101
1991179514 -0.510609 0.079605
1994053647 -0.523794 0.080235
1996927780 -0.526625 0.09399
1999801913 -0.519636 0.108932
2002676046 -0.512103 0.106717
2005550179 -0.505508 0.09641
2008424312 -0.507698 0.091924
2011298445 -0.509825 0.090736
2014172578 -0.504076 0.099474
2017046711 -0.508281 0.10314
2019920844 -0.51649 0.108038
2022794977 -0.515922 0.126785
