# HZ S RI R 50
100000000 0.971361 -0.269541
102874133 0.980842 -0.241396
105748266 0.977747 -0.268913
108622399 0.984503 -0.255506
111496532 0.97958 -0.282358
114370665 1.000277 -0.234139
117244798 0.976772 -0.291766
120118931 0.960234 -0.310836
122993064 0.967488 -0.301929
125867197 0.980464 -0.25676
128741330 0.965575 -0.277118
131615463 0.953213 -0.319264
134489596 0.957503 -0.326437
137363729 0.943389 -0.344485
140237862 0.94487 -0.351944
143111995 0.94453 -0.357024
145986128 0.944049 -0.362673
148860261 0.940425 -0.368047
151734394 0.936562 -0.373003
154608527 0.929098 -0.377741
157482660 0.92157 -0.382141
160356793 0.923088 -0.390313
163230926 0.922853 -0.40044
166105059 0.925831 -0.403784
168979192 0.921561 -0.41737
171853325 0.917769 -0.425182
174727458 0.912987 -0.431199
177601591 0.908136 -0.439276
180475724 0.898964 -0.445968
183349857 0.888997 -0.451082
186223990 0.877521 -0.457568
189098123 0.878089 -0.466739
191972256 0.88458 -0.475746
194846389 0.887169 -0.483423
197720522 0.889421 -0.489934
200594655 0.889588 -0.496435
203468788 0.88609 -0.500465
206342921 0.884072 -0.504482
209217054 0.877579 -0.508042
212091187 0.868944 -0.511041
214965320 0.859148 -0.515159
217839453 0.858804 -0.522931
220713586 0.862514 -0.533009
223587719 0.864488 -0.539325
226461852 0.865608 -0.54903
229335985 0.86332 -0.555359
232210118 0.86034 -0.559022
235084251 0.854635 -0.563069
237958384 0.846618 -0.567301
240832517 0.835577 -0.571272
243706650 0.825223 -0.571891
246580783 0.821664 -0.579889
249454916 0.823921 -0.591497
252329049 0.825641 -0.601584
255203182 0.82617 -0.609658
258077315 0.822826 -0.615976
260951448 0.819564 -0.620874
263825581 0.813841 -0.624353
266699714 0.807113 -0.62741
269573847 0.796037 -0.630146
272447980 0.785444 -0.63243
275322113 0.779693 -0.638906
278196246 0.780942 -0.650661
281070379 0.784411 -0.660782
283944512 0.785845 -0.666123
286818645 0.783639 -0.673896
289692778 0.781793 -0.678095
292566911 0.773978 -0.680785
295441044 0.768292 -0.681017
298315177 0.75645 -0.681461
301189310 0.748264 -0.68092
304063443 0.740091 -0.686041
306937576 0.73982 -0.699067
309811709 0.734133 -0.710928
312685842 0.733668 -0.719091
315559975 0.728145 -0.725622
318434108 0.721947 -0.7312
321308241 0.715031 -0.736758
324182374 0.705333 -0.737635
327056507 0.696128 -0.740504
329930640 0.684845 -0.740741
332804773 0.673321 -0.745341
335678906 0.673044 -0.756084
338553039 0.672688 -0.766838
341427172 0.668095 -0.773407
344301305 0.665181 -0.781406
347175438 0.659121 -0.788622
350049571 0.655301 -0.790872
352923704 0.6459 -0.791259
355797837 0.637239 -0.791514
358671970 0.626741 -0.791346
361546103 0.616004 -0.791577
364420236 0.614302 -0.8039
367294369 0.609455 -0.815989
370168502 0.607952 -0.823177
373042635 0.602539 -0.829338
375916768 0.595919 -0.835811
378790901 0.590716 -0.839676
381665034 0.585288 -0.840192
384539167 0.575262 -0.842121
387413300 0.564171 -0.839791
390287433 0.553843 -0.838671
393161566 0.55445 -0.857772
396035699 0.548983 -0.859486
398909832 0.542141 -0.867851
401783965 0.539687 -0.870546
404658098 0.533626 -0.875663
407532231 0.527756 -0.875659
410406364 0.518806 -0.875335
413280497 0.511353 -0.876508
416154630 0.500742 -0.873139
419028763 0.490031 -0.868378
421902896 0.485464 -0.880974
424777029 0.47849 -0.889136
427651162 0.477077 -0.900033
430525295 0.472836 -0.907199
433399428 0.464395 -0.911884
436273561 0.460548 -0.912152
439147694 0.450235 -0.915788
442021827 0.438815 -0.914777
444895960 0.431153 -0.911659
447770093 0.418202 -0.910659
450644226 0.416266 -0.917221
453518359 0.408655 -0.927304
456392492 0.408868 -0.933594
459266625 0.385249 -0.941424
462140758 0.396306 -0.938752
465014891 0.405122 -0.932801
467889024 0.380686 -0.937394
470763157 0.353859 -0.939192
473637290 0.359893 -0.928232
476511423 0.36428 -0.918871
479385556 0.3426 -0.931624
482259689 0.335893 -0.939552
485133822 0.329889 -0.947243
488007955 0.324091 -0.953616
490882088 0.319542 -0.956951
493756221 0.310109 -0.95941
496630354 0.304436 -0.955902
499504487 0.296245 -0.952459
502378620 0.286145 -0.950114
505252753 0.273143 -0.944406
508126886 0.266294 -0.950517
511001019 0.257375 -0.960111
513875152 0.250432 -0.966009
516749285 0.243856 -0.973231
519623418 0.233555 -0.974184
522497551 0.22614 -0.977114
525371684 0.215031 -0.976433
528245817 0.207749 -0.972804
531119950 0.195787 -0.968908
533994083 0.180626 -0.96392
536868216 0.177129 -0.96669
539742349 0.166123 -0.975877
542616482 0.156421 -0.982796
545490615 0.147274 -0.988024
548364748 0.138185 -0.99203
551238881 0.128759 -0.986594
554113014 0.119311 -0.985345
556987147 0.116357 -0.97685
559861280 0.110791 -0.969926
562735413 0.105862 -0.964549
565609546 0.098552 -0.971428
568483679 0.092406 -0.983671
571357812 0.085302 -0.991548
574231945 0.077857 -0.997007
577106078 0.065867 -1.00209
579980211 0.058273 -1.0055
582854344 0.052163 -1.002445
585728477 0.046884 -1.001289
588602610 0.036121 -0.995447
591476743 0.026959 -0.990133
594350876 0.017788 -0.991012
597225009 0.008215 -1.001061
600099142 -0.002549 -1.006684
602973275 -0.010793 -1.010454
605847408 -0.018575 -1.014623
608721541 -0.023151 -1.015796
611595674 -0.034484 -1.015457
614469807 -0.037767 -1.013023
617343940 -0.04701 -1.007843
620218073 -0.057068 -0.996267
623092206 -0.062818 -0.996063
625966339 -0.073853 -1.00489
628840472 -0.086393 -1.010411
631714605 -0.093676 -1.01596
634588738 -0.100988 -1.019557
637462871 -0.111367 -1.020455
640337004 -0.118884 -1.016755
643211137 -0.127437 -1.014242
646085270 -0.136366 -1.007021
648959403 -0.142583 -1.003659
651833536 -0.152571 -0.997202
654707669 -0.164623 -1.001578
657581802 -0.173493 -1.004539
660455935 -0.187345 -1.006704
663330068 -0.195382 -1.007368
666204201 -0.2038 -1.006337
669078334 -0.207685 -1.003463
671952467 -0.220661 -0.994982
674826600 -0.227538 -0.986723
677700733 -0.23851 -0.977657
680574866 -0.246797 -0.96801
683448999 -0.260093 -0.859129
686323132 -0.271055 -0.978899
689197265 -0.281227 -0.982355
692071398 -0.291569 -0.980708
694945531 -0.297438 -0.979272
697819664 -0.307732 -0.976681
700693797 -0.317681 -0.966856
703567930 -0.32563 -0.960576
706442063 -0.332392 -0.948281
709316196 -0.340057 -0.939878
712190329 -0.357274 -0.941888
715064462 -0.366451 -0.94556
717938595 -0.384897 -0.947743
720812728 -0.393653 -0.944802
723686861 -0.403922 -0.941448
726560994 -0.416195 -0.93422
729435127 -0.423001 -0.924104
732309260 -0.43324 -0.914932
735183393 -0.44379 -0.903509
738057526 -0.448487 -0.888621
740931659 -0.46924 -0.89049
743805792 -0.479968 -0.893376
746679925 -0.494182 -0.890074
749554058 -0.505709 -0.887543
752428191 -0.511237 -0.883987
755302324 -0.526984 -0.874545
758176457 -0.5321 -0.866787
761050590 -0.538645 -0.854844
763924723 -0.545752 -0.841281
766798856 -0.55088 -0.827321
769672989 -0.567731 -0.822222
772547122 -0.583547 -0.819407
775421255 -0.596725 -0.817722
778295388 -0.608241 -0.811963
781169521 -0.621303 -0.80495
784043654 -0.629963 -0.796817
786917787 -0.637087 -0.782224
789791920 -0.645106 -0.770122
792666053 -0.647439 -0.758142
795540186 -0.650255 -0.738682
798414319 -0.664127 -0.731351
801288452 -0.679698 -0.730012
804162585 -0.692647 -0.722164
807036718 -0.703107 -0.718551
809910851 -0.712001 -0.705871
812784984 -0.722863 -0.694322
815659117 -0.726764 -0.685276
818533250 -0.729254 -0.670364
821407383 -0.729864 -0.656354
824281516 -0.731882 -0.638907
827155649 -0.748451 -0.627177
830029782 -0.757587 -0.620012
832903915 -0.767139 -0.614977
835778048 -0.779256 -0.605991
838652181 -0.785596 -0.595331
841526314 -0.793427 -0.581749
844400447 -0.794261 -0.568976
847274580 -0.797999 -0.555105
850148713 -0.798048 -0.536858
853022846 -0.795515 -0.517345
855896979 -0.805126 -0.498915
858771112 -0.824535 -0.48401
861645245 -0.832931 -0.467168
864519378 -0.844136 -0.452352
867393511 -0.849872 -0.436159
870267644 -0.858787 -0.414042
873141777 -0.865584 -0.39583
876015910 -0.868044 -0.372453
878890043 -0.870738 -0.346753
881764176 -0.865261 -0.32314
884638309 -0.873779 -0.300638
887512442 -0.883051 -0.277938
890386575 -0.887371 -0.251741
893260708 -0.890435 -0.224926
896134841 -0.891851 -0.19568
899008974 -0.884708 -0.172122
901883107 -0.88127 -0.146022
904757240 -0.871185 -0.115422
907631373 -0.856915 -0.082881
910505506 -0.838534 -0.057642
913379639 -0.831578 -0.04278
916253772 -0.833347 -0.013996
919127905 -0.819742 0.011652
922002038 -0.810047 0.030354
924876171 -0.800067 0.053624
927750304 -0.782376 0.078785
930624437 -0.765686 0.108524
933498570 -0.73538 0.133301
936372703 -0.688599 0.158161
939246836 -0.642991 0.158458
942120969 -0.618857 0.150782
944995102 -0.610396 0.152317
947869235 -0.607075 0.15469
950743368 -0.595687 0.179642
953617501 -0.568813 0.207584
956491634 -0.511375 0.212381
959365767 -0.476859 0.187885
962239900 -0.455458 0.168314
965114033 -0.455679 0.152787
967988166 -0.435892 0.16607
970862299 -0.408949 0.153824
973736432 -0.403456 0.152714
976610565 -0.38885 0.144372
979484698 -0.372284 0.13805
982358831 -0.357165 0.124372
985232964 -0.345639 0.107451
988107097 -0.346536 0.094668
990981230 -0.341507 0.083467
993855363 -0.350623 0.074604
996729496 -0.345883 0.086707
999603629 -0.324345 0.085161
1002477762 -0.311932 0.071938
1005351895 -0.320363 0.056161
1008226028 -0.327294 0.049704
1011100161 -0.33888 0.033845
1013974294 -0.361532 0.04705
1016848427 -0.36055 0.066796
1019722560 -0.356043 0.075195
1022596693 -0.348742 0.084349
1025470826 -0.340649 0.097294
1028344959 -0.336124 0.10948
1031219092 -0.313351 0.122207
1034093225 -0.299846 0.125139
1036967358 -0.280226 0.11928
1039841491 -0.270642 0.100638
1042715624 -0.286651 0.088606
1045589757 -0.297702 0.106114
1048463890 -0.286037 0.129251
1051338023 -0.26031 0.131003
1054212156 -0.24074 0.134204
1057086289 -0.224023 0.132722
1059960422 -0.197694 0.121328
1062834555 -0.19479 0.106323
1065708688 -0.199366 0.095163
1068582821 -0.20775 0.094532
1071456954 -0.206882 0.10931
1074331087 -0.190798 0.114438
1077205220 -0.183349 0.106854
1080079353 -0.182093 0.10744
1082953486 -0.18396 0.118893
1085827619 -0.156817 0.138522
1088701752 -0.120187 0.137787
1091575885 -0.090754 0.105756
1094450018 -0.095309 0.069212
1097324151 -0.119165 0.049918
1100198284 -0.137049 0.067624
1103072417 -0.136499 0.081692
1105946550 -0.117295 0.088515
1108820683 -0.108537 0.091612
1111694816 -0.093039 0.088982
1114568949 -0.076628 0.078389
1117443082 -0.08117 0.067091
1120317215 -0.081603 0.065262
1123191348 -0.083565 0.072555
1126065481 -0.070656 0.07677
1128939614 -0.062488 0.08144
1131813747 -0.042593 0.076426
1134687880 -0.038189 0.055312
1137562013 -0.044955 0.057243
1140436146 -0.042276 0.066073
1143310279 -0.024325 0.075096
1146184412 -0.008078 0.087667
1149058545 0.025406 0.090056
1151932678 0.055615 0.070231
1154806811 0.073461 0.055193
1157680944 0.096103 0.034792
1160555077 0.108577 0.008587
1163429210 0.113184 -0.019594
1166303343 0.114018 -0.038312
1169177476 0.116482 -0.05036
1172051609 0.131833 -0.064029
1174925742 0.144824 -0.107395
1177799875 0.115692 -0.14116
1180674008 0.104233 -0.14444
1183548141 0.103537 -0.16814
1186422274 0.088818 -0.17904
1189296407 0.08311 -0.185022
1192170540 0.067504 -0.205568
1195044673 0.059361 -0.21469
1197918806 0.044484 -0.218443
1200792939 0.032945 -0.221171
1203667072 0.015702 -0.212234
1206541205 0.018466 -0.213778
1209415338 0.01985 -0.217596
1212289471 0.021526 -0.233772
1215163604 0.010552 -0.246191
1218037737 0.006403 -0.260251
1220911870 -0.012177 -0.270081
1223786003 -0.035394 -0.279027
1226660136 -0.058821 -0.270933
1229534269 -0.073895 -0.259804
1232408402 -0.087591 -0.240553
1235282535 -0.08721 -0.211604
1238156668 -0.064199 -0.208482
1241030801 -0.058921 -0.217282
1243904934 -0.05862 -0.218158
1246779067 -0.057085 -0.219338
1249653200 -0.042406 -0.21525
1252527333 -0.025721 -0.236809
1255401466 -0.041256 -0.26162
1258275599 -0.063955 -0.274303
1261149732 -0.100856 -0.264123
1264023865 -0.112895 -0.231356
1266897998 -0.092214 -0.207242
1269772131 -0.069938 -0.218672
1272646264 -0.070398 -0.224855
1275520397 -0.057501 -0.227855
1278394530 -0.049968 -0.242939
1281268663 -0.061039 -0.257796
1284142796 -0.069104 -0.248732
1287016929 -0.05363 -0.244627
1289891062 -0.043157 -0.269314
1292765195 -0.060276 -0.294811
1295639328 -0.086722 -0.303585
1298513461 -0.094516 -0.290428
1301387594 -0.093678 -0.291664
1304261727 -0.092399 -0.288727
1307135860 -0.081869 -0.296143
1310009993 -0.095242 -0.307722
1312884126 -0.104084 -0.298254
1315758259 -0.099658 -0.290414
1318632392 -0.08447 -0.291964
1321506525 -0.07707 -0.316271
1324380658 -0.083 -0.333303
1327254791 -0.083954 -0.356224
1330128924 -0.111345 -0.373338
1333003057 -0.133963 -0.375704
1335877190 -0.15079 -0.366901
1338751323 -0.154944 -0.358167
1341625456 -0.162878 -0.358721
1344499589 -0.173478 -0.343296
1347373722 -0.167255 -0.323562
1350247855 -0.159545 -0.333326
1353121988 -0.159142 -0.343276
1355996121 -0.163818 -0.360766
1358870254 -0.183834 -0.371543
1361744387 -0.195172 -0.370132
1364618520 -0.217556 -0.367343
1367492653 -0.218802 -0.354802
1370366786 -0.227466 -0.352354
1373240919 -0.233296 -0.348713
1376115052 -0.244461 -0.336501
1378989185 -0.253097 -0.334155
1381863318 -0.257837 -0.324704
1384737451 -0.255337 -0.327382
1387611584 -0.26579 -0.325679
1390485717 -0.266871 -0.317816
1393359850 -0.260768 -0.326862
1396233983 -0.269623 -0.329533
1399108116 -0.28346 -0.333148
1401982249 -0.306284 -0.322128
1404856382 -0.310805 -0.289669
1407730515 -0.303557 -0.277947
1410604648 -0.302474 -0.276943
1413478781 -0.302575 -0.270476
1416352914 -0.305493 -0.272328
1419227047 -0.314325 -0.261866
1422101180 -0.303798 -0.252055
1424975313 -0.292701 -0.261456
1427849446 -0.302906 -0.263875
1430723579 -0.311542 -0.254835
1433597712 -0.307398 -0.249171
1436471845 -0.31434 -0.251282
1439345978 -0.326084 -0.245303
1442220111 -0.340938 -0.232555
1445094244 -0.338723 -0.211236
1447968377 -0.32309 -0.202769
1450842510 -0.317613 -0.197132
1453716643 -0.301417 -0.192338
1456590776 -0.291274 -0.196681
1459464909 -0.28187 -0.197711
1462339042 -0.274853 -0.202584
1465213175 -0.284998 -0.212741
1468087308 -0.290204 -0.210961
1470961441 -0.292955 -0.213929
1473835574 -0.297235 -0.206545
1476709707 -0.297666 -0.210048
1479583840 -0.308311 -0.205733
1482457973 -0.305385 -0.189136
1485332106 -0.295198 -0.178801
1488206239 -0.278421 -0.172858
1491080372 -0.263741 -0.173487
1493954505 -0.25692 -0.189092
1496828638 -0.256347 -0.20266
1499702771 -0.265378 -0.216893
1502576904 -0.273324 -0.224355
1505451037 -0.292462 -0.221167
1508325170 -0.294491 -0.203716
1511199303 -0.285283 -0.197356
1514073436 -0.277384 -0.198897
1516947569 -0.272361 -0.198
1519821702 -0.268653 -0.192055
1522695835 -0.257331 -0.19481
1525569968 -0.251058 -0.198782
1528444101 -0.244034 -0.209461
1531318234 -0.247262 -0.231711
1534192367 -0.268724 -0.250128
1537066500 -0.288404 -0.246981
1539940633 -0.296248 -0.227132
1542814766 -0.301511 -0.208481
1545688899 -0.292667 -0.199186
1548563032 -0.272151 -0.198226
1551437165 -0.263422 -0.198798
1554311298 -0.259765 -0.210977
1557185431 -0.265481 -0.22498
1560059564 -0.260808 -0.228916
1562933697 -0.264475 -0.253269
1565807830 -0.291791 -0.265859
1568681963 -0.315387 -0.256349
1571556096 -0.324838 -0.239791
1574430229 -0.323174 -0.222413
1577304362 -0.310155 -0.211786
1580178495 -0.309755 -0.215646
1583052628 -0.312183 -0.215431
1585926761 -0.313188 -0.214272
1588800894 -0.308976 -0.214838
1591675027 -0.309029 -0.223962
1594549160 -0.309343 -0.232264
1597423293 -0.316896 -0.239538
1600297426 -0.330011 -0.240046
1603171559 -0.331011 -0.238369
1606045692 -0.345474 -0.246232
1608919825 -0.362244 -0.230293
1611793958 -0.372613 -0.215277
1614668091 -0.37027 -0.203963
1617542224 -0.367636 -0.202383
1620416357 -0.362701 -0.200693
1623290490 -0.363934 -0.200037
1626164623 -0.358 -0.198866
1629038756 -0.359508 -0.212475
1631912889 -0.368037 -0.201379
1634787022 -0.365981 -0.1942
1637661155 -0.356818 -0.189637
1640535288 -0.356141 -0.209263
1643409421 -0.377848 -0.216782
1646283554 -0.392848 -0.21771
1649157687 -0.408213 -0.212165
1652031820 -0.422105 -0.188411
1654905953 -0.415812 -0.169042
1657780086 -0.395123 -0.151569
1660654219 -0.3776 -0.159276
1663528352 -0.372179 -0.164784
1666402485 -0.37224 -0.17868
1669276618 -0.392906 -0.185045
1672150751 -0.406399 -0.180605
1675024884 -0.418532 -0.17785
1677899017 -0.430955 -0.165372
1680773150 -0.430326 -0.147107
1683647283 -0.420739 -0.136353
1686521416 -0.405419 -0.12941
1689395549 -0.392677 -0.139998
1692269682 -0.388345 -0.144882
1695143815 -0.388367 -0.14867
1698017948 -0.396861 -0.159875
1700892081 -0.413574 -0.161027
1703766214 -0.431093 -0.149991
1706640347 -0.439669 -0.137683
1709514480 -0.43562 -0.11734
1712388613 -0.420914 -0.113686
1715262746 -0.409039 -0.11022
1718136879 -0.39992 -0.118261
1721011012 -0.395539 -0.120295
1723885145 -0.393276 -0.12198
1726759278 -0.398176 -0.127001
1729633411 -0.403563 -0.131064
1732507544 -0.413594 -0.130716
1735381677 -0.420858 -0.132181
1738255810 -0.428765 -0.126866
1741129943 -0.432536 -0.126234
1744004076 -0.440493 -0.113619
1746878209 -0.426139 -0.092247
1749752342 -0.40198 -0.092684
1752626475 -0.3921 -0.105629
1755500608 -0.40212 -0.114107
1758374741 -0.407039 -0.112732
1761248874 -0.414656 -0.118917
1764123007 -0.422051 -0.122828
1766997140 -0.429337 -0.120423
1769871273 -0.436538 -0.117291
1772745406 -0.436444 -0.113212
1775619539 -0.435875 -0.109617
1778493672 -0.432954 -0.103032
1781367805 -0.427444 -0.105352
1784241938 -0.436532 -0.103267
1787116071 -0.435986 -0.094013
1789990204 -0.431231 -0.08901
1792864337 -0.422158 -0.09262
1795738470 -0.426402 -0.118109
1798612603 -0.44906 -0.123405
1801486736 -0.460622 -0.112093
1804360869 -0.46929 -0.103767
1807235002 -0.477582 -0.089259
1810109135 -0.465315 -0.073257
1812983268 -0.455916 -0.064987
1815857401 -0.451156 -0.072576
1818731534 -0.452595 -0.070465
1821605667 -0.45472 -0.083166
1824479800 -0.460949 -0.101824
1827353933 -0.48482 -0.102464
1830228066 -0.493447 -0.084797
1833102199 -0.490717 -0.073903
1835976332 -0.483947 -0.065207
1838850465 -0.473206 -0.063126
1841724598 -0.484801 -0.104346
1844598731 -0.483288 -0.072747
1847472864 -0.493305 -0.059883
1850346997 -0.496514 -0.062502
1853221130 -0.494687 -0.057809
1856095263 -0.491114 -0.059686
1858969396 -0.495726 -0.062247
1861843529 -0.495797 -0.062473
1864717662 -0.502695 -0.059527
1867591795 -0.502749 -0.048987
1870465928 -0.502163 -0.039732
1873340061 -0.495836 -0.037723
1876214194 -0.5029 -0.043614
1879088327 -0.515069 -0.041331
1881962460 -0.519383 -0.030114
1884836593 -0.520244 -0.022789
1887710726 -0.508778 -0.01791
1890584859 -0.505365 -0.028925
1893458992 -0.518018 -0.028994
1896333125 -0.523151 -0.009525
1899207258 -0.509172 -0.00189
1902081391 -0.510123 -0.011344
1904955524 -0.518318 -0.00738
1907829657 -0.52407 -0.009379
1910703790 -0.535519 -0.002875
1913577923 -0.530333 -0.001448
1916452056 -0.531079 0.007691
1919326189 -0.524165 0.015645
1922200322 -0.516937 0.024281
1925074455 -0.503088 0.017532
1927948588 -0.499332 0.009826
1930822721 -0.5156 0.016629
1933696854 -0.518179 0.028261
1936570987 -0.521884 0.028841
1939445120 -0.524533 0.029904
1942319253 -0.532397 0.039888
1945193386 -0.529257 0.054861
1948067519 -0.518752 0.06129
1950941652 -0.510741 0.0622
1953815785 -0.501119 0.057719
1956689918 -0.494175 0.054572
1959564051 -0.499519 0.05257
1962438184 -0.512366 0.051988
1965312317 -0.519185 0.059664
1968186450 -0.524947 0.064546
1971060583 -0.522561 0.0704
1973934716 -0.521862 0.073091
1976808849 -0.517165 0.072236
1979682982 -0.514916 0.081826
1982557115 -0.499341 0.08477
1985431248 -0.497936 0.083014
1988305381 -0.498657 0.086508
1991179514 -0.496738 0.078095
1994053647 -0.510102 0.075579
1996927780 -0.521636 0.084285
1999801913 -0.517028 0.095088
2002676046 -0.505209 0.099455
2005550179 -0.498657 0.092596
2008424312 -0.500133 0.086645
2011298445 -0.498585 0.088745
2014172578 -0.498023 0.081118
2017046711 -0.50896 0.081469
2019920844 -0.522433 0.097451
2022794977 -0.520586 0.106627
