# HZ S RI R 50
100000000 0.974904 -0.241765
102874133 0.977981 -0.248488
105748266 0.97788 -0.257997
108622399 1.006787 -0.195223
111496532 0.978358 -0.273534
114370665 0.980553 -0.279451
117244798 0.978818 -0.285758
120118931 0.978893 -0.284432
122993064 0.969285 -0.293926
125867197 0.960321 -0.298225
128741330 0.94701 -0.30198
131615463 0.954927 -0.310782
134489596 0.961773 -0.321229
137363729 0.945333 -0.336177
140237862 0.951861 -0.340234
143111995 0.947875 -0.348746
145986128 0.948311 -0.354592
148860261 0.945169 -0.358072
151734394 0.940281 -0.364048
154608527 0.935247 -0.368709
157482660 0.971781 -0.311936
160356793 0.926108 -0.380127
163230926 0.928832 -0.39001
166105059 0.929512 -0.399535
168979192 0.927165 -0.406813
171853325 0.924681 -0.414252
174727458 0.918315 -0.422124
177601591 0.912179 -0.427756
180475724 0.905227 -0.4345
183349857 0.895403 -0.439645
186223990 0.884092 -0.445612
189098123 0.884475 -0.456118
191972256 0.890998 -0.463682
194846389 0.893511 -0.471292
197720522 0.895256 -0.478401
200594655 0.897012 -0.484333
203468788 0.895332 -0.487926
206342921 0.891328 -0.491827
209217054 0.885241 -0.495072
212091187 0.876244 -0.497347
214965320 0.867484 -0.501946
217839453 0.865488 -0.50919
220713586 0.872679 -0.51748
223587719 0.873361 -0.52612
226461852 0.873583 -0.534391
229335985 0.873145 -0.540542
232210118 0.868896 -0.544858
235084251 0.864013 -0.54987
237958384 0.856779 -0.552356
240832517 0.846843 -0.556147
243706650 0.835537 -0.557035
246580783 0.832506 -0.566305
249454916 0.836657 -0.5761
252329049 0.836636 -0.587086
255203182 0.838138 -0.593396
258077315 0.835285 -0.600185
260951448 0.832337 -0.605882
263825581 0.826129 -0.610808
266699714 0.818909 -0.612116
269573847 0.808394 -0.614442
272447980 0.796285 -0.615275
275322113 0.79301 -0.622683
278196246 0.795657 -0.63414
281070379 0.798175 -0.643237
283944512 0.799018 -0.651303
286818645 0.795742 -0.658237
289692778 0.793227 -0.660858
292566911 0.789787 -0.663268
295441044 0.782272 -0.663773
298315177 0.772932 -0.664111
301189310 0.762787 -0.66522
304063443 0.755214 -0.667469
306937576 0.753005 -0.683067
309811709 0.752141 -0.69154
312685842 0.749779 -0.701003
315559975 0.747414 -0.709751
318434108 0.740353 -0.712914
321308241 0.733056 -0.719784
324182374 0.724608 -0.721181
327056507 0.714492 -0.722991
329930640 0.701095 -0.722603
332804773 0.693035 -0.726966
335678906 0.689757 -0.737424
338553039 0.690769 -0.750335
341427172 0.687827 -0.756984
344301305 0.68488 -0.765794
347175438 0.678731 -0.769287
350049571 0.67616 -0.772914
352923704 0.667505 -0.774527
355797837 0.657665 -0.773905
358671970 0.646832 -0.772122
361546103 0.636839 -0.773619
364420236 0.637725 -0.78569
367294369 0.634334 -0.794946
370168502 0.633869 -0.805943
373042635 0.626435 -0.812281
375916768 0.6238 -0.816005
378790901 0.616482 -0.821531
381665034 0.608537 -0.822983
384539167 0.60229 -0.823151
387413300 0.591648 -0.823114
390287433 0.578982 -0.821079
393161566 0.57806 -0.831516
396035699 0.575852 -0.842219
398909832 0.572098 -0.847607
401783965 0.568666 -0.852458
404658098 0.595937 -0.84275
407532231 0.556129 -0.860118
410406364 0.550184 -0.85753
413280497 0.541481 -0.859392
416154630 0.530969 -0.856551
419028763 0.517458 -0.852102
421902896 0.515461 -0.865018
424777029 0.513731 -0.873694
427651162 0.507906 -0.882667
430525295 0.501432 -0.887098
433399428 0.501452 -0.889999
436273561 0.491607 -0.895649
439147694 0.483922 -0.897624
442021827 0.474091 -0.896948
444895960 0.46593 -0.894153
447770093 0.454875 -0.891647
450644226 0.4525 -0.900382
453518359 0.448129 -0.908403
456392492 0.44684 -0.914558
459266625 0.440482 -0.920137
462140758 0.433988 -0.922827
465014891 0.429261 -0.921053
467889024 0.419994 -0.920303
470763157 0.410708 -0.916526
473637290 0.399286 -0.913159
476511423 0.388013 -0.906608
479385556 0.383502 -0.91499
482259689 0.377942 -0.923579
485133822 0.375682 -0.931298
488007955 0.369872 -0.936543
490882088 0.365119 -0.939664
493756221 0.35862 -0.943432
496630354 0.350131 -0.941654
499504487 0.34246 -0.93765
502378620 0.331923 -0.934704
505252753 0.322351 -0.928542
508126886 0.313877 -0.935437
511001019 0.307109 -0.944674
513875152 0.301945 -0.952952
516749285 0.29213 -0.959167
519623418 0.286025 -0.96127
522497551 0.277561 -0.962874
525371684 0.269607 -0.961081
528245817 0.260651 -0.959533
531119950 0.246355 -0.956349
533994083 0.237402 -0.953423
536868216 0.230463 -0.956839
539742349 0.22082 -0.96521
542616482 0.21457 -0.974285
545490615 0.210117 -0.977146
548364748 0.201971 -0.982036
551238881 0.191353 -0.982242
554113014 0.186233 -0.97977
556987147 0.178797 -0.975825
559861280 0.172355 -0.970157
562735413 0.167143 -0.963994
565609546 0.159652 -0.96941
568483679 0.152131 -0.981699
571357812 0.143227 -0.99088
574231945 0.136464 -0.995276
577106078 0.130248 -1.001242
579980211 0.126125 -1.003343
582854344 0.117714 -1.001519
585728477 0.107289 -0.995946
588602610 0.100403 -0.992505
591476743 0.095546 -0.987659
594350876 0.084881 -0.989354
597225009 0.080345 -0.999375
600099142 0.066122 -1.006127
602973275 0.064441 -1.011003
605847408 0.05495 -1.014308
608721541 0.047719 -1.014238
611595674 0.042084 -1.015614
614469807 0.038229 -1.011344
617343940 0.025211 -1.007406
620218073 0.023901 -1.003529
623092206 0.012754 -1.000034
625966339 0.004465 -1.009869
628840472 -0.002537 -1.018196
631714605 -0.01361 -1.019327
634588738 -0.021291 -1.025713
637462871 -0.02855 -1.026749
640337004 -0.033546 -1.025669
643211137 -0.038202 -1.026367
646085270 -0.052332 -1.019937
648959403 -0.056826 -1.010604
651833536 -0.066009 -1.007125
654707669 -0.076262 -1.011731
657581802 -0.082351 -1.020685
660455935 -0.090635 -1.024214
663330068 -0.100019 -1.02345
666204201 -0.110115 -1.023606
669078334 -0.116758 -1.018513
671952467 -0.124461 -1.012666
674826600 -0.1301 -1.006541
677700733 -0.142175 -0.997126
680574866 -0.148523 -0.989797
683448999 -0.158335 -0.997595
686323132 -0.168858 -1.002816
689197265 -0.176373 -1.006548
692071398 -0.184997 -1.008715
694945531 -0.194818 -1.008461
697819664 -0.200464 -1.006227
700693797 -0.203555 -1.002594
703567930 -0.217024 -0.992278
706442063 -0.222748 -0.983114
709316196 -0.229377 -0.973415
712190329 -0.241354 -0.977805
715064462 -0.252203 -0.984888
717938595 -0.268693 -0.985989
720812728 -0.27523 -0.984481
723686861 -0.269522 -0.990593
726560994 -0.298271 -0.981287
729435127 -0.319299 -0.965852
732309260 -0.311605 -0.963111
735183393 -0.303778 -0.964252
738057526 -0.327227 -0.942428
740931659 -0.359084 -0.94091
743805792 -0.349872 -0.951464
746679925 -0.34664 -0.961844
749554058 -0.374199 -0.95143
752428191 -0.384542 -0.949181
755302324 -0.391681 -0.943942
758176457 -0.395913 -0.93886
761050590 -0.402698 -0.927421
763924723 -0.410055 -0.913933
766798856 -0.418683 -0.901621
769672989 -0.430085 -0.90306
772547122 -0.443875 -0.910564
775421255 -0.45489 -0.908666
778295388 -0.466978 -0.906466
781169521 -0.475934 -0.900318
784043654 -0.481752 -0.894933
786917787 -0.489579 -0.887563
789791920 -0.495647 -0.877486
792666053 -0.500656 -0.866731
795540186 -0.503891 -0.853899
798414319 -0.517576 -0.851844
801288452 -0.532777 -0.850883
804162585 -0.538755 -0.84892
807036718 -0.547711 -0.848915
809910851 -0.558897 -0.843995
812784984 -0.561929 -0.835687
815659117 -0.567639 -0.828174
818533250 -0.575074 -0.817098
821407383 -0.576236 -0.805966
824281516 -0.574247 -0.79338
827155649 -0.587863 -0.78696
830029782 -0.598847 -0.79032
832903915 -0.607631 -0.785502
835778048 -0.614669 -0.783909
838652181 -0.623818 -0.776007
841526314 -0.626535 -0.770713
844400447 -0.631466 -0.763434
847274580 -0.632169 -0.755012
850148713 -0.636246 -0.737074
853022846 -0.633842 -0.725619
855896979 -0.643808 -0.716427
858771112 -0.661634 -0.709314
861645245 -0.673231 -0.703588
864519378 -0.685588 -0.69656
867393511 -0.694627 -0.686238
870267644 -0.70003 -0.682603
873141777 -0.71306 -0.667622
876015910 -0.723553 -0.652572
878890043 -0.726996 -0.635982
881764176 -0.723544 -0.627363
884638309 -0.741751 -0.610481
887512442 -0.754682 -0.601901
890386575 -0.76512 -0.586566
893260708 -0.774039 -0.574423
896134841 -0.783269 -0.559744
899008974 -0.7867 -0.542561
901883107 -0.792267 -0.529752
904757240 -0.797496 -0.510383
907631373 -0.79772 -0.491371
910505506 -0.796323 -0.468753
913379639 -0.800363 -0.457787
916253772 -0.814167 -0.443384
919127905 -0.818817 -0.426431
922002038 -0.825619 -0.417646
924876171 -0.831281 -0.39893
927750304 -0.830371 -0.381444
930624437 -0.831916 -0.363756
933498570 -0.825966 -0.342782
936372703 -0.810877 -0.318527
939246836 -0.796278 -0.309006
942120969 -0.793445 -0.299536
944995102 -0.800793 -0.287434
947869235 -0.806432 -0.276731
950743368 -0.809505 -0.258362
953617501 -0.802439 -0.231997
956491634 -0.78514 -0.213968
959365767 -0.762146 -0.21133
962239900 -0.749479 -0.210403
965114033 -0.747784 -0.205158
967988166 -0.738002 -0.182205
970862299 -0.721676 -0.176364
973736432 -0.722702 -0.171099
976610565 -0.718312 -0.168115
979484698 -0.719917 -0.158081
982358831 -0.708059 -0.149608
985232964 -0.693227 -0.147323
988107097 -0.685377 -0.148463
990981230 -0.676089 -0.14844
993855363 -0.668574 -0.148853
996729496 -0.665357 -0.138485
999603629 -0.65566 -0.126805
1002477762 -0.649176 -0.126737
1005351895 -0.651725 -0.133774
1008226028 -0.653687 -0.125371
1011100161 -0.648374 -0.133797
1013974294 -0.662523 -0.135393
1016848427 -0.666065 -0.128434
1019722560 -0.671176 -0.119219
1022596693 -0.669658 -0.108361
1025470826 -0.670773 -0.091944
1028344959 -0.66233 -0.072177
1031219092 -0.65441 -0.058648
1034093225 -0.652037 -0.050488
1036967358 -0.641559 -0.044035
1039841491 -0.639774 -0.050518
1042715624 -0.642747 -0.05183
1045589757 -0.65706 -0.037572
1048463890 -0.651168 -0.016481
1051338023 -0.632168 -0.001934
1054212156 -0.617093 0.005141
1057086289 -0.603449 0.013555
1059960422 -0.591173 0.019144
1062834555 -0.583484 0.012454
1065708688 -0.592816 0.010549
1068582821 -0.598809 0.020654
1071456954 -0.599581 0.037334
1074331087 -0.585279 0.051777
1077205220 -0.579196 0.052577
1080079353 -0.575144 0.06184
1082953486 -0.573641 0.070218
1085827619 -0.557313 0.097053
1088701752 -0.52998 0.1078
1091575885 -0.507653 0.099441
1094450018 -0.506947 0.082381
1097324151 -0.516529 0.072556
1100198284 -0.531996 0.081525
1103072417 -0.532478 0.093901
1105946550 -0.524852 0.109782
1108820683 -0.513092 0.121784
1111694816 -0.495739 0.130112
1114568949 -0.476605 0.124653
1117443082 -0.479172 0.126127
1120317215 -0.475902 0.144074
1123191348 -0.487309 0.127863
1126065481 -0.482564 0.132158
1128939614 -0.47781 0.154116
1131813747 -0.466993 0.164875
1134687880 -0.462615 0.156326
1137562013 -0.477133 0.149932
1140436146 -0.464448 0.183632
1143310279 -0.457382 0.189368
1146184412 -0.446536 0.226481
1149058545 -0.426861 0.254148
1151932678 -0.402384 0.25724
1154806811 -0.381416 0.271041
1157680944 -0.355396 0.279845
1160555077 -0.324883 0.284289
1163429210 -0.300511 0.281084
1166303343 -0.271775 0.275477
1169177476 -0.241206 0.268464
1172051609 -0.202443 0.258964
1174925742 -0.169691 0.225996
1177799875 -0.173982 0.195894
1180674008 -0.165455 0.192549
1183548141 -0.151361 0.165059
1186422274 -0.15925 0.14855
1189296407 -0.150476 0.145181
1192170540 -0.143636 0.122228
1195044673 -0.1459 0.105311
1197918806 -0.149173 0.094798
1200792939 -0.150832 0.089117
1203667072 -0.155765 0.095124
1206541205 -0.13985 0.08461
1209415338 -0.13301 0.070502
1212289471 -0.131517 0.046983
1215163604 -0.1396 0.033726
1218037737 -0.15029 0.016877
1220911870 -0.161031 0.010258
1223786003 -0.175161 -0.00466
1226660136 -0.197205 -0.002371
1229534269 -0.210598 0.006628
1232408402 -0.217346 0.022305
1235282535 -0.21269 0.051064
1238156668 -0.187991 0.055923
1241030801 -0.180551 0.043259
1243904934 -0.177061 0.038711
1246779067 -0.175205 0.030006
1249653200 -0.168716 0.037424
1252527333 -0.157865 0.020428
1255401466 -0.15867 0.005307
1258275599 -0.174058 -0.011185
1261149732 -0.204028 -0.00438
1264023865 -0.216007 0.034437
1266897998 -0.187014 0.066982
1269772131 -0.166107 0.057193
1272646264 -0.153272 0.048591
1275520397 -0.149896 0.041241
1278394530 -0.145589 0.028532
1281268663 -0.15005 0.02713
1284142796 -0.147804 0.029525
1287016929 -0.126052 0.036965
1289891062 -0.10541 0.01211
1292765195 -0.121325 -0.020851
1295639328 -0.153806 -0.019435
1298513461 -0.154456 0.011207
1301387594 -0.136569 0.015299
1304261727 -0.122688 0.016226
1307135860 -0.103849 0.001291
1310009993 -0.10949 -0.017024
1312884126 -0.11279 -0.011726
1315758259 -0.105108 -0.0074
1318632392 -0.081429 -0.00959
1321506525 -0.066887 -0.027012
1324380658 -0.058032 -0.052295
1327254791 -0.060668 -0.082851
1330128924 -0.078504 -0.108253
1333003057 -0.107592 -0.114041
1335877190 -0.118708 -0.108525
1338751323 -0.124162 -0.100917
1341625456 -0.124332 -0.105197
1344499589 -0.131179 -0.089291
1347373722 -0.113773 -0.081226
1350247855 -0.103936 -0.092064
1353121988 -0.0942 -0.111875
1355996121 -0.102601 -0.140623
1358870254 -0.125469 -0.154914
1361744387 -0.145781 -0.154773
1364618520 -0.165323 -0.145135
1367492653 -0.154518 -0.137603
1370366786 -0.162801 -0.145746
1373240919 -0.173404 -0.142861
1376115052 -0.177087 -0.130837
1378989185 -0.178601 -0.135085
1381863318 -0.179837 -0.134847
1384737451 -0.181623 -0.140127
1387611584 -0.189469 -0.144815
1390485717 -0.191408 -0.146809
1393359850 -0.194824 -0.156567
1396233983 -0.20936 -0.163033
1399108116 -0.227455 -0.167122
1401982249 -0.255225 -0.149375
1404856382 -0.256982 -0.110085
1407730515 -0.240867 -0.101219
1410604648 -0.237953 -0.108403
1413478781 -0.244877 -0.099501
1416352914 -0.245522 -0.095628
1419227047 -0.23646 -0.090587
1422101180 -0.22423 -0.095264
1424975313 -0.227927 -0.117784
1427849446 -0.249599 -0.113655
1430723579 -0.260923 -0.102522
1433597712 -0.261195 -0.09338
1436471845 -0.264853 -0.080393
1439345978 -0.268048 -0.076458
1442220111 -0.28074 -0.065134
1445094244 -0.272455 -0.039698
1447968377 -0.2506 -0.037839
1450842510 -0.244966 -0.038575
1453716643 -0.233091 -0.043682
1456590776 -0.234994 -0.043449
1459464909 -0.227393 -0.041881
1462339042 -0.220365 -0.044258
1465213175 -0.227558 -0.049466
1468087308 -0.228747 -0.043787
1470961441 -0.23259 -0.048988
1473835574 -0.239116 -0.040794
1476709707 -0.241043 -0.034328
1479583840 -0.236165 -0.017964
1482457973 -0.219918 -0.012215
1485332106 -0.207116 -0.014367
1488206239 -0.195606 -0.013238
1491080372 -0.183832 -0.02164
1493954505 -0.179923 -0.032695
1496828638 -0.179472 -0.04314
1499702771 -0.190522 -0.06085
1502576904 -0.206886 -0.060611
1505451037 -0.221489 -0.042015
1508325170 -0.210038 -0.024075
1511199303 -0.193636 -0.023644
1514073436 -0.181773 -0.022036
1516947569 -0.176516 -0.02622
1519821702 -0.167094 -0.020624
1522695835 -0.147906 -0.033263
1525569968 -0.143093 -0.043452
1528444101 -0.138095 -0.057897
1531318234 -0.144584 -0.083563
1534192367 -0.173343 -0.09294
1537066500 -0.19403 -0.077271
1539940633 -0.198358 -0.059686
1542814766 -0.191867 -0.036728
1545688899 -0.168392 -0.023982
1548563032 -0.139182 -0.028329
1551437165 -0.121582 -0.045339
1554311298 -0.118675 -0.069495
1557185431 -0.125582 -0.090208
1560059564 -0.129364 -0.105916
1562933697 -0.146899 -0.123287
1565807830 -0.174152 -0.129848
1568681963 -0.196087 -0.109337
1571556096 -0.202511 -0.086653
1574430229 -0.188901 -0.067685
1577304362 -0.166913 -0.066282
1580178495 -0.165095 -0.073025
1583052628 -0.149997 -0.077588
1585926761 -0.150417 -0.096085
1588800894 -0.155291 -0.103907
1591675027 -0.151272 -0.120937
1594549160 -0.165783 -0.13194
1597423293 -0.183722 -0.136693
1600297426 -0.196257 -0.131655
1603171559 -0.199696 -0.127168
1606045692 -0.211353 -0.122758
1608919825 -0.216362 -0.108681
1611793958 -0.212881 -0.095667
1614668091 -0.201028 -0.093434
1617542224 -0.196104 -0.098949
1620416357 -0.192066 -0.110468
1623290490 -0.194825 -0.113558
1626164623 -0.19193 -0.124496
1629038756 -0.203616 -0.131957
1631912889 -0.210325 -0.121698
1634787022 -0.208631 -0.11891
1637661155 -0.201425 -0.124102
1640535288 -0.210811 -0.138436
1643409421 -0.22417 -0.142995
1646283554 -0.245206 -0.136866
1649157687 -0.254506 -0.123754
1652031820 -0.254255 -0.101849
1654905953 -0.239441 -0.090402
1657780086 -0.220089 -0.091147
1660654219 -0.210577 -0.107108
1663528352 -0.214825 -0.114919
1666402485 -0.221908 -0.128404
1669276618 -0.242245 -0.131491
1672150751 -0.256588 -0.128194
1675024884 -0.267538 -0.114112
1677899017 -0.274517 -0.099628
1680773150 -0.257345 -0.079079
1683647283 -0.243582 -0.082339
1686521416 -0.230943 -0.087744
1689395549 -0.221601 -0.104018
1692269682 -0.232798 -0.12132
1695143815 -0.242271 -0.118612
1698017948 -0.254712 -0.118778
1700892081 -0.267995 -0.114536
1703766214 -0.279123 -0.102991
1706640347 -0.284234 -0.084418
1709514480 -0.270881 -0.065084
1712388613 -0.2484 -0.06473
1715262746 -0.232251 -0.074885
1718136879 -0.228088 -0.08977
1721011012 -0.232602 -0.097439
1723885145 -0.234353 -0.103479
1726759278 -0.244186 -0.111493
1729633411 -0.257668 -0.110158
1732507544 -0.261816 -0.105484
1735381677 -0.275626 -0.105742
1738255810 -0.273043 -0.087991
1741129943 -0.271496 -0.090401
1744004076 -0.275315 -0.073216
1746878209 -0.251709 -0.060805
1749752342 -0.229758 -0.072518
1752626475 -0.229128 -0.093662
1755500608 -0.241283 -0.099218
1758374741 -0.241295 -0.097125
1761248874 -0.247125 -0.114466
1764123007 -0.259228 -0.113515
1766997140 -0.271035 -0.107559
1769871273 -0.274544 -0.104949
1772745406 -0.274017 -0.097439
1775619539 -0.260813 -0.102583
1778493672 -0.258788 -0.104882
1781367805 -0.263059 -0.10408
1784241938 -0.272153 -0.097197
1787116071 -0.262979 -0.092016
1789990204 -0.253792 -0.104542
1792864337 -0.255103 -0.116725
1795738470 -0.269973 -0.135042
1798612603 -0.291568 -0.131559
1801486736 -0.29559 -0.11842
1804360869 -0.299421 -0.11349
1807235002 -0.298406 -0.101995
1810109135 -0.293203 -0.09431
1812983268 -0.283542 -0.093791
1815857401 -0.287192 -0.10945
1818731534 -0.280703 -0.110647
1821605667 -0.292609 -0.124248
1824479800 -0.308496 -0.141652
1827353933 -0.329993 -0.125529
1830228066 -0.333635 -0.117727
1833102199 -0.329702 -0.101308
1835976332 -0.31799 -0.091208
1838850465 -0.305048 -0.094189
1841724598 -0.304612 -0.111616
1844598731 -0.319122 -0.114589
1847472864 -0.325916 -0.116469
1850346997 -0.334914 -0.111678
1853221130 -0.334821 -0.114467
1856095263 -0.335262 -0.118702
1858969396 -0.340817 -0.121142
1861843529 -0.334762 -0.17783
1864717662 -0.362384 -0.109041
1867591795 -0.354844 -0.093898
1870465928 -0.347452 -0.094575
1873340061 -0.342648 -0.091644
1876214194 -0.347807 -0.105458
1879088327 -0.361681 -0.104688
1881962460 -0.367881 -0.103067
1884836593 -0.369757 -0.096369
1887710726 -0.363862 -0.099117
1890584859 -0.374753 -0.108739
1893458992 -0.38851 -0.093629
1896333125 -0.384742 -0.07109
1899207258 -0.370327 -0.073061
1902081391 -0.377665 -0.083075
1904955524 -0.387033 -0.084514
1907829657 -0.388546 -0.085777
1910703790 -0.389691 -0.078333
1913577923 -0.391881 -0.077346
1916452056 -0.396081 -0.071325
1919326189 -0.391218 -0.068523
1922200322 -0.383329 -0.070264
1925074455 -0.385099 -0.074117
1927948588 -0.394609 -0.075376
1930822721 -0.408475 -0.057497
1933696854 -0.403021 -0.0494
1936570987 -0.399721 -0.046348
1939445120 -0.405916 -0.04855
1942319253 -0.408236 -0.039338
1945193386 -0.400775 -0.029857
1948067519 -0.388818 -0.034591
1950941652 -0.386904 -0.038464
1953815785 -0.385908 -0.044771
1956689918 -0.394135 -0.045456
1959564051 -0.405538 -0.045481
1962438184 -0.416587 -0.033293
1965312317 -0.415771 -0.024282
1968186450 -0.413172 -0.023611
1971060583 -0.41258 -0.020246
1973934716 -0.406934 -0.019977
1976808849 -0.408669 -0.018074
1979682982 -0.403872 -0.012332
1982557115 -0.395195 -0.017436
1985431248 -0.390333 -0.015477
1988305381 -0.390355 -0.024068
1991179514 -0.401974 -0.029512
1994053647 -0.424707 -0.029779
1996927780 -0.42433 -0.009429
1999801913 -0.410574 -0.005073
2002676046 -0.404798 -0.011229
2005550179 -0.404527 -0.016642
2008424312 -0.412057 -0.017198
2011298445 -0.411626 -0.014615
2014172578 -0.405278 -0.01195
2017046711 -0.415647 -0.014038
