# HZ S RI R 50
100000000 0.97313 -0.24571
102874133 0.975875 -0.252323
105748266 0.981958 -0.257455
108622399 0.982674 -0.266886
111496532 0.986462 -0.254162
114370665 0.975351 -0.29469
117244798 0.983809 -0.265511
120118931 0.96819 -0.30581
122993064 0.958542 -0.309891
125867197 0.956128 -0.318494
128741330 0.953888 -0.302034
131615463 0.957394 -0.312354
134489596 0.965015 -0.321166
137363729 0.948068 -0.334581
140237862 0.948836 -0.340747
143111995 0.949577 -0.346797
145986128 0.948859 -0.35198
148860261 0.945323 -0.356203
151734394 0.940088 -0.361404
154608527 0.93353 -0.366024
157482660 0.927529 -0.365928
160356793 0.926937 -0.378276
163230926 0.92929 -0.388685
166105059 0.931466 -0.396096
168979192 0.928656 -0.404151
171853325 0.925229 -0.411808
174727458 0.920776 -0.418455
177601591 0.914966 -0.425052
180475724 0.906138 -0.432195
183349857 0.896993 -0.437853
186223990 0.885568 -0.443646
189098123 0.885839 -0.453124
191972256 0.892317 -0.462249
194846389 0.896426 -0.469243
197720522 0.898217 -0.475673
200594655 0.898684 -0.481306
203468788 0.897471 -0.485879
206342921 0.89192 -0.490674
209217054 0.886167 -0.493298
212091187 0.877779 -0.495157
214965320 0.8699 -0.497963
217839453 0.868275 -0.507014
220713586 0.874112 -0.515783
223587719 0.874414 -0.525345
226461852 0.8775 -0.530528
229335985 0.874363 -0.536624
232210118 0.871646 -0.542148
235084251 0.866291 -0.545774
237958384 0.858213 -0.549703
240832517 0.848957 -0.552496
243706650 0.837213 -0.55636
246580783 0.833582 -0.561559
249454916 0.836749 -0.573031
252329049 0.839721 -0.582706
255203182 0.839046 -0.591524
258077315 0.836414 -0.598985
260951448 0.833005 -0.603676
263825581 0.828001 -0.608299
266699714 0.819762 -0.610209
269573847 0.810106 -0.612435
272447980 0.798425 -0.613381
275322113 0.7917 -0.620344
278196246 0.798666 -0.630745
281070379 0.800708 -0.640684
283944512 0.800587 -0.648073
286818645 0.799177 -0.654737
289692778 0.79682 -0.658716
292566911 0.790378 -0.662195
295441044 0.78239 -0.661308
298315177 0.775402 -0.663302
301189310 0.764929 -0.662209
304063443 0.756339 -0.667482
306937576 0.754959 -0.681287
309811709 0.752828 -0.689718
312685842 0.75106 -0.699856
315559975 0.747075 -0.707658
318434108 0.74176 -0.713385
321308241 0.733283 -0.716312
324182374 0.726635 -0.721272
327056507 0.714728 -0.722908
329930640 0.704128 -0.722729
332804773 0.692803 -0.72639
335678906 0.691518 -0.73862
338553039 0.691259 -0.749149
341427172 0.689557 -0.758222
344301305 0.686046 -0.76284
347175438 0.68027 -0.768506
350049571 0.674875 -0.771634
352923704 0.666868 -0.775871
355797837 0.656225 -0.771741
358671970 0.648421 -0.773445
361546103 0.637666 -0.77243
364420236 0.634655 -0.786764
367294369 0.632627 -0.797007
370168502 0.629689 -0.805505
373042635 0.626441 -0.812313
375916768 0.620933 -0.817681
378790901 0.614389 -0.822432
381665034 0.607273 -0.824349
384539167 0.599124 -0.825241
387413300 0.588877 -0.823469
390287433 0.579271 -0.823252
393161566 0.574319 -0.833949
396035699 0.575029 -0.841368
398909832 0.568229 -0.85046
401783965 0.566218 -0.854586
404658098 0.561044 -0.858875
407532231 0.557396 -0.859224
410406364 0.547441 -0.859541
413280497 0.536414 -0.862463
416154630 0.526658 -0.856538
419028763 0.513776 -0.852285
421902896 0.511588 -0.866475
424777029 0.506796 -0.874701
427651162 0.503388 -0.882847
430525295 0.500401 -0.889744
433399428 0.493776 -0.897792
436273561 0.487375 -0.897285
439147694 0.481465 -0.899154
442021827 0.473122 -0.900633
444895960 0.462165 -0.897777
447770093 0.451238 -0.893614
450644226 0.447206 -0.902936
453518359 0.443942 -0.909829
456392492 0.421302 -0.924474
459266625 0.435508 -0.923056
462140758 0.4275 -0.924508
465014891 0.421271 -0.92548
467889024 0.415667 -0.923159
470763157 0.405068 -0.91983
473637290 0.393906 -0.913889
476511423 0.402319 -0.904573
479385556 0.376925 -0.919109
482259689 0.372793 -0.926008
485133822 0.366753 -0.934567
488007955 0.363427 -0.939875
490882088 0.357074 -0.943453
493756221 0.353981 -0.943332
496630354 0.343752 -0.9436
499504487 0.336289 -0.942024
502378620 0.325341 -0.938441
505252753 0.313453 -0.932053
508126886 0.306179 -0.938616
511001019 0.302092 -0.947651
513875152 0.29556 -0.955605
516749285 0.286908 -0.961582
519623418 0.280144 -0.964291
522497551 0.27287 -0.964886
525371684 0.264656 -0.964006
528245817 0.253273 -0.962723
531119950 0.243635 -0.959926
533994083 0.232536 -0.952043
536868216 0.224224 -0.95937
539742349 0.219153 -0.966258
542616482 0.210068 -0.975337
545490615 0.202332 -0.981404
548364748 0.194733 -0.981733
551238881 0.189182 -0.983758
554113014 0.179866 -0.980178
556987147 0.172647 -0.978433
559861280 0.168161 -0.972312
562735413 0.163151 -0.966299
565609546 0.152488 -0.970322
568483679 0.145224 -0.980137
571357812 0.138889 -0.991328
574231945 0.133944 -0.997856
577106078 0.128072 -1.000688
579980211 0.121103 -1.001026
582854344 0.11287 -1.00285
585728477 0.105568 -1.00077
588602610 0.092472 -0.993167
591476743 0.088187 -0.988319
594350876 0.080368 -0.987284
597225009 0.071362 -0.99873
600099142 0.063682 -1.005592
602973275 0.061722 -1.009999
605847408 0.051051 -1.01578
608721541 0.046021 -1.015985
611595674 0.042722 -1.016671
614469807 0.031959 -1.012238
617343940 0.029501 -1.009255
620218073 0.021414 -1.002206
623092206 0.012957 -1.00051
625966339 0.001698 -1.009939
628840472 -0.004199 -1.017052
631714605 -0.012073 -1.019392
634588738 -0.020515 -1.024815
637462871 -0.027437 -1.027484
640337004 -0.032385 -1.027408
643211137 -0.043733 -1.0233
646085270 -0.048717 -1.018338
648959403 -0.056473 -1.009996
651833536 -0.066252 -1.007132
654707669 -0.07405 -1.013664
657581802 -0.086239 -1.018736
660455935 -0.094888 -1.021552
663330068 -0.102783 -1.022919
666204201 -0.108602 -1.022743
669078334 -0.11916 -1.019461
671952467 -0.125151 -1.016344
674826600 -0.128269 -1.006535
677700733 -0.137959 -0.999611
680574866 -0.148845 -0.990725
683448999 -0.162332 -0.997847
686323132 -0.20017 -0.984442
689197265 -0.179279 -1.009291
692071398 -0.187049 -1.008218
694945531 -0.19642 -1.006511
697819664 -0.204952 -1.002387
700693797 -0.213664 -0.997412
703567930 -0.216502 -0.99417
706442063 -0.227372 -0.981779
709316196 -0.229572 -0.975354
712190329 -0.244216 -0.980606
715064462 -0.258534 -0.980843
717938595 -0.269516 -0.984986
720812728 -0.279321 -0.98408
723686861 -0.289328 -0.983725
726560994 -0.299242 -0.978404
729435127 -0.310847 -0.972548
732309260 -0.316271 -0.964203
735183393 -0.32431 -0.955935
738057526 -0.332377 -0.941462
740931659 -0.345447 -0.948487
743805792 -0.35855 -0.951809
746679925 -0.370877 -0.953185
749554058 -0.382952 -0.950248
752428191 -0.391369 -0.947741
755302324 -0.397497 -0.942464
758176457 -0.402587 -0.937199
761050590 -0.411241 -0.926018
763924723 -0.416605 -0.914958
766798856 -0.424801 -0.901488
769672989 -0.441122 -0.901865
772547122 -0.452022 -0.90468
775421255 -0.463774 -0.903447
778295388 -0.472863 -0.902703
781169521 -0.483602 -0.89477
784043654 -0.495863 -0.890781
786917787 -0.502553 -0.882544
789791920 -0.508654 -0.870509
792666053 -0.509351 -0.863283
795540186 -0.516295 -0.84652
798414319 -0.529171 -0.845403
801288452 -0.558503 -0.834431
804162585 -0.551979 -0.843119
807036718 -0.550002 -0.849092
809910851 -0.569738 -0.837514
812784984 -0.591264 -0.815257
815659117 -0.582173 -0.819336
818533250 -0.5841 -0.810612
821407383 -0.590823 -0.798423
824281516 -0.600733 -0.773402
827155649 -0.60244 -0.778018
830029782 -0.58173 -0.799714
832903915 -0.622943 -0.776096
835778048 -0.633253 -0.773351
838652181 -0.637044 -0.766003
841526314 -0.639607 -0.758027
844400447 -0.644305 -0.75398
847274580 -0.646552 -0.740278
850148713 -0.647553 -0.72982
853022846 -0.650562 -0.711921
855896979 -0.65653 -0.7064
858771112 -0.673589 -0.69715
861645245 -0.685341 -0.690312
864519378 -0.69716 -0.685057
867393511 -0.710175 -0.676929
870267644 -0.717664 -0.665577
873141777 -0.726589 -0.653896
876015910 -0.730676 -0.641893
878890043 -0.737283 -0.624484
881764176 -0.73954 -0.611103
884638309 -0.750609 -0.59914
887512442 -0.766136 -0.58944
890386575 -0.772582 -0.576019
893260708 -0.782262 -0.560328
896134841 -0.794557 -0.546009
899008974 -0.798136 -0.530852
901883107 -0.803391 -0.515272
904757240 -0.809207 -0.499027
907631373 -0.807378 -0.478892
910505506 -0.803951 -0.463502
913379639 -0.810889 -0.448723
916253772 -0.821203 -0.43317
919127905 -0.827316 -0.418316
922002038 -0.831657 -0.408762
924876171 -0.837317 -0.389938
927750304 -0.8372 -0.376316
930624437 -0.834737 -0.355233
933498570 -0.832384 -0.333221
936372703 -0.817063 -0.316534
939246836 -0.804302 -0.300451
942120969 -0.798733 -0.294793
944995102 -0.808338 -0.283484
947869235 -0.813863 -0.268958
950743368 -0.814886 -0.250817
953617501 -0.811382 -0.228377
956491634 -0.78989 -0.206139
959365767 -0.767526 -0.210438
962239900 -0.758747 -0.206573
965114033 -0.756845 -0.200706
967988166 -0.745333 -0.18719
970862299 -0.734947 -0.173795
973736432 -0.732495 -0.16866
976610565 -0.729184 -0.164068
979484698 -0.799365 -0.223763
982358831 -0.7189 -0.1491
985232964 -0.706314 -0.149002
988107097 -0.698142 -0.143582
990981230 -0.683324 -0.145134
993855363 -0.682434 -0.145831
996729496 -0.6768 -0.134334
999603629 -0.663583 -0.124282
1002477762 -0.657283 -0.123504
1005351895 -0.657732 -0.129405
1008226028 -0.658427 -0.123908
1011100161 -0.657323 -0.128412
1013974294 -0.662116 -0.128337
1016848427 -0.659798 -0.12359
1019722560 -0.663656 -0.128048
1022596693 -0.666893 -0.116951
1025470826 -0.670931 -0.103458
1028344959 -0.668305 -0.079903
1031219092 -0.664601 -0.062924
1034093225 -0.659735 -0.050262
1036967358 -0.649453 -0.048177
1039841491 -0.643807 -0.05343
1042715624 -0.650838 -0.0544
1045589757 -0.663039 -0.04329
1048463890 -0.66336 -0.01642
1051338023 -0.637313 -0.000792
1054212156 -0.622356 0.004697
1057086289 -0.605321 0.013121
1059960422 -0.592877 0.014681
1062834555 -0.590291 0.011763
1065708688 -0.595308 0.011181
1068582821 -0.60414 0.021077
1071456954 -0.602057 0.038879
1074331087 -0.584991 0.048842
1077205220 -0.57921 0.055021
1080079353 -0.573076 0.062643
1082953486 -0.567584 0.075401
1085827619 -0.546833 0.098859
1088701752 -0.527103 0.111364
1091575885 -0.500242 0.098568
1094450018 -0.496686 0.081297
1097324151 -0.506887 0.07365
1100198284 -0.522009 0.085119
1103072417 -0.522053 0.089345
1105946550 -0.511751 0.109662
1108820683 -0.502006 0.117208
1111694816 -0.477231 0.127912
1114568949 -0.458907 0.11903
1117443082 -0.459391 0.115757
1120317215 -0.455037 0.115135
1123191348 -0.460409 0.121793
1126065481 -0.449233 0.125234
1128939614 -0.44743 0.124712
1131813747 -0.436116 0.126822
1134687880 -0.438226 0.122104
1137562013 -0.441052 0.11873
1140436146 -0.450367 0.125217
1143310279 -0.444278 0.141054
1146184412 -0.441752 0.168026
1149058545 -0.425936 0.181213
1151932678 -0.41509 0.178256
1154806811 -0.415581 0.19169
1157680944 -0.407638 0.215517
1160555077 -0.396607 0.215002
1163429210 -0.392117 0.224254
1166303343 -0.360591 0.252801
1169177476 -0.327016 0.267448
1172051609 -0.289522 0.26784
1174925742 -0.261616 0.253171
1177799875 -0.240653 0.245147
1180674008 -0.214148 0.243302
1183548141 -0.193057 0.221684
1186422274 -0.184622 0.207649
1189296407 -0.161777 0.199193
1192170540 -0.147381 0.172866
1195044673 -0.145673 0.149252
1197918806 -0.151184 0.137329
1200792939 -0.142231 0.133028
1203667072 -0.141354 0.123414
1206541205 -0.127518 0.112744
1209415338 -0.119175 0.098276
1212289471 -0.116311 0.066959
1215163604 -0.127567 0.05118
1218037737 -0.136149 0.035016
1220911870 -0.144821 0.027541
1223786003 -0.158168 0.012409
1226660136 -0.178324 0.007855
1229534269 -0.193793 0.013932
1232408402 -0.208932 0.030362
1235282535 -0.203783 0.059302
1238156668 -0.175995 0.061322
1241030801 -0.168634 0.04623
1243904934 -0.172609 0.041994
1246779067 -0.17087 0.040351
1249653200 -0.155622 0.039288
1252527333 -0.149151 0.022043
1255401466 -0.15233 0.005862
1258275599 -0.171067 -0.01226
1261149732 -0.206762 -0.011641
1264023865 -0.214524 0.037763
1266897998 -0.188059 0.063415
1269772131 -0.163252 0.055692
1272646264 -0.157729 0.048003
1275520397 -0.148248 0.045833
1278394530 -0.14099 0.030723
1281268663 -0.150229 0.024872
1284142796 -0.148388 0.034684
1287016929 -0.129819 0.033944
1289891062 -0.11086 0.017634
1292765195 -0.120623 -0.010491
1295639328 -0.15165 -0.015876
1298513461 -0.157406 0.009994
1301387594 -0.140105 0.019206
1304261727 -0.121857 0.017051
1307135860 -0.111247 -0.001307
1310009993 -0.119196 -0.009895
1312884126 -0.118774 -0.005879
1315758259 -0.101978 0.001327
1318632392 -0.083541 -0.009484
1321506525 -0.071572 -0.02889
1324380658 -0.066377 -0.057808
1327254791 -0.073313 -0.086301
1330128924 -0.09731 -0.103803
1333003057 -0.119891 -0.103518
1335877190 -0.126061 -0.10024
1338751323 -0.1279 -0.095028
1341625456 -0.13041 -0.099228
1344499589 -0.136862 -0.091362
1347373722 -0.121168 -0.082048
1350247855 -0.11314 -0.09279
1353121988 -0.100648 -0.113255
1355996121 -0.113817 -0.141821
1358870254 -0.140415 -0.155238
1361744387 -0.160434 -0.154159
1364618520 -0.176067 -0.138893
1367492653 -0.165416 -0.137734
1370366786 -0.174697 -0.143728
1373240919 -0.187677 -0.1432
1376115052 -0.189437 -0.124813
1378989185 -0.185917 -0.130463
1381863318 -0.187657 -0.135223
1384737451 -0.193957 -0.142148
1387611584 -0.20487 -0.144305
1390485717 -0.203836 -0.143069
1393359850 -0.204515 -0.158102
1396233983 -0.222862 -0.164758
1399108116 -0.24605 -0.167679
1401982249 -0.270187 -0.147859
1404856382 -0.265073 -0.109949
1407730515 -0.250064 -0.102568
1410604648 -0.246171 -0.10695
1413478781 -0.255232 -0.10569
1416352914 -0.256245 -0.099713
1419227047 -0.249506 -0.091306
1422101180 -0.23999 -0.096122
1424975313 -0.241193 -0.114354
1427849446 -0.25921 -0.113649
1430723579 -0.266941 -0.1074
1433597712 -0.272359 -0.098785
1436471845 -0.281979 -0.090462
1439345978 -0.286822 -0.075526
1442220111 -0.288018 -0.064462
1445094244 -0.281611 -0.046385
1447968377 -0.266886 -0.045406
1450842510 -0.259992 -0.042063
1453716643 -0.247242 -0.049827
1456590776 -0.248181 -0.050039
1459464909 -0.243631 -0.047695
1462339042 -0.235295 -0.049191
1465213175 -0.241384 -0.052535
1468087308 -0.241989 -0.04731
1470961441 -0.242759 -0.052505
1473835574 -0.248552 -0.045526
1476709707 -0.251959 -0.039611
1479583840 -0.246973 -0.026366
1482457973 -0.229487 -0.018309
1485332106 -0.215569 -0.026794
1488206239 -0.207354 -0.024426
1491080372 -0.195161 -0.029856
1493954505 -0.192467 -0.043122
1496828638 -0.193491 -0.048354
1499702771 -0.200388 -0.068246
1502576904 -0.219308 -0.065619
1505451037 -0.230765 -0.046932
1508325170 -0.219316 -0.030941
1511199303 -0.20121 -0.027258
1514073436 -0.191114 -0.032322
1516947569 -0.184717 -0.032419
1519821702 -0.171818 -0.031157
1522695835 -0.159441 -0.038591
1525569968 -0.152507 -0.051537
1528444101 -0.150249 -0.073165
1531318234 -0.160268 -0.092931
1534192367 -0.185012 -0.097015
1537066500 -0.204994 -0.082888
1539940633 -0.204062 -0.062488
1542814766 -0.196788 -0.047658
1545688899 -0.172669 -0.030841
1548563032 -0.143041 -0.03522
1551437165 -0.117789 -0.06092
1554311298 -0.124778 -0.083244
1557185431 -0.133691 -0.103579
1560059564 -0.139391 -0.113352
1562933697 -0.155002 -0.134642
1565807830 -0.183283 -0.136985
1568681963 -0.204491 -0.118262
1571556096 -0.208446 -0.097496
1574430229 -0.196324 -0.077676
1577304362 -0.173911 -0.073574
1580178495 -0.168736 -0.078369
1583052628 -0.152244 -0.085132
1585926761 -0.149032 -0.104621
1588800894 -0.154324 -0.116956
1591675027 -0.158018 -0.133925
1594549160 -0.17337 -0.14275
1597423293 -0.189119 -0.147189
1600297426 -0.197118 -0.141692
1603171559 -0.207221 -0.141143
1606045692 -0.216079 -0.132611
1608919825 -0.221561 -0.115865
1611793958 -0.216505 -0.099837
1614668091 -0.205204 -0.099047
1617542224 -0.193049 -0.107587
1620416357 -0.193065 -0.120345
1623290490 -0.197112 -0.126032
1626164623 -0.19691 -0.131239
1629038756 -0.208715 -0.138277
1631912889 -0.212101 -0.130046
1634787022 -0.208366 -0.130397
1637661155 -0.202127 -0.131863
1640535288 -0.208755 -0.147926
1643409421 -0.231178 -0.151626
1646283554 -0.249629 -0.139698
1649157687 -0.255988 -0.126129
1652031820 -0.254258 -0.107214
1654905953 -0.237037 -0.094312
1657780086 -0.21729 -0.100896
1660654219 -0.213273 -0.116687
1663528352 -0.21606 -0.125578
1666402485 -0.225179 -0.136133
1669276618 -0.248147 -0.135925
1672150751 -0.260129 -0.130865
1675024884 -0.270603 -0.117794
1677899017 -0.275597 -0.100357
1680773150 -0.258069 -0.084611
1683647283 -0.241355 -0.087886
1686521416 -0.230263 -0.095717
1689395549 -0.222382 -0.111567
1692269682 -0.234582 -0.124531
1695143815 -0.247096 -0.123832
1698017948 -0.260163 -0.122251
1700892081 -0.274151 -0.111254
1703766214 -0.280035 -0.100494
1706640347 -0.283803 -0.082282
1709514480 -0.26737 -0.063989
1712388613 -0.24833 -0.065982
1715262746 -0.228444 -0.077082
1718136879 -0.226436 -0.095516
1721011012 -0.233962 -0.103007
1723885145 -0.235688 -0.108219
1726759278 -0.246137 -0.112359
1729633411 -0.255963 -0.113824
1732507544 -0.267002 -0.106544
1735381677 -0.278561 -0.103641
1738255810 -0.273235 -0.090696
1741129943 -0.276126 -0.088978
1744004076 -0.275139 -0.070234
1746878209 -0.24655 -0.061723
1749752342 -0.229087 -0.075759
1752626475 -0.227586 -0.093689
1755500608 -0.242496 -0.104076
1758374741 -0.242258 -0.106018
1761248874 -0.251071 -0.113901
1764123007 -0.261883 -0.11624
1766997140 -0.268838 -0.110302
1769871273 -0.276588 -0.106292
1772745406 -0.270098 -0.094751
1775619539 -0.26492 -0.099816
1778493672 -0.266031 -0.104997
1781367805 -0.267336 -0.105049
1784241938 -0.274175 -0.10148
1787116071 -0.263332 -0.093525
1789990204 -0.255105 -0.102059
1792864337 -0.257871 -0.119799
1795738470 -0.272648 -0.135503
1798612603 -0.294685 -0.134211
1801486736 -0.297049 -0.118777
1804360869 -0.297839 -0.116678
1807235002 -0.302422 -0.104926
1810109135 -0.295882 -0.096951
1812983268 -0.291399 -0.094984
1815857401 -0.289203 -0.106179
1818731534 -0.285306 -0.108392
1821605667 -0.294839 -0.124299
1824479800 -0.311922 -0.140304
1827353933 -0.330352 -0.131685
1830228066 -0.335291 -0.114336
1833102199 -0.331956 -0.099684
1835976332 -0.319194 -0.092912
1838850465 -0.311077 -0.103343
1841724598 -0.311849 -0.1025
1844598731 -0.327179 -0.119306
1847472864 -0.33596 -0.115619
1850346997 -0.341449 -0.109859
1853221130 -0.337073 -0.116957
1856095263 -0.340672 -0.116635
1858969396 -0.349828 -0.12159
1861843529 -0.357367 -0.119312
1864717662 -0.363132 -0.108552
1867591795 -0.357602 -0.095346
1870465928 -0.350723 -0.091669
1873340061 -0.343995 -0.099206
1876214194 -0.354979 -0.10956
1879088327 -0.365508 -0.105508
1881962460 -0.374822 -0.106653
1884836593 -0.376128 -0.094549
1887710726 -0.372599 -0.099436
1890584859 -0.383331 -0.108679
1893458992 -0.394371 -0.09411
1896333125 -0.385163 -0.077182
1899207258 -0.378106 -0.074161
1902081391 -0.3805 -0.084183
1904955524 -0.390084 -0.081278
1907829657 -0.390543 -0.08404
1910703790 -0.397573 -0.081159
1913577923 -0.398394 -0.080211
1916452056 -0.399329 -0.077722
1919326189 -0.394931 -0.074652
1922200322 -0.390458 -0.07454
1925074455 -0.395303 -0.079778
1927948588 -0.40186 -0.06844
1930822721 -0.409245 -0.05582
1933696854 -0.411643 -0.05165
1936570987 -0.404273 -0.050508
1939445120 -0.408628 -0.048868
1942319253 -0.406656 -0.03883
1945193386 -0.401944 -0.039446
1948067519 -0.391205 -0.041391
1950941652 -0.393461 -0.046284
1953815785 -0.395979 -0.050574
1956689918 -0.403411 -0.045835
1959564051 -0.411699 -0.049773
1962438184 -0.427564 -0.039692
1965312317 -0.423008 -0.021257
1968186450 -0.415029 -0.02539
1971060583 -0.415867 -0.020029
1973934716 -0.413186 -0.021994
1976808849 -0.413766 -0.020389
1979682982 -0.406477 -0.018936
1982557115 -0.397093 -0.023655
1985431248 -0.393432 -0.022243
1988305381 -0.396296 -0.027598
1991179514 -0.408682 -0.035718
1994053647 -0.425215 -0.02889
1996927780 -0.425453 -0.010336
1999801913 -0.41429 -0.01156
2002676046 -0.408105 -0.013406
2005550179 -0.408273 -0.022985
2008424312 -0.41536 -0.022887
2011298445 -0.412872 -0.021743
2014172578 -0.41173 -0.020236
2017046711 -0.422527 -0.019273
