# HZ S RI R 50
100000000 0.002967 -0.002388 0.982441 -0.177725 0 0 0 0
129000000 0.0005 -0.002867 0.972337 -0.231143 0 0 0 0
158000000 -0.00032 -0.001356 0.957037 -0.280181 0 0 0 0
187000000 0.000106 0.002209 0.925487 -0.360135 0 0 0 0
216000000 0.001251 -9e-06 0.921788 -0.377492 0 0 0 0
245000000 0.003753 0.000261 0.904535 -0.42124 0 0 0 0
274000000 0.005831 -0.002869 0.881667 -0.470287 0 0 0 0
303000000 0.005146 -0.005134 0.854335 -0.51569 0 0 0 0
332000000 0.000878 -0.008063 0.826702 -0.558481 0 0 0 0
361000000 -0.004707 -0.009316 0.795955 -0.599668 0 0 0 0
390000000 -0.007257 -0.010213 0.763666 -0.639229 0 0 0 0
419000000 -0.010993 -0.00704 0.732098 -0.67706 0 0 0 0
448000000 -0.021598 0.002501 0.726625 -0.69574 0 0 0 0
477000000 -0.012787 0.00534 0.656019 -0.749466 0 0 0 0
506000000 -0.009398 0.009843 0.615228 -0.78013 0 0 0 0
535000000 -0.000227 0.012596 0.574613 -0.81544 0 0 0 0
564000000 0.005198 0.011536 0.528979 -0.839984 0 0 0 0
593000000 0.013369 0.004603 0.487331 -0.868115 0 0 0 0
622000000 0.014907 -0.003021 0.4381 -0.892674 0 0 0 0
651000000 0.011703 -0.012278 0.398056 -0.910196 0 0 0 0
680000000 0.007046 -0.020239 0.351631 -0.931161 0 0 0 0
709000000 -0.003773 -0.021948 0.302401 -0.954192 0 0 0 0
738000000 -0.017273 -0.019721 0.243874 -0.965466 0 0 0 0
767000000 -0.023393 -0.0098 0.19313 -0.974785 0 0 0 0
796000000 -0.027518 0.002962 0.148159 -0.979432 0 0 0 0
825000000 -0.022564 0.013554 0.100346 -0.985228 0 0 0 0
854000000 -0.014033 0.021827 0.050624 -0.992471 0 0 0 0
883000000 6.5e-05 0.028443 0.004697 -1.000293 0 0 0 0
912000000 0.013142 0.022568 -0.056831 -0.999566 0 0 0 0
941000000 0.025248 0.01253 -0.09512 -0.98973 0 0 0 0
970000000 0.027205 -0.005637 -0.15639 -0.976848 0 0 0 0
999000000 0.021806 -0.019659 -0.200079 -0.972411 0 0 0 0
1028000000 0.011518 -0.030133 -0.270107 -0.957902 0 0 0 0
1057000000 -0.008294 -0.036068 -0.290588 -0.95814 0 0 0 0
1086000000 -0.028351 -0.026217 -0.361133 -0.929765 0 0 0 0
1115000000 -0.042779 -0.013634 -0.402999 -0.90189 0 0 0 0
1144000000 -0.044447 0.00909 -0.441826 -0.887171 0 0 0 0
1173000000 -0.037272 0.027095 -0.492345 -0.866293 0 0 0 0
1202000000 -0.022104 0.043447 -0.537868 -0.837322 0 0 0 0
1231000000 0.00083 0.048807 -0.579046 -0.805735 0 0 0 0
1260000000 0.021721 0.041703 -0.598082 -0.781407 0 0 0 0
1289000000 0.038044 0.024648 -0.649971 -0.754765 0 0 0 0
1318000000 0.045534 0.000333 -0.695004 -0.706682 0 0 0 0
1347000000 0.033957 -0.022998 -0.738425 -0.667383 0 0 0 0
1376000000 0.018117 -0.039387 -0.766334 -0.629987 0 0 0 0
1405000000 -0.011763 -0.047348 -0.797003 -0.598171 0 0 0 0
1434000000 -0.040167 -0.037174 -0.822771 -0.546285 0 0 0 0
1463000000 -0.062 -0.016889 -0.852225 -0.510437 0 0 0 0
1492000000 -0.0692 0.012774 -0.877448 -0.45967 0 0 0 0
1521000000 -0.059522 0.044514 -0.895337 -0.429918 0 0 0 0
1550000000 -0.038585 0.068122 -0.921008 -0.369389 0 0 0 0
1579000000 -0.003736 0.077316 -0.937591 -0.318909 0 0 0 0
1608000000 0.027706 0.069557 -0.954546 -0.271217 0 0 0 0
1637000000 0.055756 0.043934 -0.967341 -0.224628 0 0 0 0
1666000000 0.06737 0.0104 -0.979087 -0.184344 0 0 0 0
1695000000 0.063156 -0.028495 -0.987604 -0.110034 0 0 0 0
1724000000 0.034376 -0.058237 -0.990849 -0.076385 0 0 0 0
1753000000 -0.002533 -0.068729 -0.992818 -0.016305 0 0 0 0
1782000000 -0.03938 -0.064429 -0.990646 0.023839 0 0 0 0
1811000000 -0.069802 -0.041472 -0.984527 0.086993 0 0 0 0
1840000000 -0.083473 0.000445 -0.985842 0.137484 0 0 0 0
1869000000 -0.081319 0.037239 -0.976614 0.171825 0 0 0 0
1898000000 -0.052835 0.073481 -0.961304 0.232693 0 0 0 0
1927000000 -0.014322 0.089615 -0.947981 0.286344 0 0 0 0
1956000000 0.026405 0.08306 -0.937144 0.332626 0 0 0 0
1985000000 0.064513 0.058506 -0.919545 0.377881 0 0 0 0
2014000000 0.084051 0.014255 -0.904873 0.416681 0 0 0 0
2043000000 0.081024 -0.030495 -0.876686 0.471082 0 0 0 0
2072000000 0.049329 -0.069938 -0.844488 0.519101 0 0 0 0
2101000000 0.007277 -0.093115 -0.811995 0.567667 0 0 0 0
2130000000 -0.040424 -0.088675 -0.785679 0.599088 0 0 0 0
2159000000 -0.078008 -0.059642 -0.753144 0.64086 0 0 0 0
2188000000 -0.102311 -0.015824 -0.722907 0.666309 0 0 0 0
2217000000 -0.097121 0.031498 -0.685107 0.715978 0 0 0 0
2246000000 -0.070845 0.076883 -0.653137 0.740969 0 0 0 0
2275000000 -0.023204 0.100079 -0.615775 0.770583 0 0 0 0
2304000000 0.029596 0.100271 -0.564517 0.803324 0 0 0 0
2333000000 0.078891 0.072704 -0.5289 0.839229 0 0 0 0
2362000000 0.103838 0.027171 -0.495168 0.871017 0 0 0 0
2391000000 0.107117 -0.024252 -0.446465 0.898234 0 0 0 0
2420000000 0.084014 -0.074706 -0.379646 0.920214 0 0 0 0
2449000000 0.037987 -0.098702 -0.328148 0.925131 0 0 0 0
2478000000 -0.021798 -0.101288 -0.284322 0.926192 0 0 0 0
2507000000 -0.079048 -0.070311 -0.248709 0.941276 0 0 0 0
2536000000 -0.107024 -0.020455 -0.211184 0.971689 0 0 0 0
2565000000 -0.107353 0.044684 -0.134875 0.997121 0 0 0 0
2594000000 -0.077401 0.101207 -0.068216 0.990954 0 0 0 0
2623000000 -0.024449 0.135431 -0.030405 0.97567 0 0 0 0
2652000000 0.037074 0.138855 0.013253 0.972939 0 0 0 0
2681000000 0.090234 0.111535 0.032254 0.989272 0 0 0 0
2710000000 0.133959 0.060888 0.084148 1.004574 0 0 0 0
2739000000 0.142167 -0.003335 0.147497 1.010791 0 0 0 0
2768000000 0.117108 -0.058218 0.238514 0.979215 0 0 0 0
2797000000 0.06202 -0.102655 0.278462 0.945446 0 0 0 0
2826000000 -0.008004 -0.108426 0.281348 0.920133 0 0 0 0
2855000000 -0.067259 -0.093058 0.316943 0.909498 0 0 0 0
2884000000 -0.107615 -0.026215 0.38409 0.906333 0 0 0 0
2913000000 -0.130739 0.038252 0.447244 0.902944 0 0 0 0
2942000000 -0.104521 0.115615 0.509575 0.86615 0 0 0 0
2971000000 -0.054396 0.166679 0.544381 0.824589 0 0 0 0
3000000000 0.012579 0.18289 0.572618 0.791844 0 0 0 0
