# HZ S RI R 50
100000000 0.000288 -0.000555 0.994227 -0.107674 0 0 0 0
129000000 -0.006625 -0.00449 0.991315 -0.139815 0 0 0 0
158000000 -0.007709 -0.006195 0.98509 -0.169507 0 0 0 0
187000000 -0.008219 -0.001965 0.980367 -0.202657 0 0 0 0
216000000 -0.006771 -0.005419 0.967008 -0.251752 0 0 0 0
245000000 -0.010396 -0.004009 0.96528 -0.263497 0 0 0 0
274000000 -0.011335 -0.003921 0.957217 -0.292621 0 0 0 0
303000000 -0.013761 -0.0038 0.944427 -0.323097 0 0 0 0
332000000 -0.016649 -0.004098 0.933875 -0.350004 0 0 0 0
361000000 -0.016692 -0.000661 0.925313 -0.379956 0 0 0 0
390000000 -0.017868 0.000402 0.911943 -0.409069 0 0 0 0
419000000 -0.019938 0.002854 0.899446 -0.437514 0 0 0 0
448000000 -0.021868 0.005595 0.883968 -0.467409 0 0 0 0
477000000 -0.019357 0.007922 0.870396 -0.493734 0 0 0 0
506000000 -0.021634 0.011699 0.854054 -0.519531 0 0 0 0
535000000 -0.018976 0.014202 0.835742 -0.547877 0 0 0 0
564000000 -0.020407 0.014449 0.814216 -0.578122 0 0 0 0
593000000 -0.019713 0.018756 0.799693 -0.60315 0 0 0 0
622000000 -0.016733 0.023206 0.782106 -0.625702 0 0 0 0
651000000 -0.019998 0.024661 0.760336 -0.650779 0 0 0 0
680000000 -0.013603 0.027435 0.738877 -0.667501 0 0 0 0
709000000 -0.011707 0.029021 0.724047 -0.695893 0 0 0 0
738000000 -0.009092 0.033409 0.699228 -0.71339 0 0 0 0
767000000 -0.004857 0.034949 0.628167 -0.753471 0 0 0 0
796000000 0.00059 0.03515 0.652472 -0.758937 0 0 0 0
825000000 0.002351 0.038026 0.629964 -0.783029 0 0 0 0
854000000 0.007958 0.035684 0.602055 -0.801175 0 0 0 0
883000000 0.011056 0.036669 0.571739 -0.824513 0 0 0 0
912000000 0.018748 0.036122 0.547445 -0.834226 0 0 0 0
941000000 0.020205 0.035115 0.522881 -0.852089 0 0 0 0
970000000 0.026655 0.034566 0.490446 -0.869655 0 0 0 0
999000000 0.029023 0.032114 0.471447 -0.87985 0 0 0 0
1028000000 0.034663 0.028299 0.447236 -0.893311 0 0 0 0
1057000000 0.037509 0.024092 0.417807 -0.909388 0 0 0 0
1086000000 0.038905 0.021637 0.390531 -0.928039 0 0 0 0
1115000000 0.041401 0.014455 0.354853 -0.936981 0 0 0 0
1144000000 0.044134 0.009296 0.32872 -0.946391 0 0 0 0
1173000000 0.046538 0.004027 0.289241 -0.957195 0 0 0 0
1202000000 0.046939 -0.000706 0.261423 -0.961107 0 0 0 0
1231000000 0.047383 -0.00621 0.235658 -0.969606 0 0 0 0
1260000000 0.044824 -0.012269 0.180919 -0.957751 0 0 0 0
1289000000 0.043511 -0.021096 0.173641 -0.984224 0 0 0 0
1318000000 0.042183 -0.022859 0.142881 -0.988337 0 0 0 0
1347000000 0.039909 -0.031944 0.106705 -0.996717 0 0 0 0
1376000000 0.032717 -0.040115 0.08496 -0.996979 0 0 0 0
1405000000 0.028348 -0.040981 0.058674 -0.996729 0 0 0 0
1434000000 0.025825 -0.044831 0.021272 -1.001063 0 0 0 0
1463000000 0.018873 -0.052241 -0.007529 -0.999818 0 0 0 0
1492000000 0.013194 -0.052401 -0.04016 -1.002413 0 0 0 0
1521000000 0.005303 -0.054028 -0.089663 -0.999628 0 0 0 0
1550000000 1.7e-05 -0.054702 -0.113884 -0.992504 0 0 0 0
1579000000 -0.008866 -0.055297 -0.127434 -0.988262 0 0 0 0
1608000000 -0.018318 -0.053324 -0.175182 -0.985543 0 0 0 0
1637000000 -0.026656 -0.048258 -0.192451 -0.977881 0 0 0 0
1666000000 -0.035311 -0.048447 -0.230165 -0.969887 0 0 0 0
1695000000 -0.045966 -0.041958 -0.254295 -0.967693 0 0 0 0
1724000000 -0.049635 -0.038781 -0.294438 -0.961132 0 0 0 0
1753000000 -0.060442 -0.032994 -0.313344 -0.955339 0 0 0 0
1782000000 -0.064926 -0.026488 -0.356497 -0.94028 0 0 0 0
1811000000 -0.071555 -0.015606 -0.382674 -0.923055 0 0 0 0
1840000000 -0.07597 -0.009345 -0.418278 -0.910218 0 0 0 0
1869000000 -0.078128 -0.002411 -0.427167 -0.901314 0 0 0 0
1898000000 -0.078816 0.00641 -0.461884 -0.881043 0 0 0 0
1927000000 -0.076991 0.014613 -0.492302 -0.862315 0 0 0 0
1956000000 -0.077468 0.023514 -0.509344 -0.854193 0 0 0 0
1985000000 -0.073374 0.034699 -0.539876 -0.842213 0 0 0 0
2014000000 -0.071433 0.044127 -0.571696 -0.822961 0 0 0 0
2043000000 -0.066481 0.056194 -0.595046 -0.795989 0 0 0 0
2072000000 -0.05689 0.06718 -0.623876 -0.777832 0 0 0 0
2101000000 -0.053318 0.075663 -0.645352 -0.761664 0 0 0 0
2130000000 -0.044481 0.087731 -0.671401 -0.743392 0 0 0 0
2159000000 -0.032776 0.0951 -0.691186 -0.721912 0 0 0 0
2188000000 -0.025042 0.101844 -0.702222 -0.710639 0 0 0 0
2217000000 -0.014818 0.112905 -0.725637 -0.687475 0 0 0 0
2246000000 -0.005362 0.11276 -0.752872 -0.662078 0 0 0 0
2275000000 0.00352 0.114822 -0.781717 -0.617043 0 0 0 0
2304000000 0.014355 0.11533 -0.795944 -0.60224 0 0 0 0
2333000000 0.028285 0.11129 -0.81285 -0.571734 0 0 0 0
2362000000 0.042654 0.109085 -0.826207 -0.557573 0 0 0 0
2391000000 0.049004 0.100007 -0.841643 -0.528822 0 0 0 0
2420000000 0.058894 0.098802 -0.854813 -0.505249 0 0 0 0
2449000000 0.07576 0.082443 -0.883742 -0.471271 0 0 0 0
2478000000 0.087563 0.071538 -0.890304 -0.460721 0 0 0 0
2507000000 0.095493 0.059095 -0.921088 -0.412826 0 0 0 0
2536000000 0.10989 0.049122 -0.926135 -0.389419 0 0 0 0
2565000000 0.119319 0.033832 -0.940419 -0.348617 0 0 0 0
2594000000 0.126367 0.024515 -0.940251 -0.319513 0 0 0 0
2623000000 0.134313 0.0121 -0.95252 -0.293008 0 0 0 0
2652000000 0.139855 -0.003728 -0.947206 -0.284123 0 0 0 0
2681000000 0.142565 -0.013266 -0.971645 -0.233861 0 0 0 0
2710000000 0.137482 -0.023023 -0.979183 -0.231042 0 0 0 0
2739000000 0.139514 -0.038656 -0.988587 -0.17855 0 0 0 0
2768000000 0.131488 -0.048028 -0.991861 -0.141611 0 0 0 0
2797000000 0.121373 -0.059251 -0.990804 -0.125136 0 0 0 0
2826000000 0.103834 -0.068006 -0.994328 -0.07479 0 0 0 0
2855000000 0.091106 -0.083616 -1.004086 -0.038215 0 0 0 0
2884000000 0.083519 -0.092216 -0.990066 -0.014507 0 0 0 0
2913000000 0.061626 -0.100325 -0.996142 0.004635 0 0 0 0
2942000000 0.046897 -0.11186 -0.99462 0.046064 0 0 0 0
2971000000 0.029602 -0.130806 -0.99786 0.057082 0 0 0 0
3000000000 0.014121 -0.140123 -0.988831 0.107218 0 0 0 0
