# HZ S RI R 50
100000000 0.001022 -0.000701 0.992429 -0.170767 0 0 0 0
102874133 0.001153 -0.002856 0.991007 -0.173811 0 0 0 0
105748266 -0.000217 -0.000176 0.986917 -0.179679 0 0 0 0
108622399 0.001905 0.00023 0.986202 -0.183761 0 0 0 0
111496532 -0.000666 -0.002691 0.953224 -0.250053 0 0 0 0
114370665 0.002138 -0.001406 0.984396 -0.192239 0 0 0 0
117244798 -0.000243 -0.002884 0.983592 -0.198255 0 0 0 0
120118931 0.003776 -0.003333 0.983583 -0.203501 0 0 0 0
122993064 0.001658 -0.004365 0.981452 -0.206827 0 0 0 0
125867197 0.001072 -0.002501 0.978407 -0.213263 0 0 0 0
128741330 0.003502 -0.003013 0.978882 -0.217668 0 0 0 0
131615463 0.001268 -0.002613 0.979962 -0.218171 0 0 0 0
134489596 -0.001139 -0.00425 0.980345 -0.225839 0 0 0 0
137363729 0.001028 -0.00218 0.97302 -0.23128 0 0 0 0
140237862 0.000861 -0.002623 0.972844 -0.235754 0 0 0 0
143111995 0.001434 -0.003507 0.973526 -0.239656 0 0 0 0
145986128 0.00153 -0.003745 0.973334 -0.244716 0 0 0 0
148860261 0.001573 -0.001978 0.973742 -0.250171 0 0 0 0
151734394 0.00042 -0.003243 0.97278 -0.254688 0 0 0 0
154608527 0.001358 -0.002522 0.972745 -0.25917 0 0 0 0
157482660 0.0001 -0.003832 0.970689 -0.263739 0 0 0 0
160356793 0.000537 -0.002731 0.971517 -0.268501 0 0 0 0
163230926 0.000903 -0.002869 0.97031 -0.273052 0 0 0 0
166105059 0.000877 -0.003743 0.968794 -0.278385 0 0 0 0
168979192 0.000892 -0.002644 0.967457 -0.282511 0 0 0 0
171853325 0.000648 -0.003316 0.966322 -0.287975 0 0 0 0
174727458 0.000633 -0.0027 0.966715 -0.292218 0 0 0 0
177601591 0.00105 -0.003793 0.963904 -0.296788 0 0 0 0
180475724 -0.000126 -0.003988 0.962855 -0.300741 0 0 0 0
183349857 0.000711 -0.002696 0.960647 -0.305948 0 0 0 0
186223990 -0.000115 -0.002246 0.959041 -0.310701 0 0 0 0
189098123 0.000258 -0.002685 0.958609 -0.314874 0 0 0 0
191972256 -0.000152 -0.0024 0.9562 -0.320777 0 0 0 0
194846389 1e-06 -0.002812 0.954566 -0.324312 0 0 0 0
197720522 0.000526 -0.002138 0.953444 -0.328858 0 0 0 0
200594655 0.000401 -0.002198 0.951869 -0.334143 0 0 0 0
203468788 0.000344 -0.002162 0.949613 -0.339894 0 0 0 0
206342921 -0.00078 -0.002492 0.947201 -0.343603 0 0 0 0
209217054 -0.000532 -0.001719 0.944915 -0.348382 0 0 0 0
212091187 5.2e-05 -0.002136 0.942374 -0.352533 0 0 0 0
214965320 -0.000303 -0.00226 0.940204 -0.358826 0 0 0 0
217839453 -0.000844 -0.002903 0.938879 -0.362404 0 0 0 0
220713586 0.000361 -0.002557 0.935691 -0.366755 0 0 0 0
223587719 -0.0008 -0.001819 0.936031 -0.370761 0 0 0 0
226461852 -0.001049 -0.002064 0.933428 -0.375969 0 0 0 0
229335985 -0.001173 -0.002801 0.932502 -0.378652 0 0 0 0
232210118 -0.000994 -0.001971 0.930163 -0.385019 0 0 0 0
235084251 -0.000618 -0.001288 0.928677 -0.389595 0 0 0 0
237958384 -0.002338 -0.002028 0.925887 -0.392336 0 0 0 0
240832517 -0.000478 -0.002032 0.924988 -0.397547 0 0 0 0
243706650 -0.001009 -0.002169 0.921716 -0.402455 0 0 0 0
246580783 -0.001168 -0.001856 0.919634 -0.405627 0 0 0 0
249454916 -0.001524 -0.001964 0.918352 -0.411487 0 0 0 0
252329049 -0.002181 -0.002231 0.916931 -0.415822 0 0 0 0
255203182 -0.002703 -0.002469 0.914337 -0.419962 0 0 0 0
258077315 -0.002539 -0.002415 0.912794 -0.424124 0 0 0 0
260951448 -0.003093 -0.00238 0.91117 -0.428069 0 0 0 0
263825581 -0.002926 -0.002517 0.908587 -0.432563 0 0 0 0
266699714 -0.004282 -0.002288 0.906949 -0.437338 0 0 0 0
269573847 -0.003286 -0.002245 0.903593 -0.44118 0 0 0 0
272447980 -0.003995 -0.002843 0.901134 -0.446092 0 0 0 0
275322113 -0.004208 -0.002158 0.899399 -0.449304 0 0 0 0
278196246 -0.002868 -0.002487 0.905474 -0.439097 0 0 0 0
281070379 -0.004395 -0.003603 0.896166 -0.458505 0 0 0 0
283944512 -0.004317 0.000101 0.893839 -0.463882 0 0 0 0
286818645 -0.004185 -0.00113 0.890358 -0.466964 0 0 0 0
289692778 -0.004195 -0.000844 0.898041 -0.456807 0 0 0 0
292566911 -0.005047 -5e-05 0.876237 -0.489482 0 0 0 0
295441044 -0.004205 -0.000811 0.882727 -0.480276 0 0 0 0
298315177 -0.004535 -0.001335 0.878834 -0.482973 0 0 0 0
301189310 -0.004166 0.000437 0.888062 -0.47329 0 0 0 0
304063443 -0.004382 -0.000305 0.875819 -0.491191 0 0 0 0
306937576 -0.0044 0.001043 0.871322 -0.497168 0 0 0 0
309811709 -0.005233 0.000825 0.870142 -0.500898 0 0 0 0
312685842 -0.004861 0.000444 0.879676 -0.487647 0 0 0 0
315559975 -0.004909 0.000206 0.86687 -0.50792 0 0 0 0
318434108 -0.00622 2.5e-05 0.865995 -0.511585 0 0 0 0
321308241 -0.006234 -0.000845 0.863687 -0.515317 0 0 0 0
324182374 -0.004935 0.000516 0.860281 -0.520031 0 0 0 0
327056507 -0.005449 0.001414 0.858162 -0.521934 0 0 0 0
329930640 -0.00606 -3.5e-05 0.854977 -0.526412 0 0 0 0
332804773 -0.005477 0.00103 0.852834 -0.530641 0 0 0 0
335678906 -0.006757 0.000417 0.851182 -0.537092 0 0 0 0
338553039 -0.007286 0.000167 0.849113 -0.539255 0 0 0 0
341427172 -0.006163 0.000782 0.847947 -0.544976 0 0 0 0
344301305 -0.004966 0.001971 0.844131 -0.54716 0 0 0 0
347175438 -0.006575 0.001734 0.840849 -0.553104 0 0 0 0
350049571 -0.005457 0.001351 0.839982 -0.555945 0 0 0 0
352923704 -0.007997 0.002813 0.834769 -0.559798 0 0 0 0
355797837 -0.005682 0.000652 0.836276 -0.563318 0 0 0 0
358671970 -0.007721 0.001161 0.831867 -0.565082 0 0 0 0
361546103 -0.00668 0.000818 0.826587 -0.571856 0 0 0 0
364420236 -0.00689 0.002624 0.823931 -0.57543 0 0 0 0
367294369 -0.008079 0.002968 0.821882 -0.580065 0 0 0 0
370168502 -0.007241 0.002347 0.819312 -0.585008 0 0 0 0
373042635 -0.007109 0.002869 0.815613 -0.586876 0 0 0 0
375916768 -0.007023 0.001868 0.814305 -0.590395 0 0 0 0
378790901 -0.007192 0.003803 0.809117 -0.59411 0 0 0 0
381665034 -0.007494 0.002787 0.80715 -0.598848 0 0 0 0
384539167 -0.006882 0.002731 0.802819 -0.603239 0 0 0 0
387413300 -0.007614 0.00381 0.798695 -0.606887 0 0 0 0
390287433 -0.0057 0.003672 0.797524 -0.608896 0 0 0 0
393161566 -0.006918 0.005046 0.793423 -0.614057 0 0 0 0
396035699 -0.008292 0.004172 0.792278 -0.617516 0 0 0 0
398909832 -0.007731 0.005001 0.788366 -0.622187 0 0 0 0
401783965 -0.007396 0.005409 0.787318 -0.627771 0 0 0 0
404658098 -0.008009 0.004919 0.784104 -0.630697 0 0 0 0
407532231 -0.008032 0.004931 0.782649 -0.634838 0 0 0 0
410406364 -0.007391 0.005085 0.819606 -0.602064 0 0 0 0
413280497 -0.00775 0.00542 0.776015 -0.642719 0 0 0 0
416154630 -0.007331 0.003732 0.771801 -0.643997 0 0 0 0
419028763 -0.008677 0.005774 0.768001 -0.648694 0 0 0 0
421902896 -0.008477 0.006509 0.76418 -0.653119 0 0 0 0
424777029 -0.009172 0.005196 0.76329 -0.657412 0 0 0 0
427651162 -0.007228 0.007309 0.760409 -0.660703 0 0 0 0
430525295 -0.009039 0.007684 0.758431 -0.663315 0 0 0 0
433399428 -0.008032 0.006754 0.754213 -0.667731 0 0 0 0
436273561 -0.009276 0.005271 0.750274 -0.672113 0 0 0 0
439147694 -0.008002 0.007744 0.747155 -0.675603 0 0 0 0
442021827 -0.007067 0.008949 0.742087 -0.678553 0 0 0 0
444895960 -0.007437 0.007854 0.739058 -0.683732 0 0 0 0
447770093 -0.006621 0.009394 0.735977 -0.686776 0 0 0 0
450644226 -0.006704 0.008945 0.732326 -0.688933 0 0 0 0
453518359 -0.006661 0.008399 0.728626 -0.69396 0 0 0 0
456392492 -0.00795 0.009299 0.727173 -0.695222 0 0 0 0
459266625 -0.006631 0.010571 0.722924 -0.697837 0 0 0 0
462140758 -0.009013 0.009982 0.718064 -0.70555 0 0 0 0
465014891 -0.005898 0.010737 0.715205 -0.707505 0 0 0 0
467889024 -0.00672 0.009587 0.712686 -0.710241 0 0 0 0
470763157 -0.006748 0.010581 0.708086 -0.713314 0 0 0 0
473637290 -0.006789 0.011045 0.702956 -0.717291 0 0 0 0
476511423 -0.005676 0.010006 0.699323 -0.718904 0 0 0 0
479385556 -0.005832 0.011528 0.698669 -0.722635 0 0 0 0
482259689 -0.005775 0.011935 0.692839 -0.726756 0 0 0 0
485133822 -0.007802 0.011187 0.691114 -0.731247 0 0 0 0
488007955 -0.006711 0.011977 0.686668 -0.734095 0 0 0 0
490882088 -0.004854 0.012138 0.682691 -0.736575 0 0 0 0
493756221 -0.005925 0.012856 0.680157 -0.739289 0 0 0 0
496630354 -0.005454 0.01345 0.676283 -0.741545 0 0 0 0
499504487 -0.00492 0.011958 0.671806 -0.745929 0 0 0 0
502378620 -0.00544 0.012686 0.666768 -0.749689 0 0 0 0
505252753 -0.006019 0.013484 0.663583 -0.751777 0 0 0 0
508126886 -0.008342 0.009277 0.661545 -0.754829 0 0 0 0
511001019 -0.00511 0.014366 0.656191 -0.759127 0 0 0 0
513875152 -0.004555 0.014535 0.654626 -0.760435 0 0 0 0
516749285 -0.006759 0.014057 0.652128 -0.766129 0 0 0 0
519623418 -0.002844 0.014491 0.648224 -0.770242 0 0 0 0
522497551 -0.005045 0.014469 0.641892 -0.773035 0 0 0 0
525371684 -0.003704 0.016201 0.641514 -0.774214 0 0 0 0
528245817 -0.004476 0.015323 0.636718 -0.777872 0 0 0 0
531119950 -0.003861 0.01564 0.633451 -0.780491 0 0 0 0
533994083 -0.004437 0.014757 0.627901 -0.781617 0 0 0 0
536868216 -0.004964 0.017769 0.623452 -0.786469 0 0 0 0
539742349 -0.004777 0.016952 0.621058 -0.79134 0 0 0 0
542616482 -0.004353 0.01706 0.617013 -0.791834 0 0 0 0
545490615 -0.003085 0.015609 0.613372 -0.79565 0 0 0 0
548364748 -0.002084 0.017577 0.610727 -0.796438 0 0 0 0
551238881 -0.003681 0.019951 0.607184 -0.799248 0 0 0 0
554113014 -0.002141 0.016718 0.601903 -0.803812 0 0 0 0
556987147 -0.003127 0.020011 0.596909 -0.807992 0 0 0 0
559861280 -0.002416 0.019454 0.591162 -0.808608 0 0 0 0
562735413 -0.0017 0.017786 0.590047 -0.81105 0 0 0 0
565609546 -0.002577 0.019026 0.58306 -0.81525 0 0 0 0
568483679 -0.004976 0.027968 0.579755 -0.820323 0 0 0 0
571357812 -0.000312 0.019774 0.577316 -0.821542 0 0 0 0
574231945 -0.002661 0.020573 0.575803 -0.822357 0 0 0 0
577106078 -0.003251 0.021252 0.571875 -0.825818 0 0 0 0
579980211 -0.001824 0.020995 0.567095 -0.828122 0 0 0 0
582854344 -0.002972 0.019668 0.564366 -0.831088 0 0 0 0
585728477 -0.000866 0.02089 0.558127 -0.834058 0 0 0 0
588602610 -0.001531 0.021492 0.556263 -0.835492 0 0 0 0
591476743 -0.002643 0.020838 0.55173 -0.838831 0 0 0 0
594350876 -0.001586 0.019332 0.548603 -0.839193 0 0 0 0
597225009 0.0004 0.02046 0.542624 -0.843993 0 0 0 0
600099142 -0.000998 0.020766 0.538456 -0.847791 0 0 0 0
602973275 -0.001088 0.021233 0.534242 -0.849516 0 0 0 0
605847408 -0.001179 0.020656 0.531579 -0.851515 0 0 0 0
608721541 0.000594 0.022611 0.527642 -0.853587 0 0 0 0
611595674 3.3e-05 0.022907 0.523889 -0.857427 0 0 0 0
614469807 -6.1e-05 0.022925 0.516884 -0.85872 0 0 0 0
617343940 -0.001347 0.022194 0.511295 -0.862668 0 0 0 0
620218073 0.001859 0.023679 0.508232 -0.866024 0 0 0 0
623092206 0.000654 0.022543 0.505048 -0.865789 0 0 0 0
625966339 0.002002 0.023216 0.501191 -0.869851 0 0 0 0
628840472 0.002821 0.024504 0.495856 -0.87332 0 0 0 0
631714605 0.002664 0.02297 0.493274 -0.875061 0 0 0 0
634588738 0.002311 0.021845 0.488473 -0.878109 0 0 0 0
637462871 0.001057 0.02382 0.482202 -0.882651 0 0 0 0
640337004 0.003427 0.02411 0.482445 -0.883242 0 0 0 0
643211137 0.002784 0.024786 0.473854 -0.885629 0 0 0 0
646085270 0.003768 0.024562 0.47351 -0.886283 0 0 0 0
648959403 0.00318 0.026312 0.465091 -0.887747 0 0 0 0
651833536 0.004264 0.024958 0.462759 -0.890243 0 0 0 0
654707669 0.005054 0.024919 0.454997 -0.893767 0 0 0 0
657581802 0.004603 0.026238 0.45125 -0.895743 0 0 0 0
660455935 0.004191 0.024994 0.45314 -0.89727 0 0 0 0
663330068 0.004751 0.023952 0.445453 -0.897954 0 0 0 0
666204201 0.00423 0.024054 0.442564 -0.902375 0 0 0 0
669078334 0.00517 0.024951 0.432991 -0.905666 0 0 0 0
671952467 0.005646 0.025209 0.430529 -0.904424 0 0 0 0
674826600 0.006064 0.024328 0.427166 -0.90659 0 0 0 0
677700733 0.006967 0.026819 0.422096 -0.905963 0 0 0 0
680574866 0.006269 0.023777 0.420698 -0.906759 0 0 0 0
683448999 0.00617 0.025922 0.414907 -0.91138 0 0 0 0
686323132 0.006336 0.026699 0.41211 -0.910053 0 0 0 0
689197265 0.007501 0.02615 0.40814 -0.915417 0 0 0 0
692071398 0.008873 0.025681 0.402805 -0.915 0 0 0 0
694945531 0.00728 0.023977 0.397639 -0.920543 0 0 0 0
697819664 0.007893 0.023438 0.394431 -0.918139 0 0 0 0
700693797 0.008181 0.025539 0.391128 -0.923722 0 0 0 0
703567930 0.010098 0.026533 0.385044 -0.922457 0 0 0 0
706442063 0.007128 0.020006 0.369164 -0.931307 0 0 0 0
709316196 0.00874 0.024694 0.363149 -0.930196 0 0 0 0
712190329 0.009561 0.026449 0.374264 -0.925452 0 0 0 0
715064462 0.010249 0.026772 0.365493 -0.928565 0 0 0 0
717938595 0.013265 0.024601 0.345758 -0.934275 0 0 0 0
720812728 0.010073 0.025833 0.321773 -0.942427 0 0 0 0
723686861 0.011145 0.025014 0.336275 -0.941568 0 0 0 0
726560994 0.009951 0.026083 0.334203 -0.942583 0 0 0 0
729435127 0.01149 0.033134 0.361293 -0.934992 0 0 0 0
732309260 0.011068 0.025955 0.32501 -0.943276 0 0 0 0
735183393 0.012099 0.031418 0.215664 -0.971384 0 0 0 0
738057526 0.01024 0.024128 0.310788 -0.946367 0 0 0 0
740931659 0.011285 0.024888 0.33072 -0.942793 0 0 0 0
743805792 0.012329 0.024304 0.307954 -0.950125 0 0 0 0
746679925 0.013174 0.024589 0.303626 -0.951224 0 0 0 0
749554058 0.012925 0.022885 0.330542 -0.947964 0 0 0 0
752428191 0.014476 0.025025 0.31285 -0.952924 0 0 0 0
755302324 0.015257 0.023485 0.307372 -0.954046 0 0 0 0
758176457 0.013278 0.024269 0.30055 -0.955303 0 0 0 0
761050590 0.014742 0.024118 0.294999 -0.95644 0 0 0 0
763924723 0.015498 0.022974 0.294255 -0.958604 0 0 0 0
766798856 0.016521 0.022238 0.29036 -0.957644 0 0 0 0
769672989 0.01487 0.022868 0.284381 -0.961343 0 0 0 0
772547122 0.017094 0.023497 0.277339 -0.961202 0 0 0 0
775421255 0.017281 0.022515 0.276625 -0.964328 0 0 0 0
778295388 0.026693 0.012104 0.27347 -0.965652 0 0 0 0
781169521 0.019257 0.020009 0.268331 -0.96351 0 0 0 0
784043654 0.019199 0.020779 0.267105 -0.967066 0 0 0 0
786917787 0.018432 0.020732 0.262972 -0.967034 0 0 0 0
789791920 0.019096 0.020996 0.260455 -0.971177 0 0 0 0
792666053 0.019138 0.021248 0.252589 -0.971547 0 0 0 0
795540186 0.01949 0.020677 0.251377 -0.971743 0 0 0 0
798414319 0.020251 0.019316 0.246079 -0.973965 0 0 0 0
801288452 0.01902 0.018922 0.238315 -0.975432 0 0 0 0
804162585 0.022147 0.020253 0.234732 -0.977487 0 0 0 0
807036718 0.022628 0.017923 0.233682 -0.980457 0 0 0 0
809910851 0.023091 0.020159 0.223658 -0.984325 0 0 0 0
812784984 0.021639 0.018484 0.220149 -0.983874 0 0 0 0
815659117 0.02191 0.016037 0.215608 -0.983112 0 0 0 0
818533250 0.021438 0.016597 0.209748 -0.986045 0 0 0 0
821407383 0.022885 0.016712 0.203742 -0.989409 0 0 0 0
824281516 0.025278 0.015901 0.19716 -0.985865 0 0 0 0
827155649 0.024354 0.019079 0.194169 -0.988247 0 0 0 0
830029782 0.025975 0.019087 0.188679 -0.989928 0 0 0 0
832903915 0.024081 0.017691 0.185416 -0.989417 0 0 0 0
835778048 0.025022 0.01534 0.179533 -0.99681 0 0 0 0
838652181 0.027087 0.014108 0.172217 -0.993473 0 0 0 0
841526314 0.026226 0.014998 0.168956 -0.994406 0 0 0 0
844400447 0.028636 0.014906 0.166904 -0.995666 0 0 0 0
847274580 0.029253 0.016355 0.157512 -0.996492 0 0 0 0
850148713 0.027186 0.014373 0.152747 -0.99633 0 0 0 0
853022846 0.027781 0.013418 0.149741 -0.996322 0 0 0 0
855896979 0.026548 0.013475 0.145456 -0.998712 0 0 0 0
858771112 0.028482 0.013048 0.01468 -1.001505 0 0 0 0
861645245 0.030153 0.013132 0.133007 -1.000426 0 0 0 0
864519378 0.03132 0.012011 0.129855 -1.000087 0 0 0 0
867393511 0.031128 0.012639 0.125263 -1.000162 0 0 0 0
870267644 0.032415 0.013046 0.118048 -1.00056 0 0 0 0
873141777 0.030089 0.013613 0.112942 -0.998917 0 0 0 0
876015910 0.030594 0.012944 0.11163 -1.001507 0 0 0 0
878890043 0.030718 0.011268 0.105257 -1.001664 0 0 0 0
881764176 0.030729 0.011809 0.100041 -0.998522 0 0 0 0
884638309 0.031718 0.008879 0.09311 -1.001262 0 0 0 0
887512442 0.033587 0.010138 0.088079 -1.000653 0 0 0 0
890386575 0.032421 0.009721 0.084885 -0.998756 0 0 0 0
893260708 0.033095 0.008563 0.075992 -1.0026 0 0 0 0
896134841 0.034006 0.010541 0.070311 -1.001069 0 0 0 0
899008974 0.03372 0.006984 0.066595 -1.000474 0 0 0 0
901883107 0.033003 0.007222 0.06036 -0.999116 0 0 0 0
904757240 0.032099 0.007614 0.055354 -1.001559 0 0 0 0
907631373 0.036044 0.005156 0.050284 -1.001658 0 0 0 0
910505506 0.035851 0.005174 0.04429 -0.997908 0 0 0 0
913379639 0.03569 0.002789 0.038818 -1.001066 0 0 0 0
916253772 0.036346 0.001476 0.03228 -0.996792 0 0 0 0
919127905 0.035674 0.004477 -0.005667 -0.997574 0 0 0 0
922002038 0.036898 0.003064 0.023759 -0.998383 0 0 0 0
924876171 0.037129 0.002863 0.016731 -1.000859 0 0 0 0
927750304 0.037433 0.004247 0.014515 -1.002182 0 0 0 0
930624437 0.036837 0.002553 0.014223 -0.999701 0 0 0 0
933498570 0.036064 0.00203 0.010205 -0.999995 0 0 0 0
936372703 0.04395 -0.016996 0.039783 -1.002934 0 0 0 0
939246836 0.03682 0.001984 0.002641 -0.999972 0 0 0 0
942120969 0.037142 0.002314 -0.004246 -0.996545 0 0 0 0
944995102 0.038394 -0.001721 -0.13278 -0.98033 0 0 0 0
947869235 0.037446 0.001272 -0.011699 -0.999499 0 0 0 0
950743368 0.037745 3.7e-05 -0.021552 -1.000156 0 0 0 0
953617501 0.03859 -0.000144 -0.024408 -0.996193 0 0 0 0
956491634 0.03856 0.000656 -0.027856 -0.997938 0 0 0 0
959365767 0.039187 -0.000977 -0.0301 -0.998572 0 0 0 0
962239900 0.037419 -0.000943 -0.033628 -0.998598 0 0 0 0
965114033 0.038398 -0.002303 -0.04208 -0.996105 0 0 0 0
967988166 0.037971 -0.001705 -0.046976 -0.99604 0 0 0 0
970862299 0.038827 -0.001784 -0.055028 -0.995425 0 0 0 0
973736432 0.036895 -0.002958 -0.056121 -0.996938 0 0 0 0
976610565 0.040163 -0.0033 -0.057439 -0.999769 0 0 0 0
979484698 0.041104 -0.003406 -0.066933 -0.997334 0 0 0 0
982358831 0.038423 -0.004509 -0.069255 -0.99788 0 0 0 0
985232964 0.039875 -0.005665 -0.072682 -0.997446 0 0 0 0
988107097 0.038339 -0.004605 -0.096653 -0.993184 0 0 0 0
990981230 0.04233 -0.00581 -0.099897 -0.991817 0 0 0 0
993855363 0.038602 -0.005553 -0.082439 -0.995072 0 0 0 0
996729496 0.039719 -0.00685 -0.087233 -0.996612 0 0 0 0
999603629 0.037413 -0.006399 -0.094501 -0.994495 0 0 0 0
1002477762 0.03783 -0.006704 -0.075795 -0.99988 0 0 0 0
1005351895 0.039735 -0.007667 -0.099356 -0.995614 0 0 0 0
1008226028 0.038893 -0.007448 -0.10354 -0.995857 0 0 0 0
1011100161 0.037646 -0.010162 -0.130229 -0.99311 0 0 0 0
1013974294 0.039168 -0.007929 -0.097851 -0.999609 0 0 0 0
1016848427 0.039009 -0.010138 -0.120478 -0.995448 0 0 0 0
1019722560 0.041355 -0.011776 -0.129369 -0.99432 0 0 0 0
1022596693 0.038645 -0.009388 -0.14829 -0.988167 0 0 0 0
1025470826 0.038287 -0.009947 -0.113992 -0.998682 0 0 0 0
1028344959 0.037186 -0.009317 -0.138783 -0.990624 0 0 0 0
1031219092 0.039293 -0.012101 -0.141694 -0.991764 0 0 0 0
1034093225 0.037837 -0.010913 -0.14866 -0.991189 0 0 0 0
1036967358 0.038727 -0.012754 -0.156696 -0.990929 0 0 0 0
1039841491 0.03898 -0.012166 -0.161561 -0.990384 0 0 0 0
1042715624 0.039825 -0.014478 -0.167066 -0.988928 0 0 0 0
1045589757 0.037861 -0.014841 -0.171554 -0.988883 0 0 0 0
1048463890 0.037436 -0.013011 -0.170113 -0.990107 0 0 0 0
1051338023 0.038529 -0.014 -0.180427 -0.986913 0 0 0 0
1054212156 0.038945 -0.013799 -0.184937 -0.985168 0 0 0 0
1057086289 0.037489 -0.014585 -0.189243 -0.985575 0 0 0 0
1059960422 0.037376 -0.015357 -0.196169 -0.981923 0 0 0 0
1062834555 0.036397 -0.017071 -0.203056 -0.98249 0 0 0 0
1065708688 0.036543 -0.016162 -0.202404 -0.985363 0 0 0 0
1068582821 0.037261 -0.018501 -0.2143 -0.983348 0 0 0 0
1071456954 0.038696 -0.017644 -0.215582 -0.981725 0 0 0 0
1074331087 0.03411 -0.01803 -0.217167 -0.98011 0 0 0 0
1077205220 0.03588 -0.01998 -0.230405 -0.97963 0 0 0 0
1080079353 0.037033 -0.017938 -0.230267 -0.97985 0 0 0 0
1082953486 0.03483 -0.017049 -0.234966 -0.974546 0 0 0 0
1085827619 0.034046 -0.020598 -0.237942 -0.975024 0 0 0 0
1088701752 0.033211 -0.020981 -0.244779 -0.974279 0 0 0 0
1091575885 0.032755 -0.022991 -0.248489 -0.973384 0 0 0 0
1094450018 0.032166 -0.021201 -0.25196 -0.974226 0 0 0 0
1097324151 0.029323 -0.021821 -0.256917 -0.974266 0 0 0 0
1100198284 0.033639 -0.022383 -0.256454 -0.971797 0 0 0 0
1103072417 0.028988 -0.025136 -0.270437 -0.968614 0 0 0 0
1105946550 0.032612 -0.023872 -0.274802 -0.969284 0 0 0 0
1108820683 0.031843 -0.023649 -0.277969 -0.966729 0 0 0 0
1111694816 0.028593 -0.025778 -0.279793 -0.963606 0 0 0 0
1114568949 0.031042 -0.025299 -0.283586 -0.964167 0 0 0 0
1117443082 0.028296 -0.027201 -0.289243 -0.963073 0 0 0 0
1120317215 0.028349 -0.026626 -0.297511 -0.959942 0 0 0 0
1123191348 0.030157 -0.025618 -0.298516 -0.958334 0 0 0 0
1126065481 0.026973 -0.026496 -0.304372 -0.958666 0 0 0 0
1128939614 0.027674 -0.027319 -0.313109 -0.957118 0 0 0 0
