# HZ S RI R 50
100000000 0.000456 -0.004105 0.984128 -0.167772 0 0 0 0
129000000 -0.004153 -0.001526 0.977971 -0.212407 0 0 0 0
158000000 -0.000253 -0.00209 0.963248 -0.261129 0 0 0 0
187000000 -0.000668 -0.003013 0.952655 -0.308843 0 0 0 0
216000000 -0.001878 -0.002722 0.933684 -0.356995 0 0 0 0
245000000 -0.003548 -0.001192 0.914635 -0.400078 0 0 0 0
274000000 -0.004685 -0.001471 0.891454 -0.445512 0 0 0 0
303000000 -0.004882 -0.001758 0.867114 -0.487173 0 0 0 0
332000000 -0.005118 -0.000642 0.843115 -0.529004 0 0 0 0
361000000 -0.006291 0.000986 0.820992 -0.565451 0 0 0 0
390000000 -0.008405 0.00348 0.793652 -0.607547 0 0 0 0
419000000 -0.008745 0.007135 0.7618 -0.645168 0 0 0 0
448000000 -0.010389 0.008198 0.72975 -0.681169 0 0 0 0
477000000 -0.008187 0.009379 0.694682 -0.716505 0 0 0 0
506000000 -0.006379 0.010142 0.65918 -0.747689 0 0 0 0
535000000 -0.005453 0.014463 0.619141 -0.778024 0 0 0 0
564000000 -0.003855 0.017545 0.583836 -0.807693 0 0 0 0
593000000 -0.000676 0.016844 0.543802 -0.834259 0 0 0 0
622000000 -0.000235 0.019898 0.49906 -0.865182 0 0 0 0
651000000 0.004892 0.01831 0.460215 -0.885823 0 0 0 0
680000000 0.00743 0.023783 0.418173 -0.900874 0 0 0 0
709000000 0.012421 0.021199 0.369303 -0.920934 0 0 0 0
738000000 0.015832 0.021298 0.327459 -0.937432 0 0 0 0
767000000 0.018934 0.019166 0.286863 -0.952606 0 0 0 0
796000000 0.020863 0.018188 0.239415 -0.970063 0 0 0 0
825000000 0.025579 0.015577 0.191519 -0.982132 0 0 0 0
854000000 0.026871 0.012473 0.145389 -0.987495 0 0 0 0
883000000 0.031886 0.009216 0.081111 -0.995151 0 0 0 0
912000000 0.031436 0.003079 0.036103 -0.989216 0 0 0 0
941000000 0.034416 -0.000332 -0.004591 -0.992958 0 0 0 0
970000000 0.033003 -0.006002 -0.058077 -0.990312 0 0 0 0
999000000 0.037284 -0.012289 -0.092746 -0.988921 0 0 0 0
1028000000 0.036945 -0.017841 -0.148414 -0.983183 0 0 0 0
1057000000 0.033994 -0.023044 -0.192529 -0.979671 0 0 0 0
1086000000 0.031487 -0.028652 -0.249902 -0.96366 0 0 0 0
1115000000 0.027463 -0.029257 -0.286098 -0.953977 0 0 0 0
1144000000 0.020476 -0.037389 -0.352324 -0.933388 0 0 0 0
1173000000 0.012273 -0.040592 -0.383886 -0.912682 0 0 0 0
1202000000 0.009668 -0.044852 -0.42629 -0.896169 0 0 0 0
1231000000 0.003035 -0.047221 -0.465461 -0.872354 0 0 0 0
1260000000 -0.004469 -0.053633 -0.523592 -0.823297 0 0 0 0
1289000000 -0.014173 -0.053047 -0.550824 -0.821357 0 0 0 0
1318000000 -0.022915 -0.051115 -0.585656 -0.800191 0 0 0 0
1347000000 -0.030715 -0.053222 -0.624487 -0.769681 0 0 0 0
1376000000 -0.038373 -0.049168 -0.55995 -0.827036 0 0 0 0
1405000000 -0.045703 -0.046896 -0.706301 -0.702856 0 0 0 0
1434000000 -0.053092 -0.04147 -0.736358 -0.672544 0 0 0 0
1463000000 -0.059653 -0.035802 -0.766267 -0.633438 0 0 0 0
1492000000 -0.061152 -0.027465 -0.795362 -0.592211 0 0 0 0
1521000000 -0.066334 -0.019881 -0.8251 -0.55738 0 0 0 0
1550000000 -0.070249 -0.007887 -0.847531 -0.518315 0 0 0 0
1579000000 -0.072988 0.001708 -0.876312 -0.467288 0 0 0 0
1608000000 -0.0748 0.016597 -0.897252 -0.429911 0 0 0 0
1637000000 -0.07195 0.025957 -0.910584 -0.390552 0 0 0 0
1666000000 -0.07116 0.037792 -0.931273 -0.342528 0 0 0 0
1695000000 -0.068504 0.049665 -0.951135 -0.296098 0 0 0 0
1724000000 -0.06687 0.059672 -0.961479 -0.249606 0 0 0 0
1753000000 -0.063135 0.069118 -0.969516 -0.207479 0 0 0 0
1782000000 -0.054833 0.081027 -0.979663 -0.155836 0 0 0 0
1811000000 -0.046479 0.088364 -0.985542 -0.114802 0 0 0 0
1840000000 -0.037558 0.094798 -0.985013 -0.053462 0 0 0 0
1869000000 -0.02462 0.096844 -0.998151 -0.010936 0 0 0 0
1898000000 -0.018464 0.101097 -0.993465 0.020693 0 0 0 0
1927000000 -0.002945 0.102554 -0.986457 0.084629 0 0 0 0
1956000000 0.012833 0.099797 -0.983981 0.122071 0 0 0 0
1985000000 0.024862 0.097607 -0.977789 0.175096 0 0 0 0
2014000000 0.03793 0.095053 -0.967296 0.232305 0 0 0 0
2043000000 0.054872 0.086161 -0.962362 0.264617 0 0 0 0
2072000000 0.065901 0.080672 -0.939985 0.314557 0 0 0 0
2101000000 0.076403 0.068001 -0.932739 0.361979 0 0 0 0
2130000000 0.088342 0.058337 -0.90366 0.408066 0 0 0 0
2159000000 0.097635 0.048407 -0.885058 0.452763 0 0 0 0
2188000000 0.10491 0.039451 -0.861756 0.499981 0 0 0 0
2217000000 0.110603 0.025192 -0.836235 0.540588 0 0 0 0
2246000000 0.108414 0.007197 -0.801906 0.576833 0 0 0 0
2275000000 0.110896 -0.001658 -0.781743 0.611677 0 0 0 0
2304000000 0.103108 -0.017287 -0.739354 0.668173 0 0 0 0
2333000000 0.100243 -0.026553 -0.732122 0.683797 0 0 0 0
2362000000 0.090323 -0.041334 -0.683626 0.747537 0 0 0 0
2391000000 0.076677 -0.059282 -0.647494 0.768916 0 0 0 0
2420000000 0.063657 -0.071727 -0.600866 0.790469 0 0 0 0
2449000000 0.05164 -0.081005 -0.547492 0.815932 0 0 0 0
2478000000 0.032641 -0.090134 -0.423496 0.871664 0 0 0 0
2507000000 0.019346 -0.098623 -0.478096 0.845573 0 0 0 0
2536000000 -0.004513 -0.112012 -0.484277 0.848756 0 0 0 0
2565000000 -0.018102 -0.111165 -0.417816 0.888772 0 0 0 0
2594000000 -0.034219 -0.113896 -0.389791 0.928611 0 0 0 0
2623000000 -0.042168 -0.115912 -0.323005 0.952106 0 0 0 0
2652000000 -0.062014 -0.110501 -0.278346 0.964027 0 0 0 0
2681000000 -0.078971 -0.10115 -0.21238 0.96012 0 0 0 0
2710000000 -0.085739 -0.092264 -0.154431 0.955311 0 0 0 0
2739000000 -0.100014 -0.079074 -0.099229 0.962226 0 0 0 0
2768000000 -0.101899 -0.0638 -0.065551 0.959664 0 0 0 0
2797000000 -0.113517 -0.03637 0.000834 0.942639 0 0 0 0
2826000000 -0.116939 -0.020368 -0.006528 0.96126 0 0 0 0
2855000000 -0.12789 0.006388 0.022788 0.991621 0 0 0 0
2884000000 -0.131484 0.028671 0.084254 1.003293 0 0 0 0
2913000000 -0.138822 0.045315 0.15978 0.993276 0 0 0 0
2942000000 -0.138751 0.078985 0.212468 0.981446 0 0 0 0
2971000000 -0.132176 0.087644 0.253757 0.970221 0 0 0 0
3000000000 -0.132648 0.107539 0.32667 0.936964 0 0 0 0
