# HZ S RI R 50
100000000 -0.000496 -0.000671 0.99112 -0.170593 0 0 0 0
129000000 0.003431 -0.001371 0.978936 -0.218893 0 0 0 0
158000000 0.001171 -0.004387 0.970601 -0.264146 0 0 0 0
187000000 0.000472 -0.003309 0.958572 -0.313183 0 0 0 0
216000000 -0.000406 -0.00269 0.939969 -0.359848 0 0 0 0
245000000 -0.001772 -0.002258 0.920923 -0.403493 0 0 0 0
274000000 -0.00315 -0.002261 0.899815 -0.448377 0 0 0 0
303000000 -0.003631 -0.000348 0.852938 -0.51611 0 0 0 0
332000000 -0.005841 0.00142 0.852536 -0.529979 0 0 0 0
361000000 -0.007038 0.001398 0.826319 -0.570292 0 0 0 0
390000000 -0.007518 0.004396 0.798313 -0.610464 0 0 0 0
419000000 -0.007868 0.005121 0.768231 -0.64789 0 0 0 0
448000000 -0.008441 0.007431 0.735135 -0.686213 0 0 0 0
477000000 -0.006106 0.011164 0.698903 -0.720577 0 0 0 0
506000000 -0.005371 0.013139 0.662754 -0.751591 0 0 0 0
535000000 -0.004842 0.016429 0.624678 -0.784805 0 0 0 0
564000000 -0.002719 0.019893 0.585172 -0.812827 0 0 0 0
593000000 -0.002133 0.020213 0.546493 -0.84047 0 0 0 0
622000000 0.002871 0.022113 0.506859 -0.8646 0 0 0 0
651000000 0.003134 0.023602 0.460869 -0.889214 0 0 0 0
680000000 0.005646 0.027226 0.417338 -0.911068 0 0 0 0
709000000 0.0088 0.025415 0.376631 -0.928638 0 0 0 0
738000000 0.011795 0.024303 0.330924 -0.943265 0 0 0 0
767000000 0.015076 0.022158 0.270887 -0.961794 0 0 0 0
796000000 0.022218 0.018835 0.250426 -0.972886 0 0 0 0
825000000 0.021203 0.017877 0.19431 -0.988374 0 0 0 0
854000000 0.026389 0.014403 0.14171 -0.997875 0 0 0 0
883000000 0.03117 0.011096 0.079142 -1.001225 0 0 0 0
912000000 0.034403 0.006617 0.048751 -0.999705 0 0 0 0
941000000 0.036517 0.0019 -0.005847 -0.999615 0 0 0 0
970000000 0.038642 -0.002544 -0.053568 -0.997579 0 0 0 0
999000000 0.039422 -0.006619 -0.109334 -0.990134 0 0 0 0
1028000000 0.038632 -0.010307 -0.139544 -0.993536 0 0 0 0
1057000000 0.038572 -0.014382 -0.171032 -0.991777 0 0 0 0
1086000000 0.031478 -0.019893 -0.238721 -0.975851 0 0 0 0
1115000000 0.029137 -0.025224 -0.287907 -0.962217 0 0 0 0
1144000000 0.025687 -0.024778 -0.333048 -0.946156 0 0 0 0
1173000000 0.017391 -0.034557 -0.384357 -0.923891 0 0 0 0
1202000000 0.010383 -0.037373 -0.428167 -0.903904 0 0 0 0
1231000000 0.005036 -0.041606 -0.464945 -0.883473 0 0 0 0
1260000000 -0.001851 -0.045549 -0.53536 -0.852402 0 0 0 0
1289000000 -0.008578 -0.047251 -0.544159 -0.843087 0 0 0 0
1318000000 -0.016881 -0.045773 -0.588069 -0.811066 0 0 0 0
1347000000 -0.023092 -0.04447 -0.621169 -0.780416 0 0 0 0
1376000000 -0.029982 -0.039631 -0.663173 -0.749716 0 0 0 0
1405000000 -0.038289 -0.039388 -0.701682 -0.721744 0 0 0 0
1434000000 -0.043468 -0.030174 -0.725532 -0.678721 0 0 0 0
1463000000 -0.050287 -0.024658 -0.767201 -0.642347 0 0 0 0
1492000000 -0.052699 -0.017508 -0.790802 -0.612027 0 0 0 0
1521000000 -0.061183 -0.006908 -0.824413 -0.574005 0 0 0 0
1550000000 -0.064057 -0.001174 -0.850664 -0.523065 0 0 0 0
1579000000 -0.066024 0.01018 -0.872554 -0.493113 0 0 0 0
1608000000 -0.067281 0.022665 -0.891874 -0.445265 0 0 0 0
1637000000 -0.066159 0.031227 -0.915574 -0.398132 0 0 0 0
1666000000 -0.064196 0.041076 -0.935494 -0.356688 0 0 0 0
1695000000 -0.060404 0.051203 -0.947836 -0.313205 0 0 0 0
1724000000 -0.056095 0.063212 -0.961335 -0.26731 0 0 0 0
1753000000 -0.046331 0.072976 -0.977339 -0.216137 0 0 0 0
1782000000 -0.044805 0.077986 -0.979373 -0.177563 0 0 0 0
1811000000 -0.033028 0.091621 -0.986495 -0.127394 0 0 0 0
1840000000 -0.020469 0.095395 -0.991406 -0.076356 0 0 0 0
1869000000 -0.010657 0.099769 -1.003347 -0.010943 0 0 0 0
1898000000 0.001076 0.10106 -0.996514 0.026974 0 0 0 0
1927000000 0.012138 0.10239 -0.997664 0.064433 0 0 0 0
1956000000 0.024663 0.101228 -0.983577 0.12395 0 0 0 0
1985000000 0.03899 0.099975 -0.981826 0.159128 0 0 0 0
2014000000 0.055697 0.093666 -0.977349 0.219707 0 0 0 0
2043000000 0.06618 0.085043 -0.963519 0.253311 0 0 0 0
2072000000 0.079414 0.076159 -0.952194 0.299041 0 0 0 0
2101000000 0.089553 0.068604 -0.926986 0.350731 0 0 0 0
2130000000 0.100391 0.057879 -0.91456 0.400256 0 0 0 0
2159000000 0.108698 0.044449 -0.895375 0.440268 0 0 0 0
2188000000 0.119276 0.035095 -0.86999 0.493938 0 0 0 0
2217000000 0.124953 0.022179 -0.847915 0.521538 0 0 0 0
2246000000 0.124999 0.009487 -0.818816 0.563177 0 0 0 0
2275000000 0.124297 -0.004794 -0.794876 0.59558 0 0 0 0
2304000000 0.115693 -0.017307 -0.783933 0.634726 0 0 0 0
2333000000 0.114735 -0.029705 -0.743093 0.674614 0 0 0 0
2362000000 0.103479 -0.044202 -0.694122 0.731066 0 0 0 0
2391000000 0.091721 -0.05942 -0.65912 0.755644 0 0 0 0
2420000000 0.07597 -0.077041 -0.61963 0.786606 0 0 0 0
2449000000 0.063663 -0.091042 -0.560591 0.806002 0 0 0 0
2478000000 0.041847 -0.097044 -0.533503 0.821353 0 0 0 0
2507000000 0.030812 -0.111169 -0.492766 0.84318 0 0 0 0
2536000000 0.006227 -0.125021 -0.473679 0.841146 0 0 0 0
2565000000 -0.001497 -0.127999 -0.431443 0.879939 0 0 0 0
2594000000 -0.018812 -0.131014 -0.387387 0.92443 0 0 0 0
2623000000 -0.032828 -0.127964 -0.347466 0.950831 0 0 0 0
2652000000 -0.048571 -0.124933 -0.299583 0.9617 0 0 0 0
2681000000 -0.061269 -0.113367 -0.222063 0.959818 0 0 0 0
2710000000 -0.069861 -0.102441 -0.162182 0.955584 0 0 0 0
2739000000 -0.079893 -0.089581 -0.122755 0.951549 0 0 0 0
2768000000 -0.092817 -0.067401 -0.087543 0.959251 0 0 0 0
2797000000 -0.105235 -0.04596 -0.075876 0.941933 0 0 0 0
2826000000 -0.111217 -0.024561 -0.047001 0.948855 0 0 0 0
2855000000 -0.117162 -0.001794 0.004028 0.9677 0 0 0 0
2884000000 -0.126713 0.021991 0.076555 0.986767 0 0 0 0
2913000000 -0.136067 0.043953 0.114903 0.995464 0 0 0 0
2942000000 -0.135343 0.064263 0.178043 0.985905 0 0 0 0
2971000000 -0.134773 0.080495 0.235585 0.972584 0 0 0 0
3000000000 -0.139017 0.104003 0.27622 0.959172 0 0 0 0
