# HZ S RI R 50
100000000 -0.996442 0.102148 -3.7e-05 3.6e-05 0 0 0 0
102874133 -1.007271 0.105141 9e-06 2.3e-05 0 0 0 0
105748266 -1.009989 0.105119 -1.6e-05 -4.4e-05 0 0 0 0
108622399 -1.016243 0.111033 -6.9e-05 1.8e-05 0 0 0 0
111496532 -1.020087 0.117576 -9e-06 1e-05 0 0 0 0
114370665 -1.015004 0.115728 -2.7e-05 4.5e-05 0 0 0 0
117244798 -1.018936 0.116203 3.8e-05 3.3e-05 0 0 0 0
120118931 -1.013536 0.118166 -1.3e-05 6.4e-05 0 0 0 0
122993064 -1.006832 0.122946 -3.3e-05 3.9e-05 0 0 0 0
125867197 -0.998267 0.126544 -2.7e-05 1.1e-05 0 0 0 0
128741330 -0.988241 0.131461 2e-05 -1.8e-05 0 0 0 0
131615463 -0.993947 0.136616 -2.2e-05 5.6e-05 0 0 0 0
134489596 -1.00298 0.140821 2e-06 -1.5e-05 0 0 0 0
137363729 -1.006097 0.142206 -1.3e-05 -1.2e-05 0 0 0 0
140237862 -1.010401 0.145702 5.2e-05 -6.1e-05 0 0 0 0
143111995 -1.011342 0.148424 -5e-06 -1.6e-05 0 0 0 0
145986128 -1.010662 0.15054 2e-06 4.1e-05 0 0 0 0
148860261 -1.008882 0.151073 -2.6e-05 4.6e-05 0 0 0 0
151734394 -1.003787 0.153974 4.1e-05 1.6e-05 0 0 0 0
154608527 -0.994672 0.155928 -1.9e-05 1e-06 0 0 0 0
157482660 -0.987282 0.159369 -2.9e-05 1.7e-05 0 0 0 0
160356793 -0.990718 0.165402 -4e-05 -5.2e-05 0 0 0 0
163230926 -0.998335 0.171034 3e-06 4.1e-05 0 0 0 0
166105059 -1.003366 0.175494 9e-06 -9e-06 0 0 0 0
168979192 -1.006082 0.177842 4e-06 9e-06 0 0 0 0
171853325 -1.008708 0.180293 -5.1e-05 3.6e-05 0 0 0 0
174727458 -1.004798 0.197659 -1.5e-05 5.8e-05 0 0 0 0
177601591 -1.006789 0.18417 -1.1e-05 6e-06 0 0 0 0
180475724 -1.000528 0.184745 -3.2e-05 1.8e-05 0 0 0 0
183349857 -0.990813 0.188767 -6.4e-05 -4e-06 0 0 0 0
186223990 -0.980248 0.18988 -2.6e-05 -3.6e-05 0 0 0 0
189098123 -0.984961 0.193849 -4.3e-05 -1.8e-05 0 0 0 0
191972256 -0.990904 0.201063 -1.6e-05 -5.6e-05 0 0 0 0
194846389 -0.995358 0.205176 2.9e-05 -1.7e-05 0 0 0 0
197720522 -0.989565 0.239988 -6.5e-05 -4.4e-05 0 0 0 0
200594655 -1.001275 0.212515 -5.3e-05 2.3e-05 0 0 0 0
203468788 -0.982816 0.262427 3.2e-05 -3.6e-05 0 0 0 0
206342921 -0.97426 0.278241 -1.2e-05 -4e-06 0 0 0 0
209217054 -0.991718 0.21552 -4.9e-05 -1e-06 0 0 0 0
212091187 -0.985621 0.216069 6.6e-05 2.5e-05 0 0 0 0
214965320 -0.977172 0.216931 2.6e-05 3e-06 0 0 0 0
217839453 -0.97666 0.220632 -5.3e-05 1.8e-05 0 0 0 0
220713586 -0.982938 0.227596 6.1e-05 4.7e-05 0 0 0 0
223587719 -0.986579 0.23164 -1.4e-05 4.3e-05 0 0 0 0
226461852 -0.992427 0.238101 1e-05 3.2e-05 0 0 0 0
229335985 -0.991078 0.240215 -4.1e-05 2.9e-05 0 0 0 0
232210118 -0.991047 0.241923 -5.2e-05 2e-06 0 0 0 0
235084251 -0.989585 0.24394 -6e-06 -9e-06 0 0 0 0
237958384 -0.982992 0.244564 -4.4e-05 -3e-05 0 0 0 0
240832517 -0.977873 0.245054 -3.9e-05 -4e-06 0 0 0 0
243706650 -0.970043 0.246366 -3.8e-05 5.6e-05 0 0 0 0
246580783 -0.969132 0.249113 9e-06 -1.2e-05 0 0 0 0
249454916 -0.974058 0.256106 -5.7e-05 -1e-05 0 0 0 0
252329049 -0.977308 0.260857 -6.4e-05 3.4e-05 0 0 0 0
255203182 -0.980134 0.266636 -4.4e-05 6.3e-05 0 0 0 0
258077315 -0.982137 0.269157 5e-06 4.7e-05 0 0 0 0
260951448 -0.981264 0.271833 1.4e-05 6e-05 0 0 0 0
263825581 -0.978347 0.27272 7.2e-05 6e-05 0 0 0 0
266699714 -0.975892 0.273947 8e-06 4.7e-05 0 0 0 0
269573847 -0.968677 0.275089 -4e-05 -7e-06 0 0 0 0
272447980 -0.961671 0.276723 -1e-06 6.4e-05 0 0 0 0
275322113 -0.959047 0.27735 7.8e-05 1.8e-05 0 0 0 0
278196246 -0.964253 0.284692 -2.5e-05 3.1e-05 0 0 0 0
281070379 -0.967598 0.289223 -2e-06 3.4e-05 0 0 0 0
283944512 -0.973572 0.29561 5e-06 1.1e-05 0 0 0 0
286818645 -0.975037 0.297893 3.3e-05 3.4e-05 0 0 0 0
289692778 -0.97299 0.299815 1.9e-05 2.9e-05 0 0 0 0
292566911 -0.972351 0.30038 -2.7e-05 1.9e-05 0 0 0 0
295441044 -0.969524 0.302657 -1.2e-05 1e-05 0 0 0 0
298315177 -0.961399 0.302752 6e-06 -5.4e-05 0 0 0 0
301189310 -0.956796 0.305178 -1.6e-05 -1.2e-05 0 0 0 0
304063443 -0.953466 0.304574 -3e-05 -1.8e-05 0 0 0 0
306937576 -0.955934 0.312487 -3.8e-05 -7.3e-05 0 0 0 0
309811709 -0.963314 0.316187 -0.0001 -3.8e-05 0 0 0 0
312685842 -0.96527 0.321252 3.7e-05 -1.7e-05 0 0 0 0
315559975 -0.96709 0.324155 -4.9e-05 3e-05 0 0 0 0
318434108 -0.965655 0.327026 1.7e-05 -3.8e-05 0 0 0 0
321308241 -0.963506 0.326337 -3.3e-05 -6.2e-05 0 0 0 0
324182374 -0.958974 0.327236 -7.5e-05 2.4e-05 0 0 0 0
327056507 -0.95263 0.329506 -5.1e-05 9e-06 0 0 0 0
329930640 -0.942719 0.33162 -4.2e-05 2.1e-05 0 0 0 0
332804773 -0.940463 0.331012 -0.000107 -1.3e-05 0 0 0 0
335678906 -0.946274 0.338141 2.8e-05 6e-05 0 0 0 0
338553039 -0.951637 0.343298 0.0 0.0 0 0 0 0
341427172 -0.956738 0.347353 -7.4e-05 1.8e-05 0 0 0 0
344301305 -0.954158 0.350439 -2e-06 -4.2e-05 0 0 0 0
347175438 -0.9563 0.352914 -1.7e-05 0.0 0 0 0 0
350049571 -0.950857 0.354647 2.5e-05 -4.2e-05 0 0 0 0
352923704 -0.948734 0.355931 6.7e-05 9.7e-05 0 0 0 0
355797837 -0.942734 0.359335 -6.5e-05 1.3e-05 0 0 0 0
358671970 -0.935142 0.35847 -2e-05 2.8e-05 0 0 0 0
361546103 -0.928388 0.361067 5e-06 1.5e-05 0 0 0 0
364420236 -0.936052 0.365665 2.6e-05 6.9e-05 0 0 0 0
367294369 -0.947324 0.355057 -2.9e-05 1e-06 0 0 0 0
370168502 -0.936505 0.404664 -3e-06 3.4e-05 0 0 0 0
373042635 -0.954035 0.3635 2e-05 7.2e-05 0 0 0 0
375916768 -0.946508 0.380513 5.8e-05 2.1e-05 0 0 0 0
378790901 -0.951561 0.365024 -3e-05 2.1e-05 0 0 0 0
381665034 -0.946881 0.368769 1.6e-05 2.6e-05 0 0 0 0
384539167 -0.938781 0.371031 9e-06 8.1e-05 0 0 0 0
387413300 -0.958386 0.292591 7.3e-05 0.000103 0 0 0 0
390287433 -0.916174 0.390045 -3.9e-05 5.8e-05 0 0 0 0
393161566 -0.922771 0.395301 9.8e-05 0.000106 0 0 0 0
396035699 -0.928016 0.399085 5.4e-05 6.3e-05 0 0 0 0
398909832 -0.932727 0.405487 -6e-05 2e-05 0 0 0 0
401783965 -0.973757 0.328131 1.6e-05 8.4e-05 0 0 0 0
404658098 -0.934766 0.412181 5e-06 -2.2e-05 0 0 0 0
407532231 -0.931891 0.413614 -9.3e-05 6.9e-05 0 0 0 0
410406364 -0.929977 0.414826 -4.5e-05 -2.3e-05 0 0 0 0
413280497 -0.921287 0.415047 -0.000141 8e-06 0 0 0 0
416154630 -0.914055 0.418588 -5.5e-05 -3.9e-05 0 0 0 0
419028763 -0.907135 0.415329 -6.5e-05 4.4e-05 0 0 0 0
421902896 -0.910323 0.424924 -3.6e-05 6e-06 0 0 0 0
424777029 -0.918066 0.430758 -1e-06 -4.9e-05 0 0 0 0
427651162 -0.918825 0.434085 -5.8e-05 8e-06 0 0 0 0
430525295 -0.920262 0.437402 -5.1e-05 -6.5e-05 0 0 0 0
433399428 -0.922069 0.439586 -5.6e-05 1.9e-05 0 0 0 0
436273561 -0.921083 0.442784 4.8e-05 3e-06 0 0 0 0
439147694 -0.915158 0.441441 5.3e-05 -3e-05 0 0 0 0
442021827 -0.909131 0.443545 3.9e-05 -2.3e-05 0 0 0 0
444895960 -0.901358 0.442492 3.3e-05 -3.6e-05 0 0 0 0
447770093 -0.890311 0.442952 2.6e-05 -9.7e-05 0 0 0 0
450644226 -0.89455 0.45194 1.5e-05 -4.5e-05 0 0 0 0
453518359 -0.901775 0.456981 9e-06 1e-05 0 0 0 0
456392492 -0.902827 0.460817 -3e-06 -3.2e-05 0 0 0 0
459266625 -0.907881 0.462985 3.4e-05 -5.2e-05 0 0 0 0
462140758 -0.907259 0.465575 -9e-06 -6.1e-05 0 0 0 0
465014891 -0.903769 0.469523 -6.2e-05 -2.2e-05 0 0 0 0
467889024 -0.897794 0.468359 -0.000108 4.5e-05 0 0 0 0
470763157 -0.893142 0.46744 -0.000174 1.9e-05 0 0 0 0
473637290 -0.885208 0.467395 -0.000148 1.1e-05 0 0 0 0
476511423 -0.876518 0.463789 -0.000153 3.6e-05 0 0 0 0
479385556 -0.877244 0.474097 -0.000263 6.1e-05 0 0 0 0
482259689 -0.882477 0.479955 -0.000175 0.000131 0 0 0 0
485133822 -0.885509 0.485882 -0.000155 7.6e-05 0 0 0 0
488007955 -0.890629 0.493824 -0.000148 0.000101 0 0 0 0
490882088 -0.891299 0.492808 -0.000159 8.6e-05 0 0 0 0
493756221 -0.891552 0.494377 -7.2e-05 0.000119 0 0 0 0
496630354 -0.886441 0.49915 -4.9e-05 4.3e-05 0 0 0 0
499504487 -0.880131 0.497501 -0.00014 5.5e-05 0 0 0 0
502378620 -0.870841 0.496083 -8.3e-05 9.7e-05 0 0 0 0
505252753 -0.877679 0.477124 -6.7e-05 0.000127 0 0 0 0
508126886 -0.847942 0.525913 -5e-05 4.9e-05 0 0 0 0
511001019 -0.869179 0.508142 -7.9e-05 0.000133 0 0 0 0
513875152 -0.873507 0.515041 -2.4e-05 8.5e-05 0 0 0 0
516749285 -0.875756 0.517557 1.8e-05 7.3e-05 0 0 0 0
519623418 -0.876036 0.520884 5.9e-05 0.000136 0 0 0 0
522497551 -0.872079 0.522969 1.5e-05 0.000109 0 0 0 0
525371684 -0.869142 0.523086 -3.8e-05 5.5e-05 0 0 0 0
528245817 -0.864001 0.523275 6e-06 8.7e-05 0 0 0 0
531119950 -0.855836 0.520722 -2.5e-05 4.1e-05 0 0 0 0
533994083 -0.846591 0.521937 2.6e-05 0.000124 0 0 0 0
536868216 -0.845374 0.523341 5.4e-05 4e-05 0 0 0 0
539742349 -0.854749 0.531547 4.6e-05 9.7e-05 0 0 0 0
542616482 -0.852778 0.539258 1.6e-05 7e-05 0 0 0 0
545490615 -0.858275 0.542111 -3.8e-05 -2.5e-05 0 0 0 0
548364748 -0.858786 0.547325 6.4e-05 0.000154 0 0 0 0
551238881 -0.858517 0.5465 -3.3e-05 0.000164 0 0 0 0
554113014 -0.855178 0.547825 -5.6e-05 9.8e-05 0 0 0 0
556987147 -0.845242 0.550798 -1.4e-05 0.000104 0 0 0 0
559861280 -0.841531 0.545502 6.5e-05 6.3e-05 0 0 0 0
562735413 -0.835658 0.542836 3.9e-05 6.5e-05 0 0 0 0
565609546 -0.833611 0.546394 1e-05 0.000129 0 0 0 0
568483679 -0.834881 0.556102 4e-05 0.000115 0 0 0 0
571357812 -0.837967 0.562134 -3.2e-05 8.9e-05 0 0 0 0
574231945 -0.83845 0.563859 -9.7e-05 0.000119 0 0 0 0
577106078 -0.838466 0.567658 -3e-06 0.000102 0 0 0 0
579980211 -0.835235 0.572938 4.9e-05 5.2e-05 0 0 0 0
582854344 -0.830975 0.56934 4.9e-05 7.8e-05 0 0 0 0
585728477 -0.82521 0.572316 6.6e-05 4.3e-05 0 0 0 0
588602610 -0.817753 0.569393 0.000126 8.1e-05 0 0 0 0
591476743 -0.807031 0.568655 -3e-06 0.000158 0 0 0 0
594350876 -0.805833 0.57426 0.00016 8.3e-05 0 0 0 0
597225009 -0.807592 0.58494 0.000105 3.4e-05 0 0 0 0
600099142 -0.814759 0.590423 0.000132 0.000109 0 0 0 0
602973275 -0.813106 0.597261 0.000247 8e-05 0 0 0 0
605847408 -0.814919 0.599881 0.000219 7.9e-05 0 0 0 0
608721541 -0.813543 0.598912 0.000201 5.2e-05 0 0 0 0
611595674 -0.830378 0.599889 0.000127 9.7e-05 0 0 0 0
614469807 -0.802887 0.603682 0.000204 -7.4e-05 0 0 0 0
617343940 -0.797392 0.606788 0.000189 3.2e-05 0 0 0 0
620218073 -0.791656 0.601545 0.000209 -4.6e-05 0 0 0 0
623092206 -0.788723 0.602361 0.000148 -5.8e-05 0 0 0 0
625966339 -0.792783 0.609058 4.4e-05 6.4e-05 0 0 0 0
628840472 -0.794047 0.615925 9.6e-05 2.1e-05 0 0 0 0
631714605 -0.795242 0.620009 0.000172 -1.6e-05 0 0 0 0
634588738 -0.795467 0.622649 0.000116 -6.4e-05 0 0 0 0
637462871 -0.792419 0.623293 0.000151 -2.7e-05 0 0 0 0
640337004 -0.790441 0.62524 0.000192 2.9e-05 0 0 0 0
643211137 -0.739462 0.658021 0.000194 -1.8e-05 0 0 0 0
646085270 -0.777822 0.623184 0.000134 -0.000109 0 0 0 0
648959403 -0.766468 0.622573 0.000136 -7.2e-05 0 0 0 0
651833536 -0.761121 0.620388 4.1e-05 -0.000114 0 0 0 0
654707669 -0.763526 0.630845 4.3e-05 -0.000106 0 0 0 0
657581802 -0.771313 0.638594 6e-05 -7.7e-05 0 0 0 0
660455935 -0.771411 0.644728 1.2e-05 -0.000133 0 0 0 0
663330068 -0.771506 0.65075 -7e-06 -8.1e-05 0 0 0 0
666204201 -0.769557 0.649472 1.4e-05 -1e-05 0 0 0 0
669078334 -0.768498 0.649249 1.5e-05 7e-06 0 0 0 0
671952467 -0.763577 0.654499 6.7e-05 -1.2e-05 0 0 0 0
674826600 -0.753678 0.652104 2.1e-05 -9e-06 0 0 0 0
677700733 -0.746542 0.647669 0.0 0.0001 0 0 0 0
680574866 -0.743274 0.653932 1.3e-05 -6.9e-05 0 0 0 0
683448999 -0.745025 0.66082 -6e-06 3e-06 0 0 0 0
686323132 -0.743995 0.663201 -5.1e-05 2e-06 0 0 0 0
689197265 -0.700215 0.717644 -8.8e-05 -4.5e-05 0 0 0 0
692071398 -0.74696 0.673959 6e-06 -3e-05 0 0 0 0
694945531 -0.747111 0.677733 -0.000134 4.7e-05 0 0 0 0
697819664 -0.747713 0.677109 4e-05 2.9e-05 0 0 0 0
700693797 -0.737186 0.678346 -3.6e-05 3.2e-05 0 0 0 0
703567930 -0.731731 0.67729 2.9e-05 -3.8e-05 0 0 0 0
706442063 -0.720044 0.671226 7e-06 6.6e-05 0 0 0 0
709316196 -0.715494 0.66567 -0.000111 5.3e-05 0 0 0 0
712190329 -0.716425 0.67796 -1e-05 9.5e-05 0 0 0 0
715064462 -0.719239 0.690206 0.0 0.000105 0 0 0 0
717938595 -0.720043 0.690653 -2.6e-05 8.7e-05 0 0 0 0
720812728 -0.718581 0.696187 5.6e-05 8.4e-05 0 0 0 0
723686861 -0.718163 0.70009 7e-05 0.000123 0 0 0 0
726560994 -0.714735 0.70321 7.3e-05 3e-05 0 0 0 0
729435127 -0.712233 0.698451 0.000163 0.000134 0 0 0 0
732309260 -0.704679 0.697582 0.00013 0.000108 0 0 0 0
735183393 -0.699607 0.694461 0.000135 0.000151 0 0 0 0
738057526 -0.691401 0.688507 0.00023 0.000155 0 0 0 0
740931659 -0.689401 0.698469 0.000245 3.1e-05 0 0 0 0
743805792 -0.694819 0.702982 0.000247 5.1e-05 0 0 0 0
746679925 -0.691314 0.710426 0.000301 5.9e-05 0 0 0 0
749554058 -0.692266 0.713011 0.000229 -2e-06 0 0 0 0
752428191 -0.68575 0.716535 0.000148 -2.4e-05 0 0 0 0
755302324 -0.680528 0.719168 0.000235 -2.4e-05 0 0 0 0
758176457 -0.680475 0.719148 0.000238 6.1e-05 0 0 0 0
761050590 -0.673241 0.712498 0.000172 -9.3e-05 0 0 0 0
763924723 -0.664408 0.708416 0.000254 -4.6e-05 0 0 0 0
766798856 -0.656419 0.705538 0.000197 -3.1e-05 0 0 0 0
769672989 -0.65515 0.714266 0.000184 -1.9e-05 0 0 0 0
772547122 -0.657223 0.7211 0.000169 -3.7e-05 0 0 0 0
775421255 -0.658629 0.72726 0.000123 -6.1e-05 0 0 0 0
778295388 -0.655677 0.732163 0.000127 -4.4e-05 0 0 0 0
781169521 -0.657944 0.731021 0.000132 -9.4e-05 0 0 0 0
784043654 -0.654219 0.733348 0.0 -4.4e-05 0 0 0 0
786917787 -0.649924 0.728703 6.3e-05 -1.6e-05 0 0 0 0
789791920 -0.646539 0.725672 0.0001 2.4e-05 0 0 0 0
792666053 -0.638244 0.724412 -2.6e-05 6.2e-05 0 0 0 0
795540186 -0.630964 0.718311 -4.5e-05 9.1e-05 0 0 0 0
798414319 -0.629697 0.722508 -1e-06 0.00018 0 0 0 0
801288452 -0.630986 0.731393 -5.2e-05 0.000169 0 0 0 0
804162585 -0.629381 0.732533 -4.7e-05 0.000346 0 0 0 0
807036718 -0.628178 0.738722 -4e-05 0.00032 0 0 0 0
809910851 -0.618695 0.750271 -3.9e-05 0.00052 0 0 0 0
812784984 -0.624336 0.7387 -1.9e-05 0.000562 0 0 0 0
815659117 -0.622811 0.736906 1.6e-05 0.000778 0 0 0 0
818533250 -0.619298 0.733214 1.6e-05 0.000664 0 0 0 0
821407383 -0.609952 0.729387 0.00012 0.000803 0 0 0 0
824281516 -0.603506 0.724631 5.3e-05 0.000874 0 0 0 0
827155649 -0.602556 0.727642 -1.6e-05 0.00108 0 0 0 0
830029782 -0.605841 0.736068 -6e-06 0.001245 0 0 0 0
832903915 -0.603118 0.739895 -4.9e-05 0.00155 0 0 0 0
835778048 -0.604198 0.739252 1.6e-05 0.002013 0 0 0 0
838652181 -0.60511 0.742345 0.000129 0.002552 0 0 0 0
841526314 -0.590616 0.736997 0.000592 0.003362 0 0 0 0
844400447 -0.599881 0.73998 0.001356 0.004145 0 0 0 0
847274580 -0.597612 0.73209 0.002646 0.004788 0 0 0 0
850148713 -0.597041 0.731564 0.004394 0.004936 0 0 0 0
853022846 -0.590771 0.725851 0.006393 0.004058 0 0 0 0
855896979 -0.58766 0.728534 0.007693 0.002473 0 0 0 0
858771112 -0.594391 0.731523 0.008312 0.000671 0 0 0 0
861645245 -0.637128 0.69844 0.008254 -0.001035 0 0 0 0
864519378 -0.594663 0.739322 0.00789 -0.002562 0 0 0 0
867393511 -0.566007 0.768607 0.007325 -0.003602 0 0 0 0
870267644 -0.593817 0.739618 0.006619 -0.004382 0 0 0 0
873141777 -0.587797 0.741688 0.006139 -0.004961 0 0 0 0
876015910 -0.586033 0.739628 0.005604 -0.005507 0 0 0 0
878890043 -0.58049 0.732959 0.005164 -0.006028 0 0 0 0
881764176 -0.573245 0.732808 0.004724 -0.006265 0 0 0 0
884638309 -0.572605 0.73695 0.004322 -0.006665 0 0 0 0
887512442 -0.576298 0.739324 0.003874 -0.007051 0 0 0 0
890386575 -0.579739 0.744847 0.003567 -0.007528 0 0 0 0
893260708 -0.578768 0.749536 0.003099 -0.007856 0 0 0 0
896134841 -0.673371 0.68577 0.002814 -0.008305 0 0 0 0
899008974 -0.579302 0.754379 0.002273 -0.008652 0 0 0 0
901883107 -0.57593 0.750694 0.001748 -0.0091 0 0 0 0
904757240 -0.572691 0.747871 0.001367 -0.009449 0 0 0 0
907631373 -0.567162 0.748132 0.000799 -0.009963 0 0 0 0
910505506 -0.558816 0.745117 0.000237 -0.010306 0 0 0 0
913379639 -0.574468 0.736258 -0.000336 -0.010711 0 0 0 0
916253772 -0.561674 0.753608 -0.00116 -0.011264 0 0 0 0
919127905 -0.565531 0.758398 -0.001984 -0.011703 0 0 0 0
922002038 -0.562809 0.764934 -0.00296 -0.012119 0 0 0 0
924876171 -0.56936 0.769354 -0.003921 -0.012571 0 0 0 0
927750304 -0.567764 0.773627 -0.005112 -0.012804 0 0 0 0
930624437 -0.566409 0.770591 -0.006258 -0.012933 0 0 0 0
933498570 -0.561908 0.768976 -0.00751 -0.013146 0 0 0 0
936372703 -0.554995 0.765937 -0.009101 -0.013027 0 0 0 0
939246836 -0.552392 0.76341 -0.010499 -0.012676 0 0 0 0
942120969 -0.543904 0.768861 -0.012025 -0.012466 0 0 0 0
944995102 -0.547614 0.776009 -0.013637 -0.011901 0 0 0 0
947869235 -0.547504 0.780488 -0.015279 -0.011169 0 0 0 0
950743368 -0.549849 0.787233 -0.016782 -0.010228 0 0 0 0
953617501 -0.553151 0.790913 -0.018474 -0.008929 0 0 0 0
956491634 -0.551558 0.792022 -0.019838 -0.007584 0 0 0 0
959365767 -0.54598 0.790027 -0.021151 -0.00591 0 0 0 0
962239900 -0.544615 0.791861 -0.022122 -0.004011 0 0 0 0
965114033 -0.536561 0.791275 -0.02296 -0.002024 0 0 0 0
967988166 -0.529779 0.786167 -0.023528 -2e-05 0 0 0 0
970862299 -0.523654 0.788178 -0.023642 0.002933 0 0 0 0
973736432 -0.524782 0.794973 -0.024016 0.004375 0 0 0 0
976610565 -0.527754 0.802744 -0.024111 0.006403 0 0 0 0
979484698 -0.528539 0.808653 -0.023836 0.008625 0 0 0 0
982358831 -0.527721 0.81355 -0.023458 0.010527 0 0 0 0
985232964 -0.524285 0.813272 -0.022692 0.012476 0 0 0 0
988107097 -0.524634 0.814162 -0.02193 0.014456 0 0 0 0
990981230 -0.520387 0.810208 -0.021016 0.016235 0 0 0 0
993855363 -0.517629 0.808513 -0.020047 0.018 0 0 0 0
996729496 -0.505297 0.80483 -0.018773 0.019478 0 0 0 0
999603629 -0.503283 0.801739 -0.017544 0.020975 0 0 0 0
1002477762 -0.501022 0.812486 -0.016178 0.022541 0 0 0 0
1005351895 -0.496201 0.821428 -0.014819 0.02396 0 0 0 0
1008226028 -0.501876 0.826269 -0.01316 0.025376 0 0 0 0
1011100161 -0.500581 0.831278 -0.011435 0.026605 0 0 0 0
1013974294 -0.497309 0.832947 -0.009705 0.027639 0 0 0 0
1016848427 -0.495737 0.833107 -0.007908 0.028585 0 0 0 0
1019722560 -0.493119 0.831778 -0.006037 0.029435 0 0 0 0
1022596693 -0.48633 0.82759 -0.00409 0.030051 0 0 0 0
1025470826 -0.481026 0.825646 -0.002006 0.030447 0 0 0 0
1028344959 -0.471909 0.817707 0.000129 0.030868 0 0 0 0
1031219092 -0.47319 0.831149 0.002286 0.031079 0 0 0 0
1034093225 -0.471185 0.835578 0.004351 0.031318 0 0 0 0
1036967358 -0.474721 0.839166 0.006544 0.031315 0 0 0 0
1039841491 -0.471178 0.847809 0.008506 0.031319 0 0 0 0
1042715624 -0.466044 0.849395 0.01088 0.03099 0 0 0 0
1045589757 -0.465344 0.850966 0.012884 0.030318 0 0 0 0
1048463890 -0.480658 0.844626 0.01504 0.029724 0 0 0 0
1051338023 -0.461811 0.843237 0.017042 0.029036 0 0 0 0
1054212156 -0.451347 0.840232 0.019098 0.027939 0 0 0 0
1057086289 -0.44817 0.829782 0.020958 0.026697 0 0 0 0
1059960422 -0.446977 0.83809 0.023102 0.02565 0 0 0 0
1062834555 -0.439446 0.848241 0.024925 0.024214 0 0 0 0
1065708688 -0.443623 0.850263 0.026747 0.02259 0 0 0 0
1068582821 -0.438543 0.858599 0.028248 0.020859 0 0 0 0
1071456954 -0.443348 0.855371 0.029686 0.018886 0 0 0 0
1074331087 -0.433656 0.863436 0.030762 0.017118 0 0 0 0
1077205220 -0.434048 0.859977 0.031752 0.015093 0 0 0 0
1080079353 -0.428015 0.856403 0.032546 0.013024 0 0 0 0
1082953486 -0.560853 0.768788 0.033217 0.011384 0 0 0 0
1085827619 -0.419027 0.843315 0.03368 0.009124 0 0 0 0
1088701752 -0.416222 0.852576 0.034174 0.007318 0 0 0 0
1091575885 -0.417608 0.862376 0.034639 0.005389 0 0 0 0
1094450018 -0.411845 0.867216 0.034963 0.003551 0 0 0 0
1097324151 -0.414504 0.869728 0.035288 0.001489 0 0 0 0
1100198284 -0.422738 0.877329 0.035385 -0.000127 0 0 0 0
1103072417 -0.410837 0.871368 0.035354 -0.001937 0 0 0 0
1105946550 -0.406627 0.874815 0.035314 -0.003928 0 0 0 0
1108820683 -0.408204 0.866579 0.035215 -0.00574 0 0 0 0
1111694816 -0.406006 0.863329 0.034975 -0.007686 0 0 0 0
1114568949 -0.397005 0.858996 0.034517 -0.009621 0 0 0 0
1117443082 -0.391485 0.86215 0.034078 -0.011361 0 0 0 0
1120317215 -0.396105 0.873573 0.033992 -0.013316 0 0 0 0
1123191348 -0.3968 0.871892 0.033317 -0.014998 0 0 0 0
1126065481 -0.389415 0.875034 0.032564 -0.016982 0 0 0 0
1128939614 -0.389889 0.880952 0.03195 -0.018675 0 0 0 0
1131813747 -0.389386 0.883852 0.031128 -0.020445 0 0 0 0
1134687880 -0.393287 0.884433 0.030217 -0.022118 0 0 0 0
1137562013 -0.386505 0.877327 0.029075 -0.023535 0 0 0 0
1140436146 -0.378192 0.875097 0.027864 -0.024944 0 0 0 0
1143310279 -0.375237 0.868237 0.026758 -0.026318 0 0 0 0
1146184412 -0.372043 0.871754 0.02554 -0.027789 0 0 0 0
1149058545 -0.367165 0.881688 0.024449 -0.029265 0 0 0 0
1151932678 -0.368649 0.881642 0.023366 -0.030586 0 0 0 0
1154806811 -0.366161 0.887457 0.02186 -0.031918 0 0 0 0
1157680944 -0.358402 0.888047 0.020479 -0.033292 0 0 0 0
1160555077 -0.361587 0.890582 0.019097 -0.034585 0 0 0 0
