# HZ S RI R 50
100000000 -0.997337 0.103249 7e-06 -2.9e-05 0 0 0 0
129000000 -0.986608 0.133245 -1e-05 5e-05 0 0 0 0
158000000 -0.98268 0.163044 -4e-05 3e-05 0 0 0 0
187000000 -0.967404 0.194274 -1.9e-05 9e-06 0 0 0 0
216000000 -0.970407 0.211695 0.0 5.9e-05 0 0 0 0
245000000 -0.965003 0.241933 -6.7e-05 1.1e-05 0 0 0 0
274000000 -0.944775 0.290404 -5e-06 0.000119 0 0 0 0
303000000 -0.929717 0.333015 5e-06 2.5e-05 0 0 0 0
332000000 -0.939235 0.32979 -1.9e-05 -0.000133 0 0 0 0
361000000 -0.927377 0.358271 -7.2e-05 -2.8e-05 0 0 0 0
390000000 -0.917811 0.386921 -6.5e-05 9.2e-05 0 0 0 0
419000000 -0.907942 0.417469 -0.000147 0.000149 0 0 0 0
448000000 -0.891955 0.443264 2.1e-05 -9e-06 0 0 0 0
477000000 -0.857046 0.492522 -0.000133 7.3e-05 0 0 0 0
506000000 -0.863481 0.496598 -0.000116 0.000118 0 0 0 0
535000000 -0.846556 0.522025 -1.6e-05 0.000178 0 0 0 0
564000000 -0.834419 0.549851 -0.000672 -7.9e-05 0 0 0 0
593000000 -0.805086 0.57427 0.000267 0.000242 0 0 0 0
622000000 -0.784736 0.607423 0.000367 9.2e-05 0 0 0 0
651000000 -0.755835 0.629123 0.000387 0.000116 0 0 0 0
680000000 -0.714889 0.667179 0.000964 0.000269 0 0 0 0
709000000 -0.678918 0.586761 0.001415 -0.003797 0 0 0 0
738000000 -0.725152 0.669675 -0.001418 -0.001578 0 0 0 0
767000000 -0.690182 0.706667 -0.001169 -0.000696 0 0 0 0
796000000 -0.660604 0.735242 0.001714 -0.000475 0 0 0 0
825000000 -0.61083 0.764058 0.020004 -0.015317 0 0 0 0
854000000 -0.627861 0.72916 -0.114072 -0.023734 0 0 0 0
883000000 -0.585957 0.786352 -0.083439 0.062201 0 0 0 0
912000000 -0.530795 0.801028 -0.060702 0.15821 0 0 0 0
941000000 -0.492392 0.780063 0.176141 0.229598 0 0 0 0
970000000 -0.491543 0.785302 0.285854 -0.02008 0 0 0 0
999000000 -0.467236 0.807393 0.21601 -0.179985 0 0 0 0
1028000000 -0.43436 0.818448 0.092413 -0.293854 0 0 0 0
1057000000 -0.404708 0.806659 -0.102323 -0.317487 0 0 0 0
1086000000 -0.381903 0.805949 -0.265026 -0.21097 0 0 0 0
1115000000 -0.384885 0.813055 -0.334245 -0.040801 0 0 0 0
1144000000 -0.372926 0.826468 -0.302258 0.12601 0 0 0 0
1173000000 -0.345972 0.842554 -0.197023 0.2356 0 0 0 0
1202000000 -0.335484 0.862016 -0.09088 0.272559 0 0 0 0
1231000000 -0.298179 0.879512 0.01022 0.284738 0 0 0 0
1260000000 -0.27754 0.899105 0.105937 0.289169 0 0 0 0
1289000000 -0.232149 0.891085 0.228426 0.236015 0 0 0 0
1318000000 -0.193696 0.882286 0.328415 0.118833 0 0 0 0
1347000000 -0.182843 0.875795 0.347835 -0.037439 0 0 0 0
1376000000 -0.172828 0.880226 0.289018 -0.175257 0 0 0 0
1405000000 -0.135076 0.889077 0.189837 -0.259478 0 0 0 0
1434000000 -0.110707 0.905757 0.083481 -0.294739 0 0 0 0
1463000000 -0.074376 0.902371 -0.020339 -0.298188 0 0 0 0
1492000000 -0.051349 0.901184 -0.116799 -0.275073 0 0 0 0
1521000000 -0.023439 0.902862 -0.203408 -0.22735 0 0 0 0
1550000000 0.001375 0.900439 -0.277341 -0.142612 0 0 0 0
1579000000 0.022482 0.903617 -0.313628 -0.034875 0 0 0 0
1608000000 0.058429 0.898406 -0.304317 0.074069 0 0 0 0
1637000000 0.091893 0.886707 -0.27454 0.173827 0 0 0 0
1666000000 0.110069 0.867416 -0.207954 0.283341 0 0 0 0
1695000000 0.128972 0.85088 -0.07335 0.35766 0 0 0 0
1724000000 0.154532 0.852666 0.074436 0.354735 0 0 0 0
1753000000 0.194599 0.838763 0.198917 0.299439 0 0 0 0
1782000000 0.231483 0.805686 0.302527 0.21684 0 0 0 0
1811000000 0.237311 0.763371 0.400368 0.0871 0 0 0 0
1840000000 0.210449 0.738483 0.427556 -0.139014 0 0 0 0
1869000000 0.186626 0.766302 0.27201 -0.342039 0 0 0 0
1898000000 0.219112 0.803161 0.064539 -0.38996 0 0 0 0
1927000000 0.252632 0.802242 -0.105746 -0.354573 0 0 0 0
1956000000 0.267759 0.797067 -0.269264 -0.258013 0 0 0 0
1985000000 0.285988 0.802294 -0.357695 -0.038397 0 0 0 0
2014000000 0.312917 0.816211 -0.250183 0.174606 0 0 0 0
2043000000 0.355577 0.829539 -0.052714 0.213827 0 0 0 0
2072000000 0.416036 0.832142 0.049776 0.123497 0 0 0 0
2101000000 0.485135 0.788992 0.05582 0.048231 0 0 0 0
2130000000 0.540437 0.740834 0.039207 0.018901 0 0 0 0
2159000000 0.588459 0.665048 0.027313 0.00731 0 0 0 0
2188000000 0.622096 0.584158 0.019768 0.001458 0 0 0 0
2217000000 0.598616 0.498276 0.014785 -0.002278 0 0 0 0
2246000000 0.54465 0.408907 0.010402 -0.004882 0 0 0 0
2275000000 0.432976 0.380974 0.005477 -0.006363 0 0 0 0
2304000000 0.328428 0.46248 0.001124 -0.004828 0 0 0 0
2333000000 0.34175 0.552965 -0.00055 -0.002161 0 0 0 0
2362000000 0.385289 0.600854 -0.000409 -0.000197 0 0 0 0
2391000000 0.437526 0.65095 0.000558 0.000444 0 0 0 0
2420000000 0.513414 0.653455 0.000792 -6.2e-05 0 0 0 0
2449000000 0.579985 0.620909 0.000718 -2.5e-05 0 0 0 0
2478000000 0.639434 0.565364 0.000647 -0.000146 0 0 0 0
2507000000 0.66372 0.49593 0.000625 -0.000211 0 0 0 0
2536000000 0.685451 0.426065 0.000767 -0.000542 0 0 0 0
2565000000 0.660494 0.36186 0.000592 -0.00119 0 0 0 0
2594000000 0.589498 0.331725 -0.000521 -0.002189 0 0 0 0
2623000000 0.536439 0.388693 -0.003144 -0.001656 0 0 0 0
2652000000 0.5781 0.465731 -0.004382 0.001157 0 0 0 0
2681000000 0.650771 0.473936 -0.003078 0.003619 0 0 0 0
2710000000 0.723827 0.430097 -0.001545 0.004337 0 0 0 0
2739000000 0.764333 0.373516 -0.00035 0.005171 0 0 0 0
2768000000 0.787093 0.299609 0.001324 0.005294 0 0 0 0
2797000000 0.776521 0.214812 0.003361 0.005382 0 0 0 0
2826000000 0.746125 0.173388 0.005071 0.003623 0 0 0 0
2855000000 0.705157 0.140248 0.004994 0.001812 0 0 0 0
2884000000 0.672344 0.164358 0.004893 0.002053 0 0 0 0
2913000000 0.687641 0.166906 0.006416 0.000112 0 0 0 0
2942000000 0.732647 0.133084 0.004365 -0.001314 0 0 0 0
2971000000 0.764068 0.075077 0.004508 -0.000429 0 0 0 0
3000000000 0.772193 0.020618 0.00521 -0.001296 0 0 0 0
