# HZ S RI R 50
100000000 -0.995734 0.103544 -6.7e-05 2.6e-05 0 0 0 0
102874133 -1.005191 0.105144 -3e-05 2.1e-05 0 0 0 0
105748266 -1.011692 0.113385 -2.5e-05 4.2e-05 0 0 0 0
108622399 -1.015336 0.111203 1.6e-05 7e-06 0 0 0 0
111496532 -1.018895 0.114433 -4.3e-05 1.5e-05 0 0 0 0
114370665 -1.027568 0.083014 -1.2e-05 1.7e-05 0 0 0 0
117244798 -1.019395 0.117841 4e-06 4.1e-05 0 0 0 0
120118931 -1.026777 0.090988 -2.4e-05 8.1e-05 0 0 0 0
122993064 -1.000291 0.160165 -9e-06 -7e-06 0 0 0 0
125867197 -0.996174 0.131101 3.9e-05 4.9e-05 0 0 0 0
128741330 -0.989041 0.134225 6e-06 4.4e-05 0 0 0 0
131615463 -1.000516 0.124054 1e-05 1.9e-05 0 0 0 0
134489596 -1.006979 0.125417 2.5e-05 7e-06 0 0 0 0
137363729 -1.005228 0.144138 -4.8e-05 5.2e-05 0 0 0 0
140237862 -1.003767 0.16428 2.7e-05 2.1e-05 0 0 0 0
143111995 -1.006658 0.166701 -4.8e-05 4.1e-05 0 0 0 0
145986128 -1.004989 0.170126 -2.8e-05 4e-05 0 0 0 0
148860261 -1.002538 0.172483 4.1e-05 5.2e-05 0 0 0 0
151734394 -0.997591 0.173961 -2.9e-05 -2.4e-05 0 0 0 0
154608527 -0.988973 0.176656 5.5e-05 7.4e-05 0 0 0 0
157482660 -0.979411 0.180343 1.5e-05 6.1e-05 0 0 0 0
160356793 -0.988824 0.170971 2.4e-05 -4e-05 0 0 0 0
163230926 -0.996241 0.175418 1e-05 2.4e-05 0 0 0 0
166105059 -1.00164 0.178462 2e-05 -1e-06 0 0 0 0
168979192 -1.005192 0.183939 1.4e-05 -7e-06 0 0 0 0
171853325 -1.004968 0.184983 -3.2e-05 7e-06 0 0 0 0
174727458 -1.004196 0.187691 -1.4e-05 -2.1e-05 0 0 0 0
177601591 -0.998398 0.190166 -2.6e-05 5e-06 0 0 0 0
180475724 -0.989956 0.192255 -6.5e-05 -3.2e-05 0 0 0 0
183349857 -0.981567 0.190374 5e-06 -7.5e-05 0 0 0 0
186223990 -0.970794 0.191561 -5.8e-05 -7.9e-05 0 0 0 0
189098123 -0.970701 0.193988 -3.3e-05 -2.1e-05 0 0 0 0
191972256 -0.979308 0.196173 3.7e-05 -2e-06 0 0 0 0
194846389 -0.986498 0.198653 -1.5e-05 -4.2e-05 0 0 0 0
197720522 -0.991213 0.200034 -6.1e-05 -3.8e-05 0 0 0 0
200594655 -0.996759 0.201434 -6.3e-05 1e-06 0 0 0 0
203468788 -0.997121 0.204775 2e-06 3.3e-05 0 0 0 0
206342921 -0.994703 0.206569 -2.8e-05 -2.6e-05 0 0 0 0
209217054 -0.990462 0.209024 -1e-06 2.1e-05 0 0 0 0
212091187 -0.984961 0.209932 -2.1e-05 -5e-06 0 0 0 0
214965320 -0.973373 0.213086 -3.5e-05 1e-06 0 0 0 0
217839453 -0.977863 0.215884 -2.7e-05 6.6e-05 0 0 0 0
220713586 -0.983637 0.222781 -2.6e-05 6.6e-05 0 0 0 0
223587719 -0.987365 0.226574 -3.3e-05 8e-06 0 0 0 0
226461852 -0.992006 0.232384 -7.4e-05 -3.4e-05 0 0 0 0
229335985 -0.992923 0.235403 -9.1e-05 6e-06 0 0 0 0
232210118 -0.991496 0.238185 -9.6e-05 1.7e-05 0 0 0 0
235084251 -0.988718 0.2407 -3.5e-05 2.9e-05 0 0 0 0
237958384 -0.984498 0.241176 5e-06 -4.2e-05 0 0 0 0
240832517 -0.977712 0.242535 -7.5e-05 2.6e-05 0 0 0 0
243706650 -0.970348 0.242805 -5.3e-05 1.1e-05 0 0 0 0
246580783 -0.969082 0.248481 -3.3e-05 8.8e-05 0 0 0 0
249454916 -0.976953 0.253672 -7.1e-05 7.2e-05 0 0 0 0
252329049 -0.979672 0.260388 -1.3e-05 4.2e-05 0 0 0 0
255203182 -0.980522 0.26204 4.9e-05 -5e-06 0 0 0 0
258077315 -0.983124 0.265753 -4.5e-05 6.8e-05 0 0 0 0
260951448 -0.981742 0.268976 -2.5e-05 1.3e-05 0 0 0 0
263825581 -0.979671 0.268692 1e-05 6.2e-05 0 0 0 0
266699714 -0.975316 0.271609 -1.4e-05 4.8e-05 0 0 0 0
269573847 -0.968697 0.274174 -5.5e-05 -3.9e-05 0 0 0 0
272447980 -0.962413 0.27408 -4.7e-05 7.8e-05 0 0 0 0
275322113 -0.959187 0.276091 -9.8e-05 5.3e-05 0 0 0 0
278196246 -0.965479 0.282138 -3.6e-05 3.5e-05 0 0 0 0
281070379 -0.971466 0.289581 4e-06 0.0 0 0 0 0
283944512 -0.973065 0.292299 -2e-06 0.000104 0 0 0 0
286818645 -0.974151 0.295132 -4.2e-05 4.2e-05 0 0 0 0
289692778 -0.974166 0.297709 -7e-06 2.2e-05 0 0 0 0
292566911 -0.973144 0.301935 -3.3e-05 7.7e-05 0 0 0 0
295441044 -0.970235 0.301289 -5.3e-05 6.7e-05 0 0 0 0
298315177 -0.965844 0.30194 5e-06 6.4e-05 0 0 0 0
301189310 -0.955872 0.302857 -6.4e-05 9.1e-05 0 0 0 0
304063443 -0.953675 0.304076 -3e-06 0.000112 0 0 0 0
306937576 -0.957153 0.311379 -4.2e-05 -6.3e-05 0 0 0 0
309811709 -0.962197 0.31528 3.8e-05 -3.9e-05 0 0 0 0
312685842 -0.967944 0.318795 -6.9e-05 6.8e-05 0 0 0 0
315559975 -0.968977 0.320208 -4.9e-05 -2.5e-05 0 0 0 0
318434108 -0.966845 0.323495 4.6e-05 -0.000253 0 0 0 0
321308241 -0.964637 0.325523 2e-06 -7.2e-05 0 0 0 0
324182374 -0.961357 0.326624 -4.5e-05 1.9e-05 0 0 0 0
327056507 -0.954769 0.327031 -2.4e-05 -1.1e-05 0 0 0 0
329930640 -0.947304 0.331511 -9.4e-05 0.0 0 0 0 0
332804773 -0.940662 0.332183 -2.7e-05 4.8e-05 0 0 0 0
335678906 -0.949949 0.339014 -5e-05 -0.000196 0 0 0 0
338553039 -0.952437 0.344784 -1.8e-05 7.9e-05 0 0 0 0
341427172 -0.959444 0.347311 -8.2e-05 -0.000115 0 0 0 0
344301305 -0.956704 0.35057 -5.1e-05 -6.1e-05 0 0 0 0
347175438 -0.957299 0.352121 -0.000142 2.9e-05 0 0 0 0
350049571 -0.953907 0.357506 -0.000141 0.000166 0 0 0 0
352923704 -0.949925 0.35248 -0.000115 0.000187 0 0 0 0
355797837 -0.943699 0.356223 -0.000213 0.000317 0 0 0 0
358671970 -0.933928 0.358974 -0.000143 0.000213 0 0 0 0
361546103 -0.930058 0.357895 -9.1e-05 4.1e-05 0 0 0 0
364420236 -0.937086 0.365315 -8.1e-05 5.6e-05 0 0 0 0
367294369 -0.94243 0.372201 -1.4e-05 7e-05 0 0 0 0
370168502 -0.94466 0.373736 -9.4e-05 4e-05 0 0 0 0
373042635 -0.94849 0.378643 -3e-05 6.2e-05 0 0 0 0
375916768 -0.947676 0.380393 -3.3e-05 0.000149 0 0 0 0
378790901 -0.943434 0.384484 -3e-05 9.2e-05 0 0 0 0
381665034 -0.941242 0.384082 1.4e-05 -5e-06 0 0 0 0
384539167 -0.933284 0.385218 -7e-05 0.000106 0 0 0 0
387413300 -0.926997 0.386629 -3.7e-05 6.3e-05 0 0 0 0
390287433 -0.919276 0.389898 -7e-05 0.000167 0 0 0 0
393161566 -0.926495 0.394475 1.3e-05 0.000105 0 0 0 0
396035699 -0.930007 0.400994 -3.5e-05 9.5e-05 0 0 0 0
398909832 -0.934442 0.404955 -6.2e-05 9.8e-05 0 0 0 0
401783965 -0.936681 0.407995 -0.000134 8.9e-05 0 0 0 0
404658098 -0.936913 0.412644 -7.5e-05 4.9e-05 0 0 0 0
407532231 -0.93439 0.413545 -0.000139 5.6e-05 0 0 0 0
410406364 -0.928604 0.410718 -0.000102 1.2e-05 0 0 0 0
413280497 -0.925692 0.414448 -0.000164 6.2e-05 0 0 0 0
416154630 -0.917165 0.415168 -9.1e-05 9e-05 0 0 0 0
419028763 -0.907448 0.417743 -0.000231 0.000149 0 0 0 0
421902896 -0.914685 0.423836 -6.3e-05 0.0002 0 0 0 0
424777029 -0.92062 0.42943 -0.000238 4.4e-05 0 0 0 0
427651162 -0.924795 0.433062 -8.2e-05 9.5e-05 0 0 0 0
430525295 -0.92506 0.436338 -5.4e-05 2.3e-05 0 0 0 0
433399428 -0.923741 0.44358 -4.4e-05 0.000159 0 0 0 0
436273561 -0.920997 0.444103 -6e-05 0.000223 0 0 0 0
439147694 -0.919717 0.44426 9.5e-05 4.1e-05 0 0 0 0
442021827 -0.911836 0.443133 4.3e-05 -8e-06 0 0 0 0
444895960 -0.902608 0.443809 -1.7e-05 3.7e-05 0 0 0 0
447770093 -0.891677 0.444089 1.9e-05 0.000205 0 0 0 0
450644226 -0.897824 0.453629 8.9e-05 8.4e-05 0 0 0 0
453518359 -0.904277 0.456777 -0.000108 1.8e-05 0 0 0 0
456392492 -0.905684 0.461753 5.7e-05 -1.6e-05 0 0 0 0
459266625 -0.907272 0.464608 -1e-06 -7.6e-05 0 0 0 0
462140758 -0.909203 0.469642 -7e-05 -2.2e-05 0 0 0 0
465014891 -0.905586 0.469031 -4.2e-05 0.000161 0 0 0 0
467889024 -0.901521 0.46938 -7.1e-05 4.9e-05 0 0 0 0
470763157 -0.895103 0.469275 -0.000141 4.1e-05 0 0 0 0
473637290 -0.887878 0.467631 -0.00011 8.7e-05 0 0 0 0
476511423 -0.876143 0.468194 -0.000213 9.2e-05 0 0 0 0
479385556 -0.879233 0.473329 -0.000165 0.000125 0 0 0 0
482259689 -0.885916 0.482386 -0.000195 0.000171 0 0 0 0
485133822 -0.88875 0.489482 -0.000206 0.000195 0 0 0 0
488007955 -0.891884 0.491896 -8.2e-05 0.00028 0 0 0 0
490882088 -0.889487 0.495563 -0.000123 0.000181 0 0 0 0
493756221 -0.89105 0.499901 -0.000107 0.000169 0 0 0 0
496630354 -0.886142 0.500135 -0.000123 0.000185 0 0 0 0
499504487 -0.880647 0.499855 -0.000138 0.00025 0 0 0 0
502378620 -0.875077 0.498719 -0.000137 0.0002 0 0 0 0
505252753 -0.86566 0.496866 -8.4e-05 0.000228 0 0 0 0
508126886 -0.864557 0.504677 6e-06 0.000257 0 0 0 0
511001019 -0.871089 0.510765 -5.2e-05 0.000244 0 0 0 0
513875152 -0.872979 0.518436 -1e-05 0.000182 0 0 0 0
516749285 -0.875221 0.522761 2e-06 0.000181 0 0 0 0
519623418 -0.876889 0.523167 -9.2e-05 0.000251 0 0 0 0
522497551 -0.872923 0.525753 -8.1e-05 0.000264 0 0 0 0
525371684 -0.872399 0.526235 -2.5e-05 0.000189 0 0 0 0
528245817 -0.866381 0.52783 -0.00011 0.000262 0 0 0 0
531119950 -0.857901 0.527386 2.8e-05 0.000201 0 0 0 0
533994083 -0.851039 0.523826 0.000149 0.000366 0 0 0 0
536868216 -0.847213 0.528359 -3.4e-05 6.7e-05 0 0 0 0
539742349 -0.852429 0.535721 7.4e-05 0.000228 0 0 0 0
542616482 -0.856844 0.542967 0.000232 0.000294 0 0 0 0
545490615 -0.858573 0.545809 4e-06 0.0004 0 0 0 0
548364748 -0.85711 0.554536 -7.7e-05 0.000277 0 0 0 0
551238881 -0.85756 0.551771 -1.1e-05 0.000231 0 0 0 0
554113014 -0.855342 0.551506 1.7e-05 0.000446 0 0 0 0
556987147 -0.851699 0.549674 -3e-05 0.000127 0 0 0 0
559861280 -0.843131 0.552298 5.1e-05 0.000139 0 0 0 0
562735413 -0.838798 0.54863 -5e-06 0.000284 0 0 0 0
565609546 -0.83282 0.552092 9.3e-05 0.000178 0 0 0 0
568483679 -0.835662 0.557754 1.1e-05 0.000153 0 0 0 0
571357812 -0.837294 0.566577 0.000156 0.000129 0 0 0 0
574231945 -0.840433 0.571018 2.4e-05 0.000268 0 0 0 0
577106078 -0.835271 0.574155 8.7e-05 0.000287 0 0 0 0
579980211 -0.833047 0.578725 8.1e-05 0.000383 0 0 0 0
582854344 -0.828799 0.578861 0.000212 0.000133 0 0 0 0
585728477 -0.821047 0.580885 1.7e-05 0.000286 0 0 0 0
588602610 -0.812706 0.58247 0.000195 0.000212 0 0 0 0
591476743 -0.806302 0.577113 0.000129 0.000341 0 0 0 0
594350876 -0.80015 0.583414 3.5e-05 0.000225 0 0 0 0
597225009 -0.803872 0.589991 0.000267 0.000432 0 0 0 0
600099142 -0.807725 0.598688 0.000108 0.000379 0 0 0 0
602973275 -0.81031 0.603465 0.000236 0.000156 0 0 0 0
605847408 -0.809803 0.605893 0.000162 0.000306 0 0 0 0
608721541 -0.805171 0.612287 0.000167 0.000548 0 0 0 0
611595674 -0.804626 0.611045 0.000411 0.000225 0 0 0 0
614469807 -0.797564 0.615778 0.000365 0.000392 0 0 0 0
617343940 -0.792343 0.613185 0.000285 0.000306 0 0 0 0
620218073 -0.785326 0.611921 0.000488 0.000318 0 0 0 0
623092206 -0.776938 0.620275 0.00043 0.000384 0 0 0 0
625966339 -0.783031 0.62335 0.000492 0.0004 0 0 0 0
628840472 -0.78224 0.628054 0.000395 0.000457 0 0 0 0
631714605 -0.781773 0.635896 0.000508 0.000412 0 0 0 0
634588738 -0.779945 0.63892 0.000533 0.000463 0 0 0 0
637462871 -0.776773 0.638652 0.000557 0.000273 0 0 0 0
640337004 -0.772056 0.638446 0.000603 0.000218 0 0 0 0
643211137 -0.762779 0.64124 0.000441 0.000234 0 0 0 0
646085270 -0.753597 0.641925 0.000662 0.000378 0 0 0 0
648959403 -0.74387 0.63835 0.000647 0.000399 0 0 0 0
651833536 -0.729078 0.638902 0.000826 0.000348 0 0 0 0
654707669 -0.729819 0.647424 0.000921 0.000324 0 0 0 0
657581802 -0.726156 0.654065 0.001053 0.000304 0 0 0 0
660455935 -0.719751 0.658881 0.001144 0.000368 0 0 0 0
663330068 -0.715762 0.661073 0.001323 0.000213 0 0 0 0
666204201 -0.70631 0.655087 0.001742 0.000291 0 0 0 0
669078334 -0.690243 0.65521 0.001831 -0.000105 0 0 0 0
671952467 -0.677025 0.636848 0.002029 -0.000504 0 0 0 0
674826600 -0.665033 0.621112 0.002372 -0.000686 0 0 0 0
677700733 -0.657119 0.591296 0.002388 -0.001396 0 0 0 0
680574866 -0.664472 0.571867 0.002166 -0.002043 0 0 0 0
683448999 -0.690643 0.561377 0.001592 -0.00253 0 0 0 0
686323132 -0.72519 0.54642 0.000974 -0.002756 0 0 0 0
689197265 -0.745451 0.568384 0.000321 -0.00273 0 0 0 0
692071398 -0.757332 0.579953 -7.9e-05 -0.002477 0 0 0 0
694945531 -0.769425 0.593781 -0.000459 -0.002341 0 0 0 0
697819664 -0.772651 0.605175 -0.000719 -0.002024 0 0 0 0
700693797 -0.770618 0.61383 -0.000837 -0.001938 0 0 0 0
703567930 -0.770178 0.617361 -0.000834 -0.001786 0 0 0 0
706442063 -0.75963 0.619207 -0.000921 -0.00161 0 0 0 0
709316196 -0.749345 0.62462 -0.000961 -0.001656 0 0 0 0
712190329 -0.753986 0.640135 -0.000976 -0.001467 0 0 0 0
715064462 -0.757346 0.654175 -0.001002 -0.001423 0 0 0 0
717938595 -0.754383 0.65797 -0.001044 -0.001392 0 0 0 0
720812728 -0.759691 0.666965 -0.001016 -0.001257 0 0 0 0
723686861 -0.76038 0.66998 -0.001145 -0.001207 0 0 0 0
726560994 -0.755895 0.675448 -0.001096 -0.001171 0 0 0 0
729435127 -0.750544 0.676786 -0.00119 -0.001057 0 0 0 0
732309260 -0.743494 0.676212 -0.001201 -0.001149 0 0 0 0
735183393 -0.735299 0.675878 -0.00116 -0.001111 0 0 0 0
738057526 -0.726521 0.673379 -0.001187 -0.001032 0 0 0 0
740931659 -0.726009 0.684222 -0.001213 -0.000999 0 0 0 0
743805792 -0.727785 0.692151 -0.001243 -0.000938 0 0 0 0
746679925 -0.729605 0.70209 -0.001339 -0.000993 0 0 0 0
749554058 -0.728021 0.707942 -0.001325 -0.000836 0 0 0 0
752428191 -0.726054 0.708343 -0.001266 -0.000835 0 0 0 0
755302324 -0.72341 0.713567 -0.001309 -0.000826 0 0 0 0
758176457 -0.71552 0.712843 -0.001308 -0.000654 0 0 0 0
761050590 -0.707609 0.713992 -0.001303 -0.000755 0 0 0 0
763924723 -0.699401 0.709223 -0.00134 -0.000623 0 0 0 0
766798856 -0.693119 0.703425 -0.001229 -0.000558 0 0 0 0
769672989 -0.689671 0.716491 -0.001115 -0.000596 0 0 0 0
772547122 -0.690845 0.72791 -0.001022 -0.000451 0 0 0 0
775421255 -0.692921 0.731161 -0.000876 -0.00053 0 0 0 0
778295388 -0.693037 0.735968 -0.00072 -0.000466 0 0 0 0
781169521 -0.691423 0.739314 -0.00049 -0.000481 0 0 0 0
784043654 -0.687004 0.743024 -0.000167 -0.000469 0 0 0 0
786917787 -0.684389 0.744001 0.000141 -0.000501 0 0 0 0
789791920 -0.676836 0.739567 0.000593 -0.000605 0 0 0 0
792666053 -0.668813 0.741621 0.001218 -0.00066 0 0 0 0
795540186 -0.65923 0.734483 0.00196 -0.000908 0 0 0 0
798414319 -0.656035 0.745824 0.002909 -0.001206 0 0 0 0
801288452 -0.657029 0.75147 0.003993 -0.001659 0 0 0 0
804162585 -0.650985 0.758462 0.005338 -0.00235 0 0 0 0
807036718 -0.649827 0.762219 0.00721 -0.003505 0 0 0 0
809910851 -0.643557 0.765547 0.009321 -0.005241 0 0 0 0
812784984 -0.634695 0.768337 0.012017 -0.00774 0 0 0 0
815659117 -0.623937 0.769601 0.014939 -0.011374 0 0 0 0
818533250 -0.610388 0.761412 0.018478 -0.01696 0 0 0 0
821407383 -0.600552 0.754918 0.021732 -0.025784 0 0 0 0
824281516 -0.578137 0.746434 0.022604 -0.039716 0 0 0 0
827155649 -0.568823 0.732897 0.018015 -0.058883 0 0 0 0
830029782 -0.571624 0.711456 4.3e-05 -0.080078 0 0 0 0
832903915 -0.587511 0.695261 -0.032917 -0.089691 0 0 0 0
835778048 -0.618681 0.689777 -0.066158 -0.078292 0 0 0 0
838652181 -0.6453 0.696975 -0.084876 -0.055405 0 0 0 0
841526314 -0.656431 0.711575 -0.090898 -0.033067 0 0 0 0
844400447 -0.657667 0.72554 -0.091182 -0.016205 0 0 0 0
847274580 -0.652113 0.734187 -0.088842 -0.003203 0 0 0 0
850148713 -0.650318 0.738044 -0.086427 0.005832 0 0 0 0
853022846 -0.63924 0.741904 -0.08411 0.013643 0 0 0 0
855896979 -0.63952 0.749704 -0.082951 0.020267 0 0 0 0
858771112 -0.63557 0.760894 -0.082074 0.027215 0 0 0 0
861645245 -0.63301 0.771848 -0.082254 0.0332 0 0 0 0
864519378 -0.63014 0.777455 -0.082179 0.039107 0 0 0 0
867393511 -0.623193 0.782083 -0.08231 0.045654 0 0 0 0
870267644 -0.617648 0.787761 -0.082511 0.053189 0 0 0 0
873141777 -0.613621 0.789771 -0.083134 0.060574 0 0 0 0
876015910 -0.610402 0.786429 -0.083917 0.067766 0 0 0 0
878890043 -0.59601 0.788433 -0.084796 0.074883 0 0 0 0
881764176 -0.584803 0.780796 -0.084671 0.084783 0 0 0 0
884638309 -0.578627 0.788298 -0.08484 0.095929 0 0 0 0
887512442 -0.571691 0.796084 -0.083088 0.109617 0 0 0 0
890386575 -0.568371 0.79999 -0.080923 0.123961 0 0 0 0
893260708 -0.567492 0.802718 -0.07831 0.140314 0 0 0 0
896134841 -0.566302 0.80284 -0.071208 0.159616 0 0 0 0
899008974 -0.55716 0.801377 -0.061212 0.178954 0 0 0 0
901883107 -0.547028 0.795125 -0.046902 0.199813 0 0 0 0
904757240 -0.540875 0.791139 -0.028001 0.220471 0 0 0 0
907631373 -0.531535 0.778442 -0.001539 0.238955 0 0 0 0
910505506 -0.519875 0.771856 0.03142 0.253933 0 0 0 0
913379639 -0.515778 0.766303 0.06973 0.262366 0 0 0 0
916253772 -0.52019 0.766794 0.112611 0.264069 0 0 0 0
919127905 -0.523218 0.764893 0.155216 0.254217 0 0 0 0
922002038 -0.532081 0.76411 0.196469 0.234594 0 0 0 0
924876171 -0.532739 0.764325 0.231165 0.204476 0 0 0 0
927750304 -0.538717 0.759785 0.255752 0.171383 0 0 0 0
930624437 -0.54352 0.756665 0.272461 0.136037 0 0 0 0
933498570 -0.544828 0.758753 0.281993 0.100019 0 0 0 0
936372703 -0.543306 0.757288 0.285207 0.066631 0 0 0 0
939246836 -0.542235 0.755395 0.28246 0.03575 0 0 0 0
942120969 -0.539545 0.758917 0.278208 0.008914 0 0 0 0
944995102 -0.545606 0.766625 0.272867 -0.012301 0 0 0 0
947869235 -0.546984 0.778918 0.265809 -0.035195 0 0 0 0
950743368 -0.553394 0.784379 0.258636 -0.053468 0 0 0 0
953617501 -0.552951 0.790158 0.250634 -0.070058 0 0 0 0
956491634 -0.549491 0.794032 0.242241 -0.085393 0 0 0 0
959365767 -0.545642 0.795835 0.233231 -0.099513 0 0 0 0
962239900 -0.543398 0.795906 0.225208 -0.112907 0 0 0 0
965114033 -0.533918 0.799064 0.215545 -0.125535 0 0 0 0
967988166 -0.529365 0.792288 0.207288 -0.136334 0 0 0 0
970862299 -0.52082 0.794592 0.199659 -0.147774 0 0 0 0
973736432 -0.524899 0.805048 0.191365 -0.15892 0 0 0 0
976610565 -0.509628 0.817913 0.182713 -0.171376 0 0 0 0
979484698 -0.520465 0.81953 0.175461 -0.182077 0 0 0 0
982358831 -0.523496 0.821742 0.165101 -0.194087 0 0 0 0
985232964 -0.521735 0.822723 0.155795 -0.20491 0 0 0 0
988107097 -0.515555 0.824725 0.1461 -0.215259 0 0 0 0
990981230 -0.509342 0.82142 0.134032 -0.225 0 0 0 0
993855363 -0.502853 0.819068 0.122415 -0.235045 0 0 0 0
996729496 -0.493437 0.813061 0.107465 -0.24449 0 0 0 0
999603629 -0.486302 0.80911 0.093568 -0.252823 0 0 0 0
1002477762 -0.499412 0.811008 0.079272 -0.262961 0 0 0 0
1005351895 -0.48788 0.822347 0.063059 -0.270984 0 0 0 0
1008226028 -0.486206 0.832815 0.045102 -0.278306 0 0 0 0
1011100161 -0.486659 0.834902 0.026978 -0.284769 0 0 0 0
1013974294 -0.480032 0.832902 -0.008271 -0.279459 0 0 0 0
1016848427 -0.483821 0.829291 -0.010504 -0.29126 0 0 0 0
1019722560 -0.474132 0.830069 -0.029409 -0.291503 0 0 0 0
1022596693 -0.471977 0.823029 -0.048206 -0.289877 0 0 0 0
1025470826 -0.465344 0.816804 -0.067708 -0.287563 0 0 0 0
1028344959 -0.455696 0.812572 -0.088955 -0.281953 0 0 0 0
1031219092 -0.456699 0.81862 -0.108018 -0.276886 0 0 0 0
1034093225 -0.455893 0.82397 -0.126909 -0.270775 0 0 0 0
1036967358 -0.457487 0.83396 -0.145496 -0.261421 0 0 0 0
1039841491 -0.453783 0.835978 -0.162796 -0.251329 0 0 0 0
1042715624 -0.456597 0.83545 -0.178549 -0.239237 0 0 0 0
1045589757 -0.458303 0.830694 -0.192048 -0.22735 0 0 0 0
1048463890 -0.453857 0.830833 -0.204557 -0.213622 0 0 0 0
1051338023 -0.452219 0.823532 -0.21619 -0.199519 0 0 0 0
1054212156 -0.449253 0.819656 -0.22664 -0.183636 0 0 0 0
1057086289 -0.442206 0.811774 -0.234273 -0.168847 0 0 0 0
1059960422 -0.441457 0.823549 -0.243988 -0.154595 0 0 0 0
1062834555 -0.446171 0.828911 -0.251492 -0.140433 0 0 0 0
1065708688 -0.448105 0.837825 -0.25704 -0.12548 0 0 0 0
1068582821 -0.442686 0.842276 -0.262844 -0.109733 0 0 0 0
1071456954 -0.443796 0.844551 -0.26696 -0.094935 0 0 0 0
1074331087 -0.443772 0.843901 -0.26918 -0.081844 0 0 0 0
1077205220 -0.440343 0.842737 -0.270893 -0.065289 0 0 0 0
1080079353 -0.44374 0.836505 -0.271597 -0.051786 0 0 0 0
1082953486 -0.432911 0.838957 -0.271167 -0.038153 0 0 0 0
1085827619 -0.430839 0.830831 -0.269972 -0.022985 0 0 0 0
1088701752 -0.429407 0.841546 -0.270316 -0.009659 0 0 0 0
1091575885 -0.427391 0.850101 -0.268841 0.004782 0 0 0 0
1094450018 -0.320819 0.900272 -0.267375 0.018672 0 0 0 0
1097324151 -0.429261 0.857306 -0.265829 0.030618 0 0 0 0
1100198284 -0.425551 0.859563 -0.260168 0.047924 0 0 0 0
1103072417 -0.430268 0.857895 -0.257897 0.055072 0 0 0 0
1105946550 -0.417004 0.863736 -0.253211 0.068836 0 0 0 0
1108820683 -0.417098 0.857243 -0.248102 0.078529 0 0 0 0
1111694816 -0.416745 0.859636 -0.241567 0.091902 0 0 0 0
1114568949 -0.414469 0.84807 -0.234113 0.101385 0 0 0 0
1117443082 -0.412902 0.862023 -0.22824 0.111971 0 0 0 0
1120317215 -0.409014 0.863643 -0.222981 0.121514 0 0 0 0
1123191348 -0.40987 0.876938 -0.217037 0.129172 0 0 0 0
1126065481 -0.405257 0.877932 -0.209352 0.139342 0 0 0 0
1128939614 -0.40696 0.877449 -0.201387 0.148669 0 0 0 0
1131813747 -0.406306 0.875612 -0.192866 0.156535 0 0 0 0
1134687880 -0.406924 0.876689 -0.184582 0.160761 0 0 0 0
1137562013 -0.400884 0.896053 -0.175685 0.169782 0 0 0 0
1140436146 -0.398895 0.870863 -0.166458 0.174587 0 0 0 0
1143310279 -0.395673 0.863261 -0.159009 0.177702 0 0 0 0
