# HZ S RI R 50
100000000 -0.946755 0.314551
102874133 -0.928302 0.366983
105748266 -0.957453 0.332105
108622399 -0.957141 0.342781
111496532 -0.960299 0.3533
114370665 -0.957407 0.36373
117244798 -0.948915 0.37126
120118931 -0.945099 0.377909
122993064 -0.938233 0.384089
125867197 -0.928455 0.391747
128741330 -0.912055 0.401429
131615463 -0.893407 0.432677
134489596 -0.915805 0.42495
137363729 -0.920934 0.431469
140237862 -0.921356 0.440941
143111995 -0.919088 0.448
145986128 -0.91681 0.457355
148860261 -0.909796 0.46359
151734394 -0.903252 0.468075
154608527 -0.89183 0.472016
157482660 -0.87973 0.477314
160356793 -0.879227 0.49034
163230926 -0.88072 0.501504
166105059 -0.880725 0.513693
168979192 -0.878399 0.521843
171853325 -0.876489 0.530196
174727458 -0.869719 0.538649
177601591 -0.863907 0.543548
180475724 -0.853661 0.547841
183349857 -0.842363 0.551489
186223990 -0.828947 0.55474
189098123 -0.8261 0.566343
191972256 -0.824985 0.579113
194846389 -0.822418 0.590065
197720522 -0.823001 0.601059
200594655 -0.817833 0.608199
203468788 -0.812808 0.613267
206342921 -0.805431 0.619428
209217054 -0.798478 0.623568
212091187 -0.787388 0.626916
214965320 -0.774379 0.627397
217839453 -0.768493 0.637422
220713586 -0.766968 0.650099
223587719 -0.762677 0.661466
226461852 -0.756812 0.671833
229335985 -0.752731 0.680749
232210118 -0.739284 0.690928
235084251 -0.699389 0.687644
237958384 -0.743583 0.668253
240832517 -0.729215 0.685196
243706650 -0.716164 0.689957
246580783 -0.709111 0.700822
249454916 -0.706431 0.712144
252329049 -0.70366 0.723919
255203182 -0.697796 0.734899
258077315 -0.692522 0.741757
260951448 -0.682874 0.749692
263825581 -0.676943 0.753043
266699714 -0.668579 0.758161
269573847 -0.673702 0.749526
272447980 -0.64804 0.761264
275322113 -0.655185 0.756409
278196246 -0.619138 0.788352
281070379 -0.648586 0.780624
283944512 -0.613208 0.807294
286818645 -0.63654 0.794589
289692778 -0.596986 0.822815
292566911 -0.622448 0.804846
295441044 -0.579793 0.82628
298315177 -0.600839 0.810105
301189310 -0.55533 0.828979
304063443 -0.577726 0.81518
306937576 -0.541751 0.84455
309811709 -0.568943 0.834961
312685842 -0.53268 0.861438
315559975 -0.559062 0.851461
318434108 -0.518097 0.87343
321308241 -0.542043 0.860278
324182374 -0.512436 0.871168
327056507 -0.50423 0.872121
329930640 -0.488351 0.870977
332804773 -0.478578 0.871564
335678906 -0.474673 0.8858
338553039 -0.470799 0.892544
341427172 -0.465248 0.900607
344301305 -0.456943 0.905292
347175438 -0.450343 0.909654
350049571 -0.438493 0.91333
352923704 -0.42863 0.913485
355797837 -0.419546 0.913245
358671970 -0.404147 0.910627
361546103 -0.390979 0.909156
364420236 -0.384327 0.922631
367294369 -0.379123 0.931478
370168502 -0.371095 0.941452
373042635 -0.36651 0.946789
375916768 -0.354457 0.951483
378790901 -0.346056 0.951996
381665034 -0.335381 0.952784
384539167 -0.324458 0.950056
387413300 -0.312412 0.947055
390287433 -0.297352 0.945885
393161566 -0.290694 0.956769
396035699 -0.28236 0.967266
398909832 -0.275908 0.972895
401783965 -0.266567 0.979458
404658098 -0.25837 0.980644
407532231 -0.251635 0.982889
410406364 -0.241683 0.981681
413280497 -0.23198 0.979584
416154630 -0.218536 0.974158
419028763 -0.206546 0.969298
421902896 -0.199791 0.980323
424777029 -0.189658 0.989758
427651162 -0.181783 0.996484
430525295 -0.17314 0.999075
433399428 -0.180517 0.998361
436273561 -0.155252 1.005607
439147694 -0.144166 1.00156
442021827 -0.134538 0.997115
444895960 -0.107765 0.995502
447770093 -0.115117 0.985672
450644226 -0.101091 0.992362
453518359 -0.093034 1.000636
456392492 -0.069742 1.005278
459266625 -0.073795 1.009356
462140758 -0.06245 1.011742
465014891 -0.05516 1.011536
467889024 -0.044302 1.011064
470763157 -0.035893 1.005062
473637290 -0.026048 0.996774
476511423 -0.015706 0.989726
479385556 -0.004926 0.994935
482259689 0.005735 1.002088
485133822 0.018075 1.007357
488007955 0.026915 1.010202
490882088 0.03666 1.012281
493756221 0.045424 1.011339
496630354 0.054034 1.007554
499504487 0.063651 1.003872
502378620 0.07245 0.995903
505252753 0.082759 0.987642
508126886 0.093447 0.990183
511001019 0.104687 0.996427
513875152 0.114179 1.000648
516749285 0.125512 1.002514
519623418 0.133294 1.003492
522497551 0.145812 1.000643
525371684 0.185363 0.982138
528245817 0.162467 0.9911
531119950 0.170425 0.98372
533994083 0.181252 0.971659
536868216 0.190456 0.971937
539742349 0.203337 0.976633
542616482 0.215341 0.982341
545490615 0.223271 0.98088
548364748 0.235408 0.979261
551238881 0.241043 0.973119
554113014 0.25299 0.968305
556987147 0.263494 0.958158
559861280 0.268686 0.952235
562735413 0.281828 0.940817
565609546 0.291392 0.936195
568483679 0.306687 0.940923
571357812 0.320024 0.943097
574231945 0.33057 0.942931
577106078 0.338235 0.943795
579980211 0.353099 0.937216
582854344 0.364292 0.930259
585728477 0.374777 0.927217
588602610 0.38368 0.911486
591476743 0.392922 0.902955
594350876 0.404125 0.896433
597225009 0.418046 0.895588
600099142 0.434842 0.893873
602973275 0.449354 0.892551
605847408 0.429873 0.910016
608721541 0.479591 0.880246
611595674 0.495793 0.864298
614469807 0.510347 0.845986
617343940 0.525744 0.818059
620218073 0.548089 0.764585
623092206 0.54332 0.663948
625966339 0.349417 0.61056
628840472 0.317545 0.814943
631714605 0.380865 0.878729
634588738 0.451542 0.874017
637462871 0.46791 0.877903
640337004 0.502098 0.862178
643211137 0.517685 0.85001
646085270 0.531818 0.839428
648959403 0.54255 0.824096
651833536 0.557969 0.809016
654707669 0.574404 0.809953
657581802 0.591087 0.805638
660455935 0.600854 0.800397
663330068 0.61379 0.796891
666204201 0.626365 0.782921
669078334 0.629849 0.775475
671952467 0.642168 0.76406
674826600 0.648072 0.750159
677700733 0.650722 0.736592
680574866 0.657852 0.723997
683448999 0.673194 0.721328
686323132 0.689813 0.713534
689197265 0.699563 0.707706
692071398 0.713032 0.701953
694945531 0.719764 0.694812
697819664 0.727282 0.682298
700693797 0.736431 0.671509
703567930 0.73801 0.657166
706442063 0.741876 0.643693
709316196 0.744778 0.628402
712190329 0.758728 0.62031
715064462 0.776208 0.616894
717938595 0.783161 0.609284
720812728 0.798079 0.597572
723686861 0.802527 0.590408
726560994 0.810723 0.579148
729435127 0.818138 0.562711
732309260 0.820454 0.556406
735183393 0.820099 0.538077
738057526 0.822225 0.523036
740931659 0.837753 0.514582
743805792 0.850076 0.510584
746679925 0.862893 0.495873
749554058 0.872929 0.488289
752428191 0.878482 0.47438
755302324 0.885636 0.463766
758176457 0.889139 0.4503
761050590 0.889949 0.435721
763924723 0.891581 0.422867
766798856 0.88741 0.405855
769672989 0.901762 0.395392
772547122 0.913384 0.386926
775421255 0.922121 0.373046
778295388 0.93021 0.360335
781169521 0.937543 0.349525
784043654 0.941793 0.335642
786917787 0.943784 0.322637
789791920 0.946341 0.305
792666053 0.943434 0.293829
795540186 0.94011 0.274054
798414319 0.953548 0.262576
801288452 0.962632 0.248932
804162585 0.971131 0.233531
807036718 0.97671 0.221733
809910851 0.981365 0.207674
812784984 0.985496 0.194442
815659117 0.984843 0.174655
818533250 0.98356 0.161951
821407383 0.98001 0.14349
824281516 0.973184 0.119298
827155649 0.980941 0.107376
830029782 0.992476 0.09416
832903915 0.998262 0.074841
835778048 0.999695 0.061434
838652181 1.003737 0.043248
841526314 1.003915 0.028645
844400447 0.997366 -0.006111
847274580 0.995966 -0.008071
850148713 0.989298 -0.024417
853022846 0.975951 -0.03932
855896979 0.981541 -0.06219
858771112 0.98497 -0.086986
861645245 0.993498 -0.100603
864519378 0.992398 -0.123986
867393511 0.992494 -0.143916
870267644 0.988048 -0.162062
873141777 0.984979 -0.180866
876015910 0.97615 -0.20086
878890043 0.964955 -0.221085
881764176 0.950788 -0.237469
884638309 0.943683 -0.260324
887512442 0.946957 -0.287742
890386575 0.944725 -0.310437
893260708 0.939184 -0.337965
896134841 0.937195 -0.357882
899008974 0.929155 -0.378437
901883107 0.911345 -0.400761
904757240 0.900587 -0.419986
907631373 0.886044 -0.43788
910505506 0.863046 -0.460716
913379639 0.851433 -0.482155
916253772 0.836877 -0.512829
919127905 0.823841 -0.539389
922002038 0.811266 -0.568425
924876171 0.791071 -0.594597
927750304 0.76538 -0.612975
930624437 0.746706 -0.636169
933498570 0.715922 -0.660815
936372703 0.681148 -0.684741
939246836 0.651329 -0.697086
942120969 0.613539 -0.72099
944995102 0.582944 -0.748592
947869235 0.544506 -0.770899
950743368 0.502567 -0.789888
953617501 0.452651 -0.809451
956491634 0.411501 -0.82075
959365767 0.35925 -0.831521
962239900 0.302363 -0.832907
965114033 0.246999 -0.830366
967988166 0.17737 -0.820976
970862299 0.112302 -0.796994
973736432 0.053469 -0.779641
976610565 -0.000967 -0.750264
979484698 -0.055899 -0.719844
982358831 -0.11488 -0.674071
985232964 -0.152045 -0.614194
988107097 -0.182917 -0.572466
990981230 -0.238147 -0.498732
993855363 -0.278641 -0.410844
996729496 -0.268781 -0.281731
999603629 -0.216964 -0.239236
1002477762 -0.220435 -0.1757
1005351895 -0.19122 -0.081611
1008226028 -0.102517 -0.039464
1011100161 -0.065755 -0.036988
1013974294 -0.049103 0.015925
1016848427 0.03809 0.056297
1019722560 0.115233 0.056214
1022596693 0.155569 0.010761
1025470826 0.187486 0.024117
1028344959 0.24494 0.022974
1031219092 0.291764 -0.030227
1034093225 0.327563 -0.054144
1036967358 0.361755 -0.132393
1039841491 0.32996 -0.165165
1042715624 0.322575 -0.183122
1045589757 0.338224 -0.182945
1048463890 0.365232 -0.227803
1051338023 0.35115 -0.263273
1054212156 0.364173 -0.296757
1057086289 0.338461 -0.356349
1059960422 0.298395 -0.402498
1062834555 0.249478 -0.415912
1065708688 0.231636 -0.411445
1068582821 0.219199 -0.438368
1071456954 0.157887 -0.467283
1074331087 0.114793 -0.414326
1077205220 0.135926 -0.407296
1080079353 0.137912 -0.454402
1082953486 0.070473 -0.471574
1085827619 0.020701 -0.461198
1088701752 -0.016795 -0.440088
1091575885 -0.042413 -0.442496
1094450018 -0.107241 -0.456612
1097324151 -0.161309 -0.376316
1100198284 -0.152463 -0.328431
1103072417 -0.142091 -0.323409
1105946550 -0.185446 -0.30018
1108820683 -0.17619 -0.257606
1111694816 -0.183367 -0.234369
1114568949 -0.194895 -0.209327
1117443082 -0.213187 -0.195145
1120317215 -0.233215 -0.148839
1123191348 -0.217203 -0.110698
1126065481 -0.224001 -0.083999
1128939614 -0.211625 -0.025165
1131813747 -0.175263 -0.009325
1134687880 -0.15611 0.014589
1137562013 -0.126345 0.026132
1140436146 -0.114012 0.025036
1143310279 -0.106224 0.032115
1146184412 -0.11723 0.05561
1149058545 -0.089334 0.105253
1151932678 -0.031364 0.109496
1154806811 -0.023003 0.076223
1157680944 -0.030093 0.084892
1160555077 -0.010486 0.1188
1163429210 0.03277 0.116068
1166303343 0.040138 0.091846
1169177476 0.051238 0.087504
1172051609 0.033759 0.094076
1174925742 0.085598 0.112152
1177799875 0.08782 0.080959
1180674008 0.073656 0.083512
1183548141 0.088038 0.124401
1186422274 0.145586 0.122347
1189296407 0.16812 0.074487
1192170540 0.154501 0.048594
1195044673 0.127372 0.077177
1197918806 0.175896 0.080586
1200792939 0.178689 0.043695
1203667072 0.154702 0.047214
1206541205 0.172443 0.072057
1209415338 0.198754 0.088151
1212289471 0.237593 0.050953
1215163604 0.235675 0.040724
1218037737 0.243417 0.034197
1220911870 0.270816 0.005922
1223786003 0.247075 -0.022936
1226660136 0.238875 -0.013604
1229534269 0.241188 -0.012573
1232408402 0.25949 -0.023045
1235282535 0.259412 -0.018748
1238156668 0.293869 -0.018884
1241030801 0.317239 -0.062237
1243904934 0.31208 -0.089566
1246779067 0.299029 -0.103908
1249653200 0.316827 -0.136722
1252527333 0.274701 -0.175844
1255401466 0.247481 -0.152672
1258275599 0.24785 -0.136993
1261149732 0.26977 -0.161877
1264023865 0.261823 -0.192544
1266897998 0.252966 -0.208038
1269772131 0.234225 -0.229699
1272646264 0.233042 -0.229085
1275520397 0.211844 -0.261081
1278394530 0.171862 -0.26675
1281268663 0.142837 -0.244206
1284142796 0.15178 -0.222924
1287016929 0.15007 -0.239102
1289891062 0.131835 -0.242884
1292765195 0.1313 -0.236186
1295639328 0.131173 -0.245959
1298513461 0.104519 -0.277082
1301387594 0.069278 -0.264124
1304261727 0.047549 -0.230933
1307135860 0.052216 -0.215876
1310009993 0.051677 -0.200915
1312884126 0.066963 -0.186014
1315758259 0.085173 -0.185789
1318632392 0.087248 -0.205608
1321506525 0.070792 -0.209887
1324380658 0.070995 -0.205369
1327254791 0.06431 -0.205008
1330128924 0.036959 -0.2068
1333003057 0.028879 -0.192183
1335877190 0.039823 -0.161077
1338751323 0.058841 -0.156409
1341625456 0.087692 -0.163285
1344499589 0.088594 -0.196243
1347373722 0.073808 -0.200808
1350247855 0.067987 -0.214026
1353121988 0.037621 -0.227105
1355996121 0.018358 -0.2177
1358870254 0.024696 -0.200317
1361744387 0.043852 -0.207212
1364618520 0.030418 -0.226319
1367492653 0.022055 -0.222652
1370366786 0.022188 -0.241323
1373240919 -0.007355 -0.264839
1376115052 -0.057339 -0.258914
1378989185 -0.080866 -0.232462
1381863318 -0.090684 -0.207038
1384737451 -0.092633 -0.194266
1387611584 -0.091586 -0.183234
1390485717 -0.100464 -0.169271
1393359850 -0.092467 -0.188189
1396233983 -0.125493 -0.18133
1399108116 -0.144837 -0.161357
1401982249 -0.154037 -0.138065
1404856382 -0.150474 -0.119732
1407730515 -0.169088 -0.112325
1410604648 -0.182883 -0.075735
1413478781 -0.166347 -0.059632
1416352914 -0.176276 -0.055974
1419227047 -0.181187 -0.021729
1422101180 -0.178661 0.005253
1424975313 -0.161228 0.026846
1427849446 -0.147898 0.040874
1430723579 -0.137151 0.04992
1433597712 -0.115137 0.059334
1436471845 -0.119482 0.059216
1439345978 -0.099237 0.08612
1442220111 -0.09196 0.088162
1445094244 -0.082392 0.098867
1447968377 -0.073337 0.108279
1450842510 -0.061394 0.127305
1453716643 -0.022166 0.133058
1456590776 0.002177 0.12312
1459464909 0.00536 0.093126
1462339042 -0.012129 0.102757
1465213175 0.001975 0.126151
1468087308 0.036384 0.135752
1470961441 0.068086 0.102139
1473835574 0.038704 0.097996
1476709707 0.067545 0.11717
1479583840 0.107489 0.078022
1482457973 0.077338 0.0443
1485332106 0.054481 0.066988
1488206239 0.080828 0.084632
1491080372 0.10185 0.057791
1493954505 0.094004 0.039773
1496828638 0.101677 0.04344
1499702771 0.110372 0.027335
1502576904 0.10054 0.016654
1505451037 0.112476 0.000471
1508325170 0.09279 -0.022677
1511199303 0.076633 -0.017158
1514073436 0.061677 -0.026746
1516947569 0.046719 0.000803
1519821702 0.074706 0.005272
1522695835 0.067765 -0.007687
1525569968 0.074895 -0.006294
1528444101 0.084412 -0.025997
1531318234 0.070898 -0.036584
1534192367 0.058001 -0.048527
1537066500 0.037096 -0.032041
1539940633 0.053751 -0.030291
1542814766 0.052608 -0.05248
1545688899 0.011948 -0.060304
1548563032 0.009334 -0.021136
1551437165 0.032127 -0.012917
1554311298 0.047692 -0.037917
1557185431 0.016037 -0.056288
1560059564 -0.002764 -0.021676
1562933697 0.029123 -0.011489
1565807830 0.040107 -0.052034
1568681963 0.008245 -0.061876
1571556096 -0.00046 -0.0422
1574430229 0.011542 -0.045459
1577304362 -0.00856 -0.064858
1580178495 -0.027254 -0.050613
1583052628 -0.035205 -0.033646
1585926761 -0.009129 -0.032783
1588800894 -0.024007 -0.046254
1591675027 -0.034137 -0.032195
1594549160 -0.014158 -0.038321
1597423293 -0.019951 -0.067372
1600297426 -0.056346 -0.077548
1603171559 -0.069619 -0.051018
1606045692 -0.071035 -0.05587
1608919825 -0.077471 -0.048444
1611793958 -0.093408 -0.05922
1614668091 -0.1195 -0.034758
1617542224 -0.110465 -0.015727
1620416357 -0.113964 -0.020737
1623290490 -0.101515 -0.004757
1626164623 -0.116329 -0.023508
1629038756 -0.142623 -0.042918
1631912889 -0.173049 -0.014396
1634787022 -0.175426 0.025183
1637661155 -0.1572 0.035864
1640535288 -0.176752 0.035516
1643409421 -0.17924 0.074677
1646283554 -0.162227 0.074379
1649157687 -0.16282 0.075278
1652031820 -0.173195 0.076157
1654905953 -0.199386 0.095964
1657780086 -0.196351 0.124731
1660654219 -0.190856 0.14038
1663528352 -0.184977 0.155582
1666402485 -0.193521 0.172812
1669276618 -0.172559 0.222496
1672150751 -0.132417 0.224339
1675024884 -0.116182 0.214694
1677899017 -0.112226 0.21072
1680773150 -0.130768 0.206288
1683647283 -0.133965 0.247749
1686521416 -0.106349 0.255132
1689395549 -0.103918 0.263682
1692269682 -0.088196 0.271537
1695143815 -0.07415 0.288938
1698017948 -0.044061 0.303737
1700892081 -0.009251 0.303577
1703766214 0.005187 0.286371
1706640347 -0.000303 0.277555
1709514480 0.017011 0.285258
1712388613 0.023402 0.27925
1715262746 0.026328 0.279739
1718136879 0.038191 0.287257
1721011012 0.058672 0.300853
1723885145 0.0905 0.28775
1726759278 0.105176 0.274576
1729633411 0.119451 0.266431
1732507544 0.147032 0.2561
1735381677 0.156445 0.214276
1738255810 0.136056 0.202853
1741129943 0.111521 0.216673
1744004076 0.13179 0.215419
1746878209 0.14445 0.21238
1749752342 0.158438 0.197145
1752626475 0.15529 0.192339
1755500608 0.177917 0.189364
1758374741 0.216934 0.158083
1761248874 0.202961 0.104663
1764123007 0.157696 0.106976
1766997140 0.172039 0.117733
1769871273 0.185805 0.09641
1772745406 0.164177 0.075596
1775619539 0.165243 0.066575
1778493672 0.164483 0.04637
1781367805 0.144957 0.014684
1784241938 0.104221 0.009922
1787116071 0.101806 0.014307
1789990204 0.081402 0.003082
1792864337 0.069897 -0.005183
1795738470 0.046684 -0.010913
1798612603 0.027881 -0.018063
1801486736 -0.002702 -0.035968
1804360869 -0.052454 -0.032047
1807235002 -0.086663 -0.010442
1810109135 -0.103863 0.007242
1812983268 -0.144546 0.017982
1815857401 -0.17893 0.055102
1818731534 -0.196411 0.083471
1821605667 -0.217863 0.129766
1824479800 -0.225026 0.153371
1827353933 -0.255491 0.196435
1830228066 -0.244208 0.2425
1833102199 -0.247519 0.263177
1835976332 -0.261542 0.304944
1838850465 -0.265197 0.353088
1841724598 -0.254479 0.406364
1844598731 -0.236007 0.459979
1847472864 -0.219854 0.509682
1850346997 -0.182162 0.560645
1853221130 -0.142885 0.591229
1856095263 -0.104374 0.607476
1858969396 -0.08218 0.625779
1861843529 -0.052711 0.658393
1864717662 -0.011954 0.672557
1867591795 0.020243 0.688297
1870465928 0.090184 0.711659
1873340061 0.106003 0.729583
1876214194 0.148201 0.739811
1879088327 0.189569 0.744076
1881962460 0.227594 0.748099
1884836593 0.257439 0.752384
1887710726 0.303754 0.745856
1890584859 0.331263 0.742173
1893458992 0.368334 0.730557
1896333125 0.398552 0.716615
1899207258 0.431958 0.704978
1902081391 0.465188 0.696433
1904955524 0.502333 0.688711
1907829657 0.529363 0.681728
1910703790 0.556663 0.661667
1913577923 0.581032 0.662517
1916452056 0.608038 0.641136
1919326189 0.631972 0.620895
1922200322 0.650698 0.599777
1925074455 0.664864 0.576373
1927948588 0.685086 0.554214
1930822721 0.709371 0.543377
1933696854 0.732939 0.526066
1936570987 0.749094 0.515701
1939445120 0.769763 0.500692
1942319253 0.783639 0.477698
1945193386 0.794876 0.461017
1948067519 0.803788 0.438556
1950941652 0.810953 0.417009
1953815785 0.817397 0.401437
1956689918 0.827866 0.371472
1959564051 0.847446 0.356979
1962438184 0.859643 0.33912
1965312317 0.872617 0.325994
1968186450 0.883268 0.309995
1971060583 0.895309 0.288321
1973934716 0.900194 0.268465
1976808849 0.903445 0.250971
1979682982 0.907169 0.230173
1982557115 0.905755 0.22936
1985431248 0.913204 0.197216
1988305381 0.918794 0.166371
1991179514 0.932643 0.148369
1994053647 0.938223 0.135537
1996927780 0.943502 0.120558
1999801913 0.946387 0.098151
2002676046 0.946136 0.084327
2005550179 0.946345 0.066672
2008424312 0.940269 0.048836
2011298445 0.931802 0.026547
2014172578 0.930348 0.013942
2017046711 0.944482 -0.008177
2019920844 0.944778 -0.027819
2022794977 0.952804 -0.049687
2025669110 0.955199 -0.039857
2028543243 0.955519 -0.072345
2031417376 0.9501 -0.094435
2034291509 0.951193 -0.102268
2037165642 0.940948 -0.123675
2040039775 0.934012 -0.146768
2042913908 0.923201 -0.154538
2045788041 0.929801 -0.186277
2048662174 0.931917 -0.198461
2051536307 0.93147 -0.216514
2054410440 0.931153 -0.236277
2057284573 0.933572 -0.246806
2060158706 0.923408 -0.262723
2063032839 0.915912 -0.275406
2065906972 0.910037 -0.298534
2068781105 0.899008 -0.303705
2071655238 0.885319 -0.327147
2074529371 0.885199 -0.341489
