# HZ S RI R 50
100000000 -0.797526 0.596569 0.004435 0.01011 0 0 0 0
102874133 -0.920156 0.721898 0.005559 0.012183 0 0 0 0
105748266 -0.799411 0.628431 0.005027 0.010645 0 0 0 0
108622399 -0.77993 0.661674 0.005661 0.010866 0 0 0 0
111496532 -0.801018 0.659231 0.00593 0.011134 0 0 0 0
114370665 -0.76963 0.688696 0.006429 0.011246 0 0 0 0
117244798 -0.730227 0.723961 0.006839 0.011505 0 0 0 0
120118931 -0.729962 0.723347 0.007268 0.011703 0 0 0 0
122993064 -0.711543 0.740197 0.007723 0.01179 0 0 0 0
125867197 -0.68974 0.747707 0.008081 0.01195 0 0 0 0
128741330 -0.668939 0.755978 0.008596 0.011967 0 0 0 0
131615463 -0.657378 0.775174 0.009074 0.012192 0 0 0 0
134489596 -0.657609 0.790228 0.009392 0.012533 0 0 0 0
137363729 -0.635185 0.811885 0.010157 0.012468 0 0 0 0
140237862 -0.637329 0.814325 0.010534 0.012792 0 0 0 0
143111995 -0.606845 0.836147 0.01133 0.012612 0 0 0 0
145986128 -0.574469 0.854282 0.011752 0.012659 0 0 0 0
148860261 -0.571429 0.851706 0.012279 0.012678 0 0 0 0
151734394 -0.567859 0.845817 0.012609 0.01298 0 0 0 0
154608527 -0.530887 0.858141 0.01328 0.012706 0 0 0 0
157482660 -0.507643 0.860152 0.013851 0.01288 0 0 0 0
160356793 -0.491217 0.874642 0.01411 0.012721 0 0 0 0
163230926 -0.47632 0.890593 0.01482 0.012504 0 0 0 0
166105059 -0.458054 0.905389 0.015294 0.012386 0 0 0 0
168979192 -0.440409 0.917332 0.015793 0.012271 0 0 0 0
171853325 -0.422266 0.927206 0.016298 0.012281 0 0 0 0
174727458 -0.40272 0.934203 0.016789 0.01215 0 0 0 0
177601591 -0.382844 0.939743 0.017265 0.012101 0 0 0 0
180475724 -0.363488 0.942247 0.017616 0.011766 0 0 0 0
183349857 -0.340806 0.943386 0.018052 0.011604 0 0 0 0
186223990 -0.317324 0.941829 0.018309 0.011237 0 0 0 0
189098123 -0.297065 0.952118 0.018798 0.011145 0 0 0 0
191972256 -0.277153 0.964238 0.019352 0.011005 0 0 0 0
194846389 -0.25648 0.975052 0.019676 0.010932 0 0 0 0
197720522 -0.236088 0.984631 0.020196 0.010768 0 0 0 0
200594655 -0.215684 0.991231 0.020638 0.010568 0 0 0 0
203468788 -0.195742 0.994904 0.020949 0.010347 0 0 0 0
206342921 -0.17356 0.995698 0.02141 0.010209 0 0 0 0
209217054 -0.152121 0.996854 0.021807 0.010042 0 0 0 0
212091187 -0.128989 0.993877 0.022002 0.009783 0 0 0 0
214965320 -0.105817 0.989089 0.022437 0.009637 0 0 0 0
217839453 -0.084053 0.993115 0.022869 0.009301 0 0 0 0
220713586 -0.06182 1.000353 0.023165 0.009145 0 0 0 0
223587719 -0.038917 1.006466 0.02374 0.008979 0 0 0 0
226461852 -0.017623 1.008448 0.024244 0.008923 0 0 0 0
229335985 0.005425 1.010985 0.024649 0.008519 0 0 0 0
232210118 0.029517 1.010402 0.025156 0.008492 0 0 0 0
235084251 0.051941 1.006976 0.025581 0.008265 0 0 0 0
237958384 0.073799 1.002692 0.026019 0.007964 0 0 0 0
240832517 0.096556 0.994637 0.026398 0.00784 0 0 0 0
243706650 0.119477 0.985038 0.026744 0.007568 0 0 0 0
246580783 0.144074 0.983703 0.02718 0.007262 0 0 0 0
249454916 0.167586 0.986738 0.027743 0.007107 0 0 0 0
252329049 0.190755 0.986615 0.028325 0.006944 0 0 0 0
255203182 0.216897 0.983677 0.028793 0.006603 0 0 0 0
258077315 0.238142 0.982057 0.029381 0.006386 0 0 0 0
260951448 0.259535 0.975199 0.02983 0.006143 0 0 0 0
263825581 0.283823 0.96672 0.03043 0.005899 0 0 0 0
266699714 0.306657 0.957658 0.030863 0.005551 0 0 0 0
269573847 0.327837 0.944059 0.031182 0.005246 0 0 0 0
272447980 0.349588 0.927498 0.031704 0.004863 0 0 0 0
275322113 0.373358 0.91811 0.032035 0.004468 0 0 0 0
278196246 0.398214 0.915799 0.033033 0.004184 0 0 0 0
281070379 0.422371 0.909575 0.03344 0.003794 0 0 0 0
283944512 0.448913 0.905281 0.034315 0.003423 0 0 0 0
286818645 0.470334 0.89447 0.034802 0.003062 0 0 0 0
289692778 0.492094 0.88308 0.035566 0.002616 0 0 0 0
292566911 0.512446 0.869484 0.036046 0.002216 0 0 0 0
295441044 0.534316 0.852924 0.036766 0.00162 0 0 0 0
298315177 0.551396 0.831396 0.037432 0.001177 0 0 0 0
301189310 0.569429 0.809494 0.037865 0.000567 0 0 0 0
304063443 0.591273 0.792232 0.038289 -4.3e-05 0 0 0 0
306937576 0.618179 0.783983 0.039195 -0.00054 0 0 0 0
309811709 0.642938 0.773559 0.039813 -0.001187 0 0 0 0
312685842 0.663339 0.760537 0.040724 -0.001801 0 0 0 0
315559975 0.687371 0.745947 0.041288 -0.002512 0 0 0 0
318434108 0.705006 0.727158 0.041878 -0.003166 0 0 0 0
321308241 0.721958 0.708567 0.042786 -0.004053 0 0 0 0
324182374 0.737913 0.68633 0.043217 -0.004889 0 0 0 0
327056507 0.751295 0.662438 0.043593 -0.005632 0 0 0 0
329930640 0.764306 0.635218 0.044034 -0.006601 0 0 0 0
332804773 0.77912 0.611883 0.044713 -0.007487 0 0 0 0
335678906 0.80338 0.592936 0.045251 -0.00835 0 0 0 0
338553039 0.823611 0.575799 0.045598 -0.009201 0 0 0 0
341427172 0.842378 0.5556 0.046594 -0.010212 0 0 0 0
344301305 0.861431 0.533562 0.047129 -0.011594 0 0 0 0
347175438 0.872235 0.509639 0.047732 -0.012998 0 0 0 0
350049571 0.885026 0.487053 0.048072 -0.014002 0 0 0 0
352923704 0.894935 0.462099 0.048857 -0.015309 0 0 0 0
355797837 0.901811 0.433831 0.048324 -0.01584 0 0 0 0
358671970 0.90664 0.403248 0.04854 -0.017492 0 0 0 0
361546103 0.913383 0.373196 0.048939 -0.018583 0 0 0 0
364420236 0.931175 0.34962 0.049408 -0.019842 0 0 0 0
367294369 0.948688 0.32441 0.049812 -0.021112 0 0 0 0
370168502 0.960445 0.298138 0.050337 -0.022524 0 0 0 0
373042635 0.971934 0.271701 0.050264 -0.023634 0 0 0 0
375916768 0.979275 0.244174 0.050442 -0.025081 0 0 0 0
378790901 0.984488 0.216798 0.050754 -0.026655 0 0 0 0
381665034 0.986804 0.18786 0.050459 -0.02791 0 0 0 0
384539167 0.986266 0.157627 0.050392 -0.02926 0 0 0 0
387413300 0.98412 0.127219 0.050363 -0.030618 0 0 0 0
390287433 0.980001 0.099095 0.049985 -0.031726 0 0 0 0
393161566 0.990807 0.069836 0.049897 -0.033512 0 0 0 0
396035699 0.999599 0.038602 0.050231 -0.034893 0 0 0 0
398909832 1.004373 0.011604 0.049938 -0.036571 0 0 0 0
401783965 0.972992 -0.071723 0.049826 -0.038211 0 0 0 0
404658098 1.00858 -0.045425 0.049624 -0.039605 0 0 0 0
407532231 1.003882 -0.075723 0.049302 -0.041008 0 0 0 0
410406364 1.000479 -0.104245 0.048567 -0.042252 0 0 0 0
413280497 0.992449 -0.130411 0.04819 -0.043605 0 0 0 0
416154630 0.980925 -0.158769 0.042309 -0.047401 0 0 0 0
419028763 0.970228 -0.193062 0.04671 -0.046573 0 0 0 0
421902896 0.968899 -0.218283 0.046695 -0.04845 0 0 0 0
424777029 0.97069 -0.24988 0.046206 -0.049979 0 0 0 0
427651162 0.963569 -0.279219 0.04545 -0.051324 0 0 0 0
430525295 0.957144 -0.310857 0.044869 -0.053082 0 0 0 0
433399428 0.951886 -0.339099 0.044539 -0.054915 0 0 0 0
436273561 0.939019 -0.364771 0.043463 -0.056335 0 0 0 0
439147694 0.925221 -0.390405 0.042608 -0.057266 0 0 0 0
442021827 0.908107 -0.417373 0.041839 -0.058899 0 0 0 0
444895960 0.889921 -0.440613 0.04067 -0.059765 0 0 0 0
447770093 0.867911 -0.467199 0.04115 -0.060102 0 0 0 0
450644226 0.860439 -0.496803 0.040142 -0.061544 0 0 0 0
453518359 0.851499 -0.524719 0.039406 -0.063559 0 0 0 0
456392492 0.840972 -0.551808 0.038778 -0.064628 0 0 0 0
459266625 0.823651 -0.578552 0.037556 -0.066464 0 0 0 0
462140758 0.807965 -0.602809 0.036102 -0.067344 0 0 0 0
465014891 0.787616 -0.627405 0.035041 -0.068757 0 0 0 0
467889024 0.769396 -0.647321 0.033824 -0.069917 0 0 0 0
470763157 0.744591 -0.667895 0.030143 -0.07202 0 0 0 0
473637290 0.720133 -0.684712 0.030838 -0.071863 0 0 0 0
476511423 0.692878 -0.699498 0.029436 -0.072681 0 0 0 0
479385556 0.677892 -0.723991 0.028154 -0.074202 0 0 0 0
482259689 0.65907 -0.751842 0.026601 -0.075533 0 0 0 0
485133822 0.638382 -0.774096 0.025193 -0.076735 0 0 0 0
488007955 0.618569 -0.795259 0.023938 -0.077971 0 0 0 0
490882088 0.598473 -0.815742 0.022103 -0.078756 0 0 0 0
493756221 0.575103 -0.830408 0.020697 -0.079935 0 0 0 0
496630354 0.552224 -0.843657 0.019332 -0.080723 0 0 0 0
499504487 0.521814 -0.854281 0.017578 -0.081175 0 0 0 0
502378620 0.493283 -0.86614 0.015781 -0.081939 0 0 0 0
505252753 0.464905 -0.869653 0.014226 -0.082294 0 0 0 0
508126886 0.442402 -0.888164 0.012859 -0.083071 0 0 0 0
511001019 0.417847 -0.908263 0.010881 -0.08394 0 0 0 0
513875152 0.395232 -0.925936 0.009355 -0.085032 0 0 0 0
516749285 0.370057 -0.940679 0.007274 -0.085309 0 0 0 0
519623418 0.345421 -0.952162 0.005958 -0.086045 0 0 0 0
522497551 0.318866 -0.961706 0.004518 -0.086877 0 0 0 0
525371684 0.290583 -0.969335 0.002586 -0.086915 0 0 0 0
528245817 0.263002 -0.971591 0.001331 -0.087387 0 0 0 0
531119950 0.235156 -0.97355 -0.000121 -0.087338 0 0 0 0
533994083 0.2034 -0.972692 -0.002118 -0.087569 0 0 0 0
536868216 0.176484 -0.979824 -0.004012 -0.087459 0 0 0 0
539742349 0.149044 -0.991084 -0.005707 -0.088184 0 0 0 0
542616482 0.122509 -0.999516 -0.006918 -0.089105 0 0 0 0
545490615 0.09573 -1.004272 -0.009053 -0.089191 0 0 0 0
548364748 0.071485 -1.007793 -0.010378 -0.089163 0 0 0 0
551238881 0.044762 -1.008832 -0.012054 -0.089548 0 0 0 0
554113014 0.014338 -1.007355 -0.013952 -0.089761 0 0 0 0
556987147 -0.011879 -1.000382 -0.015215 -0.089218 0 0 0 0
559861280 -0.038316 -0.99234 -0.016946 -0.088811 0 0 0 0
562735413 -0.061266 -0.980116 -0.01821 -0.088884 0 0 0 0
565609546 -0.094965 -0.97929 -0.020286 -0.088668 0 0 0 0
568483679 -0.122663 -0.983782 -0.021946 -0.089272 0 0 0 0
571357812 -0.149732 -0.987779 -0.023315 -0.089704 0 0 0 0
574231945 -0.177391 -0.989696 -0.024544 -0.089851 0 0 0 0
577106078 -0.203172 -0.989479 -0.026323 -0.089786 0 0 0 0
579980211 -0.229351 -0.981283 -0.027811 -0.089697 0 0 0 0
582854344 -0.250918 -0.977249 -0.028994 -0.089796 0 0 0 0
585728477 -0.274906 -0.963722 -0.030145 -0.089276 0 0 0 0
588602610 -0.297492 -0.954157 -0.031799 -0.089191 0 0 0 0
591476743 -0.320886 -0.937828 -0.033016 -0.08939 0 0 0 0
594350876 -0.345415 -0.9298 -0.0351 -0.089608 0 0 0 0
597225009 -0.374629 -0.928377 -0.039111 -0.08906 0 0 0 0
600099142 -0.400324 -0.923146 -0.040632 -0.088639 0 0 0 0
602973275 -0.422208 -0.916732 -0.042192 -0.088874 0 0 0 0
605847408 -0.44912 -0.908014 -0.044139 -0.089202 0 0 0 0
608721541 -0.467387 -0.899458 -0.045323 -0.089334 0 0 0 0
611595674 -0.487866 -0.885055 -0.046794 -0.089573 0 0 0 0
614469807 -0.509075 -0.872287 -0.046684 -0.090377 0 0 0 0
617343940 -0.527849 -0.852254 -0.048221 -0.089741 0 0 0 0
620218073 -0.541215 -0.833305 -0.049448 -0.089737 0 0 0 0
623092206 -0.561305 -0.820129 -0.05154 -0.089567 0 0 0 0
625966339 -0.588354 -0.808393 -0.053295 -0.090085 0 0 0 0
628840472 -0.600304 -0.811816 -0.054057 -0.09164 0 0 0 0
631714605 -0.634233 -0.788652 -0.057317 -0.091039 0 0 0 0
634588738 -0.648 -0.776477 -0.058778 -0.090928 0 0 0 0
637462871 -0.67197 -0.760629 -0.060881 -0.09143 0 0 0 0
640337004 -0.674171 -0.75729 -0.061395 -0.092748 0 0 0 0
643211137 -0.700061 -0.724382 -0.064776 -0.091104 0 0 0 0
646085270 -0.722387 -0.690005 -0.068209 -0.09003 0 0 0 0
648959403 -0.726013 -0.682309 -0.068664 -0.090874 0 0 0 0
651833536 -0.726882 -0.677436 -0.068987 -0.092156 0 0 0 0
654707669 -0.757841 -0.650425 -0.072664 -0.091211 0 0 0 0
657581802 -0.787748 -0.61958 -0.077298 -0.089771 0 0 0 0
660455935 -0.795687 -0.621509 -0.078109 -0.091318 0 0 0 0
663330068 -0.803535 -0.620989 -0.07928 -0.092879 0 0 0 0
666204201 -0.815458 -0.602041 -0.081727 -0.092342 0 0 0 0
669078334 -0.835108 -0.565935 -0.0856 -0.090618 0 0 0 0
671952467 -0.844969 -0.543521 -0.088012 -0.089899 0 0 0 0
674826600 -0.850018 -0.524186 -0.0904 -0.089633 0 0 0 0
677700733 -0.856139 -0.500378 -0.092996 -0.08903 0 0 0 0
680574866 -0.86209 -0.480345 -0.095913 -0.087531 0 0 0 0
683448999 -0.879678 -0.463085 -0.098829 -0.087466 0 0 0 0
686323132 -0.897328 -0.446187 -0.09715 -0.095864 0 0 0 0
689197265 -0.909095 -0.427408 -0.105085 -0.086476 0 0 0 0
692071398 -0.924147 -0.406721 -0.108163 -0.08618 0 0 0 0
694945531 -0.935725 -0.390917 -0.111524 -0.085264 0 0 0 0
697819664 -0.93517 -0.368504 -0.114249 -0.084215 0 0 0 0
700693797 -0.941421 -0.345979 -0.117074 -0.083279 0 0 0 0
703567930 -0.936249 -0.344545 -0.119397 -0.081666 0 0 0 0
706442063 -0.945983 -0.306364 -0.122485 -0.080278 0 0 0 0
709316196 -0.944235 -0.278125 -0.124825 -0.078313 0 0 0 0
712190329 -0.958545 -0.25859 -0.128692 -0.07617 0 0 0 0
715064462 -0.968763 -0.234772 -0.132328 -0.074669 0 0 0 0
717938595 -0.976344 -0.214161 -0.135945 -0.072974 0 0 0 0
720812728 -0.98305 -0.200496 -0.139577 -0.070699 0 0 0 0
723686861 -0.990377 -0.177531 -0.1424 -0.069048 0 0 0 0
726560994 -0.990407 -0.154159 -0.145711 -0.065603 0 0 0 0
729435127 -0.991323 -0.135456 -0.148355 -0.063663 0 0 0 0
732309260 -0.988173 -0.115672 -0.15125 -0.061147 0 0 0 0
735183393 -0.978598 -0.094054 -0.153653 -0.057585 0 0 0 0
738057526 -0.970432 -0.068024 -0.155809 -0.054338 0 0 0 0
740931659 -0.982905 -0.046398 -0.159654 -0.051405 0 0 0 0
743805792 -0.987312 -0.027477 -0.162285 -0.048453 0 0 0 0
746679925 -0.997535 -0.042835 -0.165436 -0.045317 0 0 0 0
749554058 -0.997348 0.014702 -0.16793 -0.042277 0 0 0 0
752428191 -0.995834 0.031352 -0.170595 -0.039687 0 0 0 0
755302324 -0.997095 0.053424 -0.172868 -0.035844 0 0 0 0
758176457 -0.992779 0.076207 -0.175136 -0.032772 0 0 0 0
761050590 -0.9869 0.090807 -0.176698 -0.029101 0 0 0 0
763924723 -0.974543 0.106687 -0.177881 -0.025762 0 0 0 0
766798856 -0.963319 0.130457 -0.179044 -0.021833 0 0 0 0
769672989 -0.965771 0.153082 -0.181911 -0.018029 0 0 0 0
772547122 -0.969271 0.172565 -0.184318 -0.014977 0 0 0 0
775421255 -0.967424 0.194284 -0.18663 -0.010989 0 0 0 0
778295388 -0.968173 0.210373 -0.188868 -0.007083 0 0 0 0
781169521 -0.966015 0.231726 -0.190096 -0.003281 0 0 0 0
784043654 -0.959304 0.252409 -0.19155 -0.000511 0 0 0 0
786917787 -0.950078 0.269804 -0.19314 0.003312 0 0 0 0
789791920 -0.938171 0.28604 -0.193776 0.006983 0 0 0 0
792666053 -0.927755 0.302369 -0.194466 0.010825 0 0 0 0
795540186 -0.91228 0.317251 -0.195362 0.014289 0 0 0 0
798414319 -0.911125 0.340658 -0.197473 0.0183 0 0 0 0
801288452 -0.907638 0.358687 -0.198846 0.022042 0 0 0 0
804162585 -0.905395 0.379465 -0.200813 0.025999 0 0 0 0
807036718 -0.896503 0.40011 -0.201997 0.029136 0 0 0 0
809910851 -0.88942 0.419249 -0.203255 0.033417 0 0 0 0
812784984 -0.880885 0.436167 -0.205081 0.037681 0 0 0 0
815659117 -0.867789 0.449941 -0.206246 0.040608 0 0 0 0
818533250 -0.856409 0.465665 -0.206567 0.044709 0 0 0 0
821407383 -0.840033 0.477821 -0.207167 0.048268 0 0 0 0
824281516 -0.825737 0.489311 -0.208164 0.05157 0 0 0 0
827155649 -0.81558 0.510771 -0.209807 0.055877 0 0 0 0
830029782 -0.810683 0.528224 -0.21164 0.059495 0 0 0 0
832903915 -0.801107 0.552431 -0.214144 0.063693 0 0 0 0
835778048 -0.793434 0.567926 -0.214962 0.068716 0 0 0 0
838652181 -0.778305 0.581965 -0.217583 0.072415 0 0 0 0
841526314 -0.765702 0.596549 -0.21874 0.076967 0 0 0 0
844400447 -0.752461 0.607356 -0.220228 0.081993 0 0 0 0
847274580 -0.735089 0.62387 -0.2212 0.086611 0 0 0 0
850148713 -0.71712 0.630585 -0.222707 0.090741 0 0 0 0
853022846 -0.698174 0.640155 -0.223753 0.095021 0 0 0 0
855896979 -0.6859 0.656214 -0.225785 0.100144 0 0 0 0
858771112 -0.673859 0.674437 -0.228133 0.105946 0 0 0 0
861645245 -0.664134 0.692101 -0.231054 0.111034 0 0 0 0
864519378 -0.651186 0.70579 -0.23261 0.117582 0 0 0 0
867393511 -0.636592 0.720117 -0.235158 0.123254 0 0 0 0
870267644 -0.619649 0.731274 -0.237149 0.12988 0 0 0 0
873141777 -0.602816 0.740894 -0.239197 0.13537 0 0 0 0
876015910 -0.584009 0.749455 -0.240529 0.141119 0 0 0 0
878890043 -0.564175 0.75643 -0.241336 0.148454 0 0 0 0
881764176 -0.542923 0.760875 -0.242935 0.155343 0 0 0 0
884638309 -0.522628 0.774012 -0.245465 0.162685 0 0 0 0
887512442 -0.509044 0.789612 -0.24816 0.170857 0 0 0 0
890386575 -0.490208 0.803486 -0.249803 0.179995 0 0 0 0
893260708 -0.470595 0.817633 -0.252044 0.188383 0 0 0 0
896134841 -0.453828 0.825839 -0.254104 0.199288 0 0 0 0
899008974 -0.435174 0.834216 -0.255786 0.207711 0 0 0 0
901883107 -0.410363 0.838897 -0.256308 0.21718 0 0 0 0
904757240 -0.389364 0.844532 -0.256735 0.22862 0 0 0 0
907631373 -0.363521 0.84858 -0.257506 0.237746 0 0 0 0
910505506 -0.341604 0.847865 -0.25638 0.248686 0 0 0 0
913379639 -0.320943 0.85096 -0.2578 0.259829 0 0 0 0
916253772 -0.301947 0.86399 -0.25651 0.272934 0 0 0 0
919127905 -0.282426 0.873511 -0.257697 0.285909 0 0 0 0
922002038 -0.260335 0.877923 -0.256969 0.300144 0 0 0 0
924876171 -0.237381 0.884336 -0.25403 0.315837 0 0 0 0
927750304 -0.215654 0.886222 -0.25333 0.328814 0 0 0 0
930624437 -0.191528 0.882854 -0.246899 0.344561 0 0 0 0
933498570 -0.168283 0.880074 -0.24385 0.358568 0 0 0 0
936372703 -0.147095 0.874271 -0.238299 0.37423 0 0 0 0
939246836 -0.122442 0.864446 -0.233658 0.38786 0 0 0 0
942120969 -0.097998 0.861137 -0.226662 0.403628 0 0 0 0
944995102 -0.072125 0.865151 -0.219203 0.422006 0 0 0 0
947869235 -0.044972 0.864627 -0.213419 0.439456 0 0 0 0
950743368 -0.023224 0.861273 -0.202874 0.460067 0 0 0 0
953617501 0.003908 0.857742 -0.190769 0.475977 0 0 0 0
956491634 0.024713 0.850469 -0.181074 0.494254 0 0 0 0
959365767 0.048828 0.840398 -0.168731 0.51192 0 0 0 0
962239900 0.075044 0.823932 -0.156146 0.528333 0 0 0 0
965114033 0.093865 0.811852 -0.138341 0.544902 0 0 0 0
967988166 0.11739 0.792438 -0.123012 0.558077 0 0 0 0
970862299 0.143944 0.777137 -0.104867 0.574424 0 0 0 0
973736432 0.169881 0.76835 -0.085053 0.5936 0 0 0 0
976610565 0.191396 0.757639 -0.064967 0.608872 0 0 0 0
979484698 0.210161 0.743403 -0.040981 0.625257 0 0 0 0
982358831 0.233007 0.728178 -0.02009 0.639948 0 0 0 0
985232964 0.252075 0.710229 0.007039 0.653297 0 0 0 0
988107097 0.268852 0.689661 0.030049 0.663921 0 0 0 0
990981230 0.284151 0.664518 0.057046 0.673267 0 0 0 0
993855363 0.299232 0.641904 0.085804 0.681908 0 0 0 0
996729496 0.310579 0.612488 0.115443 0.685658 0 0 0 0
999603629 0.320013 0.586596 0.141877 0.692876 0 0 0 0
1002477762 0.337203 0.567553 0.175438 0.699066 0 0 0 0
1005351895 0.348869 0.545358 0.210576 0.704272 0 0 0 0
1008226028 0.357235 0.524616 0.241541 0.708207 0 0 0 0
1011100161 0.36532 0.498573 0.276424 0.708083 0 0 0 0
1013974294 0.366979 0.473147 0.310145 0.705837 0 0 0 0
1016848427 0.37145 0.447932 0.344667 0.700962 0 0 0 0
1019722560 0.370869 0.42177 0.378391 0.695182 0 0 0 0
1022596693 0.366297 0.395351 0.410033 0.685163 0 0 0 0
1025470826 0.363897 0.365198 0.446491 0.669388 0 0 0 0
1028344959 0.35682 0.343109 0.476348 0.658333 0 0 0 0
1031219092 0.353181 0.323097 0.511384 0.645214 0 0 0 0
1034093225 0.347162 0.300217 0.54576 0.632748 0 0 0 0
1036967358 0.339863 0.277837 0.577489 0.617104 0 0 0 0
1039841491 0.331387 0.261107 0.608109 0.598315 0 0 0 0
1042715624 0.32023 0.240962 0.640984 0.574319 0 0 0 0
1045589757 0.307823 0.225197 0.670506 0.551917 0 0 0 0
1048463890 0.294554 0.207536 0.69666 0.526591 0 0 0 0
1051338023 0.278399 0.194562 0.721406 0.502874 0 0 0 0
1054212156 0.262715 0.178011 0.745149 0.468893 0 0 0 0
1057086289 0.247011 0.167437 0.766907 0.435704 0 0 0 0
1059960422 0.23564 0.159841 0.795067 0.410191 0 0 0 0
1062834555 0.220043 0.152979 0.815952 0.381641 0 0 0 0
1065708688 0.207765 0.147518 0.836548 0.350979 0 0 0 0
1068582821 0.195313 0.144154 0.857098 0.314831 0 0 0 0
1071456954 0.182017 0.141065 0.870673 0.279982 0 0 0 0
1074331087 0.168079 0.136513 0.886032 0.247279 0 0 0 0
1077205220 0.156115 0.135915 0.899651 0.207992 0 0 0 0
1080079353 0.145107 0.134595 0.907105 0.171074 0 0 0 0
1082953486 0.130775 0.132748 0.913559 0.135828 0 0 0 0
1085827619 0.121825 0.132245 0.920549 0.09017 0 0 0 0
1088701752 0.112379 0.135109 0.928425 0.060333 0 0 0 0
1091575885 0.104376 0.137563 0.938012 0.025701 0 0 0 0
1094450018 0.097244 0.141218 0.939662 -0.013444 0 0 0 0
1097324151 0.089903 0.146001 0.943609 -0.049334 0 0 0 0
1100198284 0.083025 0.149934 0.938466 -0.089271 0 0 0 0
1103072417 0.078213 0.152064 0.938538 -0.122258 0 0 0 0
1105946550 0.071147 0.154626 0.930886 -0.160571 0 0 0 0
1108820683 0.065044 0.161082 0.926788 -0.190851 0 0 0 0
1111694816 0.061618 0.161898 0.916177 -0.229234 0 0 0 0
1114568949 0.056988 0.165324 0.90061 -0.262254 0 0 0 0
1117443082 0.05575 0.168235 0.892136 -0.295794 0 0 0 0
1120317215 0.052983 0.17327 0.88472 -0.335295 0 0 0 0
1123191348 0.05029 0.177739 0.868576 -0.360351 0 0 0 0
1126065481 0.049153 0.18278 0.860442 -0.393421 0 0 0 0
1128939614 0.047714 0.186938 0.843753 -0.430404 0 0 0 0
1131813747 0.044513 0.189047 0.828851 -0.455861 0 0 0 0
