# HZ S RI R 50
100000000 -0.774076 0.630181 0.004821 0.009843 0 0 0 0
102874133 -0.767399 0.654408 0.005254 0.010133 0 0 0 0
105748266 -0.758519 0.675538 0.005642 0.01029 0 0 0 0
108622399 -0.750027 0.695163 0.006028 0.010573 0 0 0 0
111496532 -0.733778 0.715578 0.006499 0.010787 0 0 0 0
114370665 -0.721323 0.731797 0.006597 0.011299 0 0 0 0
117244798 -0.708623 0.747115 0.007443 0.011191 0 0 0 0
120118931 -0.691594 0.762196 0.007813 0.011262 0 0 0 0
122993064 -0.671192 0.771836 0.008304 0.011357 0 0 0 0
125867197 -0.651498 0.781707 0.008717 0.011472 0 0 0 0
128741330 -0.62791 0.789352 0.008677 0.012115 0 0 0 0
131615463 -0.619079 0.809986 0.00971 0.011653 0 0 0 0
134489596 -0.602884 0.824733 0.010363 0.011762 0 0 0 0
137363729 -0.589578 0.843567 0.010904 0.01193 0 0 0 0
140237862 -0.574446 0.858885 0.01141 0.011982 0 0 0 0
143111995 -0.557177 0.869841 0.012013 0.011971 0 0 0 0
145986128 -0.538684 0.878632 0.01253 0.011959 0 0 0 0
148860261 -0.518337 0.884912 0.013095 0.011877 0 0 0 0
151734394 -0.483724 0.897682 0.013624 0.011845 0 0 0 0
154608527 -0.47576 0.890822 0.014082 0.011808 0 0 0 0
157482660 -0.451617 0.889817 0.01445 0.01134 0 0 0 0
160356793 -0.432487 0.904193 0.015036 0.011501 0 0 0 0
163230926 -0.415217 0.921774 0.01558 0.011522 0 0 0 0
166105059 -0.394856 0.932965 0.016116 0.011401 0 0 0 0
168979192 -0.376555 0.945023 0.016667 0.011176 0 0 0 0
171853325 -0.356383 0.954653 0.017009 0.01094 0 0 0 0
174727458 -0.334503 0.96159 0.017558 0.010831 0 0 0 0
177601591 -0.31563 0.965059 0.017991 0.010757 0 0 0 0
180475724 -0.291527 0.965724 0.018442 0.010521 0 0 0 0
183349857 -0.26894 0.96416 0.018744 0.010278 0 0 0 0
186223990 -0.245729 0.963421 0.019237 0.009965 0 0 0 0
189098123 -0.222544 0.971642 0.019695 0.009714 0 0 0 0
191972256 -0.20021 0.984137 0.020159 0.009434 0 0 0 0
194846389 -0.17672 0.993035 0.020629 0.009283 0 0 0 0
197720522 -0.155924 1.000132 0.020999 0.009096 0 0 0 0
200594655 -0.13481 1.004752 0.021436 0.008781 0 0 0 0
203468788 -0.111052 1.006766 0.021852 0.008494 0 0 0 0
206342921 -0.08872 1.006289 0.022184 0.00842 0 0 0 0
209217054 -0.06608 1.003916 0.022512 0.008052 0 0 0 0
212091187 -0.043991 1.002168 0.022764 0.007773 0 0 0 0
214965320 -0.019367 0.993137 0.02319 0.007624 0 0 0 0
217839453 0.003207 0.995772 0.023575 0.007276 0 0 0 0
220713586 0.028703 1.001129 0.02393 0.006992 0 0 0 0
223587719 0.053235 1.005265 0.024584 0.006948 0 0 0 0
226461852 0.078119 1.00611 0.025042 0.006598 0 0 0 0
229335985 0.100826 1.005941 0.025357 0.00639 0 0 0 0
232210118 0.124373 1.003424 0.025848 0.005961 0 0 0 0
235084251 0.147435 0.998168 0.026245 0.005726 0 0 0 0
237958384 0.169377 0.990166 0.026641 0.005515 0 0 0 0
240832517 0.193564 0.979559 0.027004 0.00511 0 0 0 0
243706650 0.216546 0.968488 0.027266 0.004768 0 0 0 0
246580783 0.24052 0.963362 0.027795 0.004504 0 0 0 0
249454916 0.266437 0.965035 0.028183 0.00426 0 0 0 0
252329049 0.29142 0.963606 0.028825 0.004419 0 0 0 0
255203182 0.315515 0.958455 0.029406 0.003673 0 0 0 0
258077315 0.33874 0.951851 0.029863 0.003202 0 0 0 0
260951448 0.362344 0.943045 0.030355 0.002931 0 0 0 0
263825581 0.384341 0.932344 0.030673 0.002522 0 0 0 0
266699714 0.407655 0.918837 0.031213 0.002169 0 0 0 0
269573847 0.430231 0.903635 0.031636 0.001779 0 0 0 0
272447980 0.450873 0.88405 0.032025 0.001292 0 0 0 0
275322113 0.47254 0.869951 0.032508 0.001007 0 0 0 0
278196246 0.499862 0.864635 0.033207 0.000383 0 0 0 0
281070379 0.52278 0.859061 0.033814 -8.4e-05 0 0 0 0
283944512 0.546694 0.846184 0.034352 -0.000522 0 0 0 0
286818645 0.570801 0.83504 0.035039 -0.000983 0 0 0 0
289692778 0.63499 0.78243 0.035541 -0.001555 0 0 0 0
292566911 0.611763 0.802423 0.036248 -0.002158 0 0 0 0
295441044 0.631266 0.783521 0.036542 -0.002735 0 0 0 0
298315177 0.645338 0.760431 0.037134 -0.00318 0 0 0 0
301189310 0.665759 0.735789 0.037366 -0.003952 0 0 0 0
304063443 0.685115 0.713573 0.038291 -0.004748 0 0 0 0
306937576 0.708274 0.701518 0.038741 -0.005445 0 0 0 0
309811709 0.733539 0.686613 0.039425 -0.006033 0 0 0 0
312685842 0.755799 0.670844 0.040142 -0.007075 0 0 0 0
315559975 0.774967 0.65194 0.040811 -0.007837 0 0 0 0
318434108 0.793024 0.63286 0.041342 -0.00854 0 0 0 0
321308241 0.8084 0.607387 0.04191 -0.009508 0 0 0 0
324182374 0.821265 0.58381 0.042151 -0.010365 0 0 0 0
327056507 0.833862 0.559046 0.04231 -0.011212 0 0 0 0
329930640 0.842548 0.527454 0.042916 -0.012421 0 0 0 0
332804773 0.855464 0.504519 0.043347 -0.013429 0 0 0 0
335678906 0.875514 0.481349 0.043798 -0.01455 0 0 0 0
338553039 0.894108 0.45578 0.04454 -0.015734 0 0 0 0
341427172 0.911878 0.434271 0.044133 -0.016667 0 0 0 0
344301305 0.925156 0.410393 0.045328 -0.018234 0 0 0 0
347175438 0.93851 0.385109 0.045453 -0.019589 0 0 0 0
350049571 0.943234 0.353691 0.045377 -0.020335 0 0 0 0
352923704 0.951298 0.326979 0.045994 -0.021907 0 0 0 0
355797837 0.95287 0.29849 0.045854 -0.023171 0 0 0 0
358671970 0.956223 0.26841 0.045725 -0.024609 0 0 0 0
361546103 0.956996 0.23763 0.045759 -0.02572 0 0 0 0
364420236 0.972241 0.209661 0.045874 -0.026909 0 0 0 0
367294369 0.985623 0.180146 0.046276 -0.028212 0 0 0 0
370168502 0.994549 0.153641 0.046373 -0.029809 0 0 0 0
373042635 1.002645 0.123858 0.046328 -0.031027 0 0 0 0
375916768 1.005637 0.093802 0.045977 -0.032892 0 0 0 0
378790901 1.005457 0.06293 0.045839 -0.03375 0 0 0 0
381665034 1.00408 0.03504 0.045541 -0.035297 0 0 0 0
384539167 0.998632 0.001908 0.045391 -0.036595 0 0 0 0
387413300 0.990343 -0.027621 0.044814 -0.038033 0 0 0 0
390287433 0.978748 -0.070805 0.044554 -0.039494 0 0 0 0
393161566 0.987982 -0.091062 0.044293 -0.041051 0 0 0 0
396035699 0.993103 -0.138376 0.043899 -0.042671 0 0 0 0
398909832 0.993733 -0.152485 0.043542 -0.04426 0 0 0 0
401783965 0.991024 -0.180026 0.041081 -0.046912 0 0 0 0
404658098 0.986779 -0.210548 0.04246 -0.047226 0 0 0 0
407532231 0.980987 -0.223547 0.041978 -0.048818 0 0 0 0
410406364 0.968769 -0.269516 0.041182 -0.050261 0 0 0 0
413280497 0.955648 -0.297508 0.03985 -0.05172 0 0 0 0
416154630 0.939099 -0.322669 0.039555 -0.052829 0 0 0 0
419028763 0.922595 -0.349034 0.038115 -0.053973 0 0 0 0
421902896 0.917847 -0.381102 0.037666 -0.055948 0 0 0 0
424777029 0.910484 -0.412969 0.03662 -0.057293 0 0 0 0
427651162 0.901085 -0.441892 0.035993 -0.058726 0 0 0 0
430525295 0.889416 -0.469407 0.034836 -0.060553 0 0 0 0
433399428 0.87385 -0.497502 0.033995 -0.061994 0 0 0 0
436273561 0.86063 -0.523991 0.032821 -0.063178 0 0 0 0
439147694 0.83935 -0.550121 0.031983 -0.064324 0 0 0 0
442021827 0.81739 -0.573148 0.030483 -0.06558 0 0 0 0
444895960 0.79596 -0.594902 0.02929 -0.06613 0 0 0 0
447770093 0.769402 -0.61508 0.029694 -0.066418 0 0 0 0
450644226 0.752891 -0.642996 0.028558 -0.067851 0 0 0 0
453518359 0.73796 -0.670242 0.027506 -0.069732 0 0 0 0
456392492 0.723002 -0.698825 0.025723 -0.070641 0 0 0 0
459266625 0.701388 -0.723293 0.024307 -0.072199 0 0 0 0
462140758 0.680765 -0.743083 0.020773 -0.073884 0 0 0 0
465014891 0.656564 -0.763409 0.021614 -0.074337 0 0 0 0
467889024 0.628379 -0.782419 0.020005 -0.075373 0 0 0 0
470763157 0.606201 -0.795525 0.015903 -0.076526 0 0 0 0
473637290 0.575766 -0.810538 0.016631 -0.076702 0 0 0 0
476511423 0.544005 -0.823877 0.014824 -0.077241 0 0 0 0
479385556 0.535372 -0.83629 0.013215 -0.078399 0 0 0 0
482259689 0.498338 -0.864404 0.011221 -0.079474 0 0 0 0
485133822 0.4758 -0.884472 0.009929 -0.080318 0 0 0 0
488007955 0.450168 -0.903032 0.007784 -0.081288 0 0 0 0
490882088 0.426154 -0.913943 0.006129 -0.081906 0 0 0 0
493756221 0.396535 -0.92739 0.004292 -0.082562 0 0 0 0
496630354 0.385108 -0.925372 0.002879 -0.083095 0 0 0 0
499504487 0.338095 -0.941777 0.000489 -0.083051 0 0 0 0
502378620 0.308761 -0.944941 -0.001115 -0.083372 0 0 0 0
505252753 0.27771 -0.946263 -0.002777 -0.083764 0 0 0 0
508126886 0.245989 -0.962544 -0.004842 -0.083812 0 0 0 0
511001019 0.219516 -0.974947 -0.006369 -0.08468 0 0 0 0
513875152 0.190988 -0.988731 -0.008378 -0.085154 0 0 0 0
516749285 0.163464 -0.999253 -0.010507 -0.085501 0 0 0 0
519623418 0.135879 -1.004043 -0.012355 -0.085689 0 0 0 0
522497551 0.103841 -1.008359 -0.014073 -0.085997 0 0 0 0
525371684 0.076554 -1.008878 -0.016026 -0.085778 0 0 0 0
528245817 0.044642 -1.0067 -0.017657 -0.085667 0 0 0 0
531119950 0.016439 -0.999526 -0.019448 -0.085263 0 0 0 0
533994083 -0.009413 -0.992831 -0.021345 -0.085177 0 0 0 0
536868216 -0.041826 -0.994722 -0.022641 -0.08513 0 0 0 0
539742349 -0.072638 -1.000366 -0.024791 -0.085016 0 0 0 0
542616482 -0.099719 -1.002505 -0.027098 -0.084874 0 0 0 0
545490615 -0.13111 -1.001283 -0.028721 -0.085103 0 0 0 0
548364748 -0.157233 -0.998649 -0.030422 -0.084804 0 0 0 0
551238881 -0.181761 -0.993598 -0.032226 -0.084118 0 0 0 0
554113014 -0.141403 -0.99853 -0.033396 -0.08405 0 0 0 0
556987147 -0.236195 -0.970296 -0.03509 -0.08355 0 0 0 0
559861280 -0.263918 -0.95552 -0.036718 -0.082933 0 0 0 0
562735413 -0.287127 -0.938954 -0.038098 -0.082226 0 0 0 0
565609546 -0.31701 -0.931319 -0.039713 -0.081823 0 0 0 0
568483679 -0.347749 -0.929002 -0.041878 -0.081941 0 0 0 0
571357812 -0.377448 -0.924178 -0.043804 -0.081708 0 0 0 0
574231945 -0.402283 -0.92213 -0.045184 -0.081516 0 0 0 0
577106078 -0.441603 -0.905636 -0.046647 -0.080756 0 0 0 0
579980211 -0.453205 -0.90072 -0.047985 -0.080821 0 0 0 0
582854344 -0.47634 -0.888367 -0.050399 -0.080526 0 0 0 0
585728477 -0.511788 -0.86193 -0.050988 -0.07941 0 0 0 0
588602610 -0.533281 -0.844061 -0.053118 -0.079354 0 0 0 0
591476743 -0.550005 -0.819 -0.054021 -0.078993 0 0 0 0
594350876 -0.57208 -0.80748 -0.055651 -0.078101 0 0 0 0
597225009 -0.601434 -0.799745 -0.0596 -0.076239 0 0 0 0
600099142 -0.62924 -0.782505 -0.060988 -0.076271 0 0 0 0
602973275 -0.636553 -0.78492 -0.063062 -0.075984 0 0 0 0
605847408 -0.672321 -0.758699 -0.064401 -0.075671 0 0 0 0
608721541 -0.676282 -0.753886 -0.065953 -0.075471 0 0 0 0
611595674 -0.696267 -0.736597 -0.067766 -0.075122 0 0 0 0
614469807 -0.7104 -0.712408 -0.067756 -0.075355 0 0 0 0
617343940 -0.725168 -0.693811 -0.068914 -0.074837 0 0 0 0
620218073 -0.735332 -0.670175 -0.070021 -0.074704 0 0 0 0
623092206 -0.753595 -0.648666 -0.072395 -0.073596 0 0 0 0
625966339 -0.775668 -0.635244 -0.074297 -0.073765 0 0 0 0
628840472 -0.795002 -0.615429 -0.076799 -0.073629 0 0 0 0
631714605 -0.814085 -0.601228 -0.078811 -0.0734 0 0 0 0
634588738 -0.82874 -0.580533 -0.080603 -0.072774 0 0 0 0
637462871 -0.845812 -0.562439 -0.082415 -0.07284 0 0 0 0
640337004 -0.854113 -0.539527 -0.083957 -0.071686 0 0 0 0
643211137 -0.866576 -0.513275 -0.086315 -0.071115 0 0 0 0
646085270 -0.873171 -0.490767 -0.088042 -0.07051 0 0 0 0
648959403 -0.877795 -0.468193 -0.089931 -0.069652 0 0 0 0
651833536 -0.88715 -0.445505 -0.09174 -0.068761 0 0 0 0
654707669 -0.904565 -0.424085 -0.094444 -0.068463 0 0 0 0
657581802 -0.921275 -0.404436 -0.09696 -0.067877 0 0 0 0
660455935 -0.929778 -0.384171 -0.099623 -0.066899 0 0 0 0
663330068 -0.942787 -0.362342 -0.102027 -0.06617 0 0 0 0
666204201 -0.950938 -0.341174 -0.104696 -0.064794 0 0 0 0
669078334 -0.957657 -0.318351 -0.106713 -0.063958 0 0 0 0
671952467 -0.961247 -0.29357 -0.109354 -0.062775 0 0 0 0
674826600 -0.96256 -0.272134 -0.111337 -0.061945 0 0 0 0
677700733 -0.960387 -0.249599 -0.113927 -0.059533 0 0 0 0
680574866 -0.960438 -0.202041 -0.116625 -0.056065 0 0 0 0
683448999 -0.976443 -0.200506 -0.119173 -0.057299 0 0 0 0
686323132 -0.987109 -0.172674 -0.122576 -0.055022 0 0 0 0
689197265 -0.995135 -0.155289 -0.124804 -0.054144 0 0 0 0
692071398 -1.003081 -0.130912 -0.127864 -0.052646 0 0 0 0
694945531 -1.001189 -0.112636 -0.130309 -0.05094 0 0 0 0
697819664 -1.003649 -0.084277 -0.13352 -0.048266 0 0 0 0
700693797 -0.999044 -0.067876 -0.135498 -0.046466 0 0 0 0
703567930 -0.999493 -0.042448 -0.137818 -0.043995 0 0 0 0
706442063 -0.990547 -0.020824 -0.140141 -0.041694 0 0 0 0
709316196 -0.983021 0.004963 -0.142168 -0.038665 0 0 0 0
712190329 -0.987439 0.031568 -0.144834 -0.036084 0 0 0 0
715064462 -0.994593 0.057633 -0.148131 -0.033249 0 0 0 0
717938595 -0.999416 0.073154 -0.150839 -0.030573 0 0 0 0
720812728 -0.996785 0.098063 -0.153809 -0.027377 0 0 0 0
723686861 -0.999155 0.116442 -0.156266 -0.024185 0 0 0 0
726560994 -0.992873 0.137278 -0.158585 -0.0206 0 0 0 0
729435127 -0.983605 0.161573 -0.160353 -0.017318 0 0 0 0
732309260 -0.973736 0.185964 -0.162022 -0.013018 0 0 0 0
735183393 -0.965162 0.199476 -0.163918 -0.010045 0 0 0 0
738057526 -0.94741 0.22283 -0.165099 -0.00566 0 0 0 0
740931659 -0.95051 0.249307 -0.167295 -0.001408 0 0 0 0
743805792 -0.951663 0.273909 -0.169389 0.002619 0 0 0 0
746679925 -0.951008 0.292375 -0.171365 0.006163 0 0 0 0
749554058 -0.947075 0.312103 -0.172674 0.010405 0 0 0 0
752428191 -0.944852 0.330512 -0.174692 0.013789 0 0 0 0
755302324 -0.932579 0.352313 -0.17538 0.01847 0 0 0 0
758176457 -0.921246 0.368819 -0.176193 0.022113 0 0 0 0
761050590 -0.908126 0.385714 -0.176884 0.02607 0 0 0 0
763924723 -0.894957 0.402223 -0.177558 0.029843 0 0 0 0
766798856 -0.859582 0.45185 -0.175029 0.040516 0 0 0 0
769672989 -0.871914 0.439601 -0.178405 0.03912 0 0 0 0
772547122 -0.865537 0.465777 -0.179175 0.043067 0 0 0 0
775421255 -0.86134 0.484641 -0.180429 0.047729 0 0 0 0
778295388 -0.852662 0.506968 -0.181035 0.05213 0 0 0 0
781169521 -0.844155 0.523067 -0.181306 0.055557 0 0 0 0
784043654 -0.828693 0.540893 -0.181461 0.059842 0 0 0 0
786917787 -0.813825 0.554516 -0.181291 0.064182 0 0 0 0
789791920 -0.803401 0.567049 -0.181476 0.06805 0 0 0 0
792666053 -0.783867 0.579946 -0.181262 0.071908 0 0 0 0
795540186 -0.76494 0.590862 -0.180364 0.075696 0 0 0 0
798414319 -0.750884 0.613222 -0.18079 0.07991 0 0 0 0
801288452 -0.744875 0.630176 -0.180961 0.083977 0 0 0 0
804162585 -0.734546 0.647901 -0.182389 0.088149 0 0 0 0
807036718 -0.720992 0.669797 -0.181672 0.093283 0 0 0 0
809910851 -0.711367 0.683319 -0.182058 0.097256 0 0 0 0
812784984 -0.691393 0.698507 -0.181402 0.101737 0 0 0 0
815659117 -0.623549 0.760015 -0.176196 0.111456 0 0 0 0
818533250 -0.660989 0.717541 -0.181 0.108747 0 0 0 0
821407383 -0.639913 0.728804 -0.180593 0.112948 0 0 0 0
824281516 -0.617614 0.738164 -0.179511 0.116607 0 0 0 0
827155649 -0.60188 0.750194 -0.179114 0.122029 0 0 0 0
830029782 -0.585958 0.76718 -0.179084 0.127433 0 0 0 0
832903915 -0.575399 0.783881 -0.180046 0.131758 0 0 0 0
835778048 -0.562145 0.794132 -0.180112 0.135789 0 0 0 0
838652181 -0.544277 0.806335 -0.180012 0.141078 0 0 0 0
841526314 -0.527295 0.815446 -0.180239 0.145231 0 0 0 0
844400447 -0.504452 0.823318 -0.179341 0.151222 0 0 0 0
847274580 -0.484756 0.833964 -0.178495 0.155884 0 0 0 0
850148713 -0.464169 0.839741 -0.17833 0.160811 0 0 0 0
853022846 -0.441824 0.838887 -0.178705 0.164913 0 0 0 0
855896979 -0.421021 0.848624 -0.177708 0.170321 0 0 0 0
858771112 -0.406647 0.862909 -0.178221 0.177023 0 0 0 0
861645245 -0.415222 0.857481 -0.178273 0.184042 0 0 0 0
864519378 -0.372806 0.887225 -0.178046 0.190204 0 0 0 0
867393511 -0.352808 0.893037 -0.17762 0.196989 0 0 0 0
870267644 -0.331196 0.900999 -0.177815 0.203051 0 0 0 0
873141777 -0.312177 0.905956 -0.176293 0.210303 0 0 0 0
876015910 -0.287313 0.90388 -0.176881 0.215999 0 0 0 0
878890043 -0.262427 0.904757 -0.174157 0.223331 0 0 0 0
881764176 -0.24189 0.902984 -0.172338 0.230389 0 0 0 0
884638309 -0.219028 0.90598 -0.171847 0.237976 0 0 0 0
887512442 -0.198424 0.915507 -0.170398 0.247719 0 0 0 0
890386575 -0.176451 0.924128 -0.170309 0.256359 0 0 0 0
893260708 -0.157257 0.932074 -0.169324 0.26552 0 0 0 0
896134841 -0.133398 0.934425 -0.167474 0.274823 0 0 0 0
899008974 -0.112603 0.933691 -0.165095 0.284788 0 0 0 0
901883107 -0.086638 0.932255 -0.161662 0.294654 0 0 0 0
904757240 -0.066895 0.928761 -0.158959 0.304424 0 0 0 0
907631373 -0.040341 0.924166 -0.155142 0.314 0 0 0 0
910505506 -0.016024 0.915825 -0.151444 0.324474 0 0 0 0
913379639 0.008326 0.909439 -0.145443 0.334919 0 0 0 0
916253772 0.035234 0.912538 -0.139633 0.347746 0 0 0 0
919127905 0.057297 0.91538 -0.134838 0.360806 0 0 0 0
922002038 0.078018 0.913335 -0.128508 0.373095 0 0 0 0
924876171 0.101059 0.910717 -0.122388 0.386757 0 0 0 0
927750304 0.125181 0.901242 -0.112154 0.398882 0 0 0 0
930624437 0.143473 0.893383 -0.10315 0.412472 0 0 0 0
933498570 0.166863 0.880701 -0.094036 0.424158 0 0 0 0
936372703 0.184398 0.866162 -0.081764 0.437319 0 0 0 0
939246836 0.207433 0.847712 -0.072304 0.447201 0 0 0 0
942120969 0.228871 0.833721 -0.058132 0.45934 0 0 0 0
944995102 0.253072 0.828537 -0.047153 0.473327 0 0 0 0
947869235 0.282908 0.817264 -0.03001 0.488286 0 0 0 0
950743368 0.301627 0.80642 -0.014484 0.50182 0 0 0 0
953617501 0.324004 0.791164 0.029905 0.509204 0 0 0 0
956491634 0.345945 0.774846 0.020653 0.527224 0 0 0 0
959365767 0.365654 0.756552 0.037887 0.538533 0 0 0 0
962239900 0.379171 0.738098 0.057174 0.547099 0 0 0 0
965114033 0.39717 0.711954 0.078608 0.556252 0 0 0 0
967988166 0.41533 0.685006 0.098928 0.563908 0 0 0 0
970862299 0.429103 0.659853 0.126046 0.570473 0 0 0 0
973736432 0.449675 0.642007 0.152109 0.5782 0 0 0 0
976610565 0.467846 0.624007 0.175694 0.588658 0 0 0 0
979484698 0.486488 0.600695 0.204731 0.592549 0 0 0 0
982358831 0.495144 0.580483 0.229898 0.597726 0 0 0 0
985232964 0.505965 0.556981 0.258198 0.600453 0 0 0 0
988107097 0.515812 0.528086 0.288369 0.599835 0 0 0 0
990981230 0.507176 0.522945 0.277312 0.626853 0 0 0 0
993855363 0.52333 0.470252 0.349833 0.592534 0 0 0 0
996729496 0.52532 0.441813 0.375335 0.588493 0 0 0 0
999603629 0.527261 0.412446 0.405402 0.581288 0 0 0 0
1002477762 0.530149 0.386672 0.440519 0.572513 0 0 0 0
1005351895 0.532049 0.362283 0.474004 0.563082 0 0 0 0
1008226028 0.534266 0.336994 0.504219 0.555348 0 0 0 0
1011100161 0.531918 0.310347 0.538141 0.538889 0 0 0 0
1013974294 0.525661 0.284425 0.56945 0.522163 0 0 0 0
1016848427 0.516258 0.260216 0.596566 0.50806 0 0 0 0
1019722560 0.50617 0.232942 0.629981 0.480611 0 0 0 0
1022596693 0.492382 0.212935 0.65286 0.463281 0 0 0 0
1025470826 0.475398 0.188533 0.6786 0.439038 0 0 0 0
1028344959 0.461329 0.166231 0.705773 0.408301 0 0 0 0
1031219092 0.448545 0.149001 0.732304 0.383997 0 0 0 0
1034093225 0.435032 0.132145 0.757952 0.354082 0 0 0 0
1036967358 0.422964 0.114742 0.78174 0.325408 0 0 0 0
1039841491 0.40588 0.101822 0.804429 0.292539 0 0 0 0
1042715624 0.388054 0.085484 0.824806 0.257607 0 0 0 0
1045589757 0.370705 0.076732 0.839617 0.225766 0 0 0 0
1048463890 0.351715 0.066993 0.85438 0.189989 0 0 0 0
1051338023 0.330742 0.060445 0.864646 0.155768 0 0 0 0
1054212156 0.307797 0.053272 0.875463 0.116786 0 0 0 0
1057086289 0.292431 0.049387 0.882181 0.078781 0 0 0 0
1059960422 0.275816 0.046501 0.893108 0.04386 0 0 0 0
1062834555 0.262706 0.045688 0.900767 -0.002932 0 0 0 0
1065708688 0.248821 0.044866 0.907065 -0.038087 0 0 0 0
1068582821 0.233923 0.047389 0.910422 -0.080118 0 0 0 0
1071456954 0.219852 0.049705 0.91489 -0.117958 0 0 0 0
1074331087 0.208442 0.051115 0.911086 -0.154126 0 0 0 0
1077205220 0.194584 0.055822 0.904252 -0.195269 0 0 0 0
1080079353 0.182773 0.058743 0.898717 -0.229845 0 0 0 0
1082953486 0.173871 0.062639 0.887991 -0.272676 0 0 0 0
1085827619 0.160348 0.069549 0.875207 -0.306003 0 0 0 0
1088701752 0.157142 0.072402 0.865285 -0.3439 0 0 0 0
1091575885 0.150027 0.081632 0.855358 -0.38281 0 0 0 0
1094450018 0.143896 0.085692 0.842915 -0.420266 0 0 0 0
1097324151 0.139428 0.095047 0.829447 -0.451946 0 0 0 0
1100198284 0.137177 0.098511 0.812557 -0.48666 0 0 0 0
1103072417 0.132185 0.103352 0.792377 -0.516693 0 0 0 0
1105946550 0.129993 0.108236 0.770048 -0.550662 0 0 0 0
1108820683 0.124924 0.114457 0.748117 -0.580456 0 0 0 0
1111694816 0.124268 0.116735 0.720597 -0.610458 0 0 0 0
1114568949 0.12019 0.123607 0.694247 -0.635127 0 0 0 0
1117443082 0.121119 0.127453 0.674962 -0.663089 0 0 0 0
1120317215 0.119889 0.133774 0.647497 -0.689484 0 0 0 0
1123191348 0.11939 0.138472 0.619975 -0.713494 0 0 0 0
1126065481 0.121193 0.141873 0.598047 -0.739207 0 0 0 0
1128939614 0.120055 0.14553 0.567321 -0.759703 0 0 0 0
1131813747 0.122175 0.145809 0.534936 -0.780284 0 0 0 0
