# HZ S RI R 50
100000000 -0.770114 0.627168 0.004678 0.009875 0 0 0 0
102874133 -0.763346 0.646773 0.005042 0.008626 0 0 0 0
105748266 -0.757266 0.669818 0.00569 0.010267 0 0 0 0
108622399 -0.787612 0.654383 0.005387 0.011062 0 0 0 0
111496532 -0.727897 0.704171 0.00686 0.010373 0 0 0 0
114370665 -0.718451 0.720028 0.006729 0.011028 0 0 0 0
117244798 -0.70203 0.73144 0.007373 0.011216 0 0 0 0
120118931 -0.718243 0.725492 0.007326 0.011783 0 0 0 0
122993064 -0.669045 0.75261 0.008163 0.011572 0 0 0 0
125867197 -0.648748 0.762498 0.008722 0.011605 0 0 0 0
128741330 -0.62288 0.764837 0.009149 0.011626 0 0 0 0
131615463 -0.612523 0.785421 0.009662 0.011822 0 0 0 0
134489596 -0.553781 0.825752 0.010288 0.011875 0 0 0 0
137363729 -0.585387 0.824849 0.010889 0.011975 0 0 0 0
140237862 -0.569476 0.840882 0.011399 0.011999 0 0 0 0
143111995 -0.553501 0.854539 0.011939 0.011985 0 0 0 0
145986128 -0.537216 0.864795 0.012485 0.01196 0 0 0 0
148860261 -0.517273 0.872006 0.012972 0.011913 0 0 0 0
151734394 -0.49743 0.880522 0.013531 0.011883 0 0 0 0
154608527 -0.474857 0.883822 0.014021 0.011689 0 0 0 0
157482660 -0.453088 0.884693 0.01449 0.011345 0 0 0 0
160356793 -0.434024 0.901831 0.015036 0.011492 0 0 0 0
163230926 -0.415117 0.918113 0.015535 0.011406 0 0 0 0
166105059 -0.397502 0.932216 0.016118 0.011259 0 0 0 0
168979192 -0.378556 0.942631 0.016553 0.011096 0 0 0 0
171853325 -0.360032 0.952795 0.017015 0.011043 0 0 0 0
174727458 -0.339112 0.959384 0.017578 0.010973 0 0 0 0
177601591 -0.319094 0.964439 0.018015 0.010707 0 0 0 0
180475724 -0.296105 0.965305 0.018371 0.010509 0 0 0 0
183349857 -0.273245 0.965811 0.018739 0.010223 0 0 0 0
186223990 -0.249839 0.96434 0.019114 0.009995 0 0 0 0
189098123 -0.229036 0.971626 0.01954 0.00979 0 0 0 0
191972256 -0.205837 0.984848 0.020028 0.009566 0 0 0 0
194846389 -0.183269 0.99506 0.02056 0.009356 0 0 0 0
197720522 -0.161698 0.999973 0.020985 0.00917 0 0 0 0
200594655 -0.141247 1.004001 0.021373 0.009 0 0 0 0
203468788 -0.118723 1.006798 0.021853 0.00878 0 0 0 0
206342921 -0.09593 1.006735 0.022155 0.008461 0 0 0 0
209217054 -0.071477 1.004952 0.022609 0.008127 0 0 0 0
212091187 -0.05112 0.999246 0.022912 0.007855 0 0 0 0
214965320 -0.025204 0.99201 0.023216 0.007586 0 0 0 0
217839453 -0.00207 0.994282 0.023592 0.007146 0 0 0 0
220713586 0.022756 0.999954 0.024045 0.007051 0 0 0 0
223587719 0.046213 1.003348 0.024622 0.006847 0 0 0 0
226461852 0.071304 1.004716 0.025005 0.006631 0 0 0 0
229335985 0.093338 1.002349 0.0255 0.006381 0 0 0 0
232210118 0.117817 1.000903 0.025754 0.006069 0 0 0 0
235084251 0.14122 0.994709 0.026133 0.005754 0 0 0 0
237958384 0.165124 0.98807 0.02649 0.005488 0 0 0 0
240832517 0.188663 0.979074 0.026946 0.0051 0 0 0 0
243706650 0.212306 0.966127 0.027298 0.004861 0 0 0 0
246580783 0.236168 0.96136 0.027833 0.004585 0 0 0 0
249454916 0.262591 0.962058 0.028348 0.004161 0 0 0 0
252329049 0.286662 0.961233 0.028916 0.003948 0 0 0 0
255203182 0.309889 0.955075 0.029363 0.003559 0 0 0 0
258077315 0.333311 0.949589 0.029906 0.00333 0 0 0 0
260951448 0.356779 0.939721 0.03034 0.00285 0 0 0 0
263825581 0.378558 0.930284 0.03086 0.002567 0 0 0 0
266699714 0.401749 0.916095 0.031261 0.002227 0 0 0 0
269573847 0.424534 0.901539 0.031691 0.001807 0 0 0 0
272447980 0.44452 0.882886 0.032152 0.001346 0 0 0 0
275322113 0.466892 0.870976 0.03244 0.000966 0 0 0 0
278196246 0.492559 0.863753 0.03328 0.000542 0 0 0 0
281070379 0.518261 0.856771 0.033772 -1e-06 0 0 0 0
283944512 0.541556 0.847146 0.034498 -0.000495 0 0 0 0
286818645 0.56552 0.834689 0.035044 -0.00088 0 0 0 0
289692778 0.586292 0.820012 0.035618 -0.001311 0 0 0 0
292566911 0.608115 0.801036 0.03617 -0.002025 0 0 0 0
295441044 0.625612 0.782422 0.036706 -0.002572 0 0 0 0
298315177 0.643238 0.759777 0.037206 -0.003161 0 0 0 0
301189310 0.660034 0.736386 0.03757 -0.00392 0 0 0 0
304063443 0.676835 0.7137 0.038231 -0.004544 0 0 0 0
306937576 0.703588 0.69994 0.038921 -0.005326 0 0 0 0
309811709 0.730156 0.688255 0.039406 -0.006067 0 0 0 0
312685842 0.75043 0.670999 0.040137 -0.006908 0 0 0 0
315559975 0.769961 0.652433 0.040896 -0.007644 0 0 0 0
318434108 0.789748 0.630289 0.041138 -0.008556 0 0 0 0
321308241 0.803087 0.607565 0.04169 -0.009384 0 0 0 0
324182374 0.817467 0.585347 0.042223 -0.010221 0 0 0 0
327056507 0.828081 0.555654 0.042273 -0.011078 0 0 0 0
329930640 0.838941 0.528427 0.042911 -0.012353 0 0 0 0
332804773 0.852098 0.502402 0.0434 -0.013487 0 0 0 0
335678906 0.872952 0.480642 0.043924 -0.014263 0 0 0 0
338553039 0.892795 0.459468 0.044203 -0.015412 0 0 0 0
341427172 0.910381 0.433727 0.044596 -0.016808 0 0 0 0
344301305 0.923604 0.406391 0.04512 -0.018118 0 0 0 0
347175438 0.937256 0.383665 0.045467 -0.019467 0 0 0 0
350049571 0.943225 0.358737 0.045677 -0.020107 0 0 0 0
352923704 0.951457 0.327279 0.04572 -0.021798 0 0 0 0
355797837 0.954832 0.300297 0.04605 -0.023091 0 0 0 0
358671970 0.954669 0.267947 0.046172 -0.024274 0 0 0 0
361546103 0.958769 0.234897 0.045933 -0.025519 0 0 0 0
364420236 0.972314 0.20817 0.046227 -0.02693 0 0 0 0
367294369 0.985547 0.179885 0.046322 -0.028415 0 0 0 0
370168502 0.995718 0.151541 0.046589 -0.02967 0 0 0 0
373042635 1.003943 0.123521 0.04684 -0.031103 0 0 0 0
375916768 1.005675 0.094233 0.046562 -0.032623 0 0 0 0
378790901 1.007537 0.062288 0.046308 -0.034125 0 0 0 0
381665034 1.00702 0.03598 0.046142 -0.035364 0 0 0 0
384539167 1.000069 0.005059 0.045571 -0.036735 0 0 0 0
387413300 0.993402 -0.027362 0.044996 -0.03813 0 0 0 0
390287433 0.986311 -0.056051 0.044547 -0.039423 0 0 0 0
393161566 0.992096 -0.086371 0.044631 -0.040971 0 0 0 0
396035699 0.995334 -0.125988 0.044143 -0.042823 0 0 0 0
398909832 0.994153 -0.150365 0.043536 -0.044315 0 0 0 0
401783965 0.993613 -0.182135 0.043257 -0.046133 0 0 0 0
404658098 0.988221 -0.21351 0.042503 -0.047448 0 0 0 0
407532231 0.978308 -0.240586 0.042126 -0.048571 0 0 0 0
410406364 0.966391 -0.262339 0.045545 -0.048403 0 0 0 0
413280497 0.954514 -0.297803 0.04062 -0.05157 0 0 0 0
416154630 0.941796 -0.321893 0.039788 -0.053219 0 0 0 0
419028763 0.920176 -0.347715 0.038687 -0.054487 0 0 0 0
421902896 0.916461 -0.382427 0.037831 -0.055714 0 0 0 0
424777029 0.910399 -0.412887 0.037354 -0.057548 0 0 0 0
427651162 0.900829 -0.445461 0.036062 -0.059191 0 0 0 0
430525295 0.887464 -0.473553 0.034799 -0.060621 0 0 0 0
433399428 0.876928 -0.499556 0.034163 -0.061851 0 0 0 0
436273561 0.859011 -0.525321 0.033155 -0.063135 0 0 0 0
439147694 0.840017 -0.549585 0.031672 -0.064328 0 0 0 0
442021827 0.815711 -0.575436 0.030181 -0.065524 0 0 0 0
444895960 0.796804 -0.596448 0.031216 -0.065762 0 0 0 0
447770093 0.769001 -0.614866 0.029693 -0.066701 0 0 0 0
450644226 0.754586 -0.643421 0.028609 -0.068331 0 0 0 0
453518359 0.737327 -0.674325 0.027298 -0.069715 0 0 0 0
456392492 0.720021 -0.701361 0.025929 -0.070729 0 0 0 0
459266625 0.701927 -0.724123 0.024551 -0.072725 0 0 0 0
462140758 0.679318 -0.743868 0.023101 -0.073721 0 0 0 0
465014891 0.657308 -0.764457 0.021651 -0.074235 0 0 0 0
467889024 0.631624 -0.780879 0.020054 -0.075091 0 0 0 0
470763157 0.604159 -0.796602 0.018094 -0.076041 0 0 0 0
473637290 0.576323 -0.812192 0.016512 -0.076794 0 0 0 0
476511423 0.543196 -0.824902 0.014419 -0.077537 0 0 0 0
479385556 0.519568 -0.844871 0.012794 -0.078494 0 0 0 0
482259689 0.498602 -0.867106 0.011379 -0.079671 0 0 0 0
485133822 0.474856 -0.887004 0.009729 -0.080211 0 0 0 0
488007955 0.449432 -0.902786 0.007946 -0.081617 0 0 0 0
490882088 0.420521 -0.918498 0.00592 -0.082232 0 0 0 0
493756221 0.395588 -0.931145 0.004174 -0.082684 0 0 0 0
496630354 0.364493 -0.936365 0.002401 -0.083309 0 0 0 0
499504487 0.335527 -0.946112 0.000765 -0.083435 0 0 0 0
502378620 0.305951 -0.946659 -0.001159 -0.083303 0 0 0 0
505252753 0.275659 -0.948457 -0.003124 -0.08373 0 0 0 0
508126886 0.24502 -0.959771 -0.005107 -0.084128 0 0 0 0
511001019 0.218638 -0.97519 -0.006785 -0.084732 0 0 0 0
513875152 0.189337 -0.988646 -0.008832 -0.085467 0 0 0 0
516749285 0.162146 -0.998001 -0.010304 -0.085909 0 0 0 0
519623418 0.129949 -1.003037 -0.012445 -0.085639 0 0 0 0
522497551 0.102706 -1.005157 -0.014518 -0.086322 0 0 0 0
525371684 0.072059 -1.006819 -0.01613 -0.085751 0 0 0 0
528245817 0.046762 -1.002692 -0.017262 -0.085909 0 0 0 0
531119950 0.014677 -0.999188 -0.019648 -0.085649 0 0 0 0
533994083 -0.01478 -0.989001 -0.021213 -0.084792 0 0 0 0
536868216 -0.047022 -0.992169 -0.023461 -0.085109 0 0 0 0
539742349 -0.074506 -0.998853 -0.024934 -0.085064 0 0 0 0
542616482 -0.106402 -1.003273 -0.026475 -0.08584 0 0 0 0
545490615 -0.134694 -1.000247 -0.028116 -0.08493 0 0 0 0
548364748 -0.163187 -0.99839 -0.030145 -0.084801 0 0 0 0
551238881 -0.188667 -0.994432 -0.031761 -0.084473 0 0 0 0
554113014 -0.216517 -0.986982 -0.033808 -0.084322 0 0 0 0
556987147 -0.241318 -0.972843 -0.035171 -0.083676 0 0 0 0
559861280 -0.267868 -0.960904 -0.036892 -0.083141 0 0 0 0
562735413 -0.292939 -0.948195 -0.038313 -0.082477 0 0 0 0
565609546 -0.319707 -0.939322 -0.039777 -0.081986 0 0 0 0
568483679 -0.348966 -0.937536 -0.041282 -0.082148 0 0 0 0
571357812 -0.3828 -0.933045 -0.043761 -0.082173 0 0 0 0
574231945 -0.406767 -0.921799 -0.044881 -0.081432 0 0 0 0
577106078 -0.432219 -0.912882 -0.046475 -0.081232 0 0 0 0
579980211 -0.462468 -0.904743 -0.048598 -0.08126 0 0 0 0
582854344 -0.481869 -0.887689 -0.049965 -0.080587 0 0 0 0
585728477 -0.503314 -0.876464 -0.051052 -0.080486 0 0 0 0
588602610 -0.524387 -0.852855 -0.052378 -0.079499 0 0 0 0
591476743 -0.545121 -0.83043 -0.053494 -0.079101 0 0 0 0
594350876 -0.565263 -0.817205 -0.055586 -0.078629 0 0 0 0
597225009 -0.594334 -0.80886 -0.056983 -0.078467 0 0 0 0
600099142 -0.614536 -0.795739 -0.06129 -0.076708 0 0 0 0
602973275 -0.640419 -0.785276 -0.062703 -0.076723 0 0 0 0
605847408 -0.660894 -0.77245 -0.064271 -0.076146 0 0 0 0
608721541 -0.683372 -0.748693 -0.066397 -0.075576 0 0 0 0
611595674 -0.697754 -0.732678 -0.067937 -0.075316 0 0 0 0
614469807 -0.716017 -0.714107 -0.067214 -0.076182 0 0 0 0
617343940 -0.727212 -0.687051 -0.068945 -0.075325 0 0 0 0
620218073 -0.738098 -0.666939 -0.070698 -0.074742 0 0 0 0
623092206 -0.756232 -0.645028 -0.072701 -0.074487 0 0 0 0
625966339 -0.778266 -0.633096 -0.074007 -0.074689 0 0 0 0
628840472 -0.799924 -0.613573 -0.07654 -0.074205 0 0 0 0
631714605 -0.817404 -0.596982 -0.078635 -0.073863 0 0 0 0
634588738 -0.832322 -0.57797 -0.08067 -0.073366 0 0 0 0
637462871 -0.846281 -0.561784 -0.082631 -0.073332 0 0 0 0
640337004 -0.85726 -0.538301 -0.084522 -0.072484 0 0 0 0
643211137 -0.86763 -0.515893 -0.086204 -0.072172 0 0 0 0
646085270 -0.87505 -0.488681 -0.088423 -0.070997 0 0 0 0
648959403 -0.882231 -0.465171 -0.090137 -0.070064 0 0 0 0
651833536 -0.888565 -0.442632 -0.091784 -0.069767 0 0 0 0
654707669 -0.904912 -0.420894 -0.094357 -0.069175 0 0 0 0
657581802 -0.921567 -0.399643 -0.097275 -0.068026 0 0 0 0
660455935 -0.931409 -0.381639 -0.099727 -0.067545 0 0 0 0
663330068 -0.944335 -0.359595 -0.102769 -0.066344 0 0 0 0
666204201 -0.948103 -0.342347 -0.104647 -0.065885 0 0 0 0
669078334 -0.955807 -0.316643 -0.107098 -0.064643 0 0 0 0
671952467 -0.964958 -0.294778 -0.109914 -0.063367 0 0 0 0
674826600 -0.956904 -0.270443 -0.11138 -0.062318 0 0 0 0
677700733 -0.960458 -0.244263 -0.113899 -0.06051 0 0 0 0
680574866 -0.96095 -0.236658 -0.11623 -0.058827 0 0 0 0
683448999 -0.97255 -0.197857 -0.119585 -0.058026 0 0 0 0
686323132 -0.983094 -0.191376 -0.122898 -0.055962 0 0 0 0
689197265 -0.990654 -0.137921 -0.126735 -0.040039 0 0 0 0
692071398 -0.997162 -0.149028 -0.128388 -0.053284 0 0 0 0
694945531 -1.003246 -0.090301 -0.131228 -0.051255 0 0 0 0
697819664 -0.998978 -0.10549 -0.133926 -0.049842 0 0 0 0
700693797 -0.994707 -0.044355 -0.136804 -0.047199 0 0 0 0
703567930 -0.999264 -0.078726 -0.139002 -0.045009 0 0 0 0
706442063 -0.986744 -0.022999 -0.141266 -0.027123 0 0 0 0
709316196 -0.978521 0.009149 -0.143253 -0.040038 0 0 0 0
712190329 -0.987365 0.030605 -0.146568 -0.037512 0 0 0 0
715064462 -0.992146 0.054067 -0.149563 -0.033746 0 0 0 0
717938595 -0.995894 0.076752 -0.153294 -0.03087 0 0 0 0
720812728 -0.998607 0.097392 -0.155415 -0.027642 0 0 0 0
723686861 -0.994137 0.118519 -0.15799 -0.024365 0 0 0 0
726560994 -0.9909 0.137354 -0.160283 -0.021007 0 0 0 0
729435127 -0.982278 0.157541 -0.162541 -0.016945 0 0 0 0
732309260 -0.973203 0.177738 -0.164367 -0.013232 0 0 0 0
735183393 -0.964397 0.2003 -0.165578 -0.009404 0 0 0 0
738057526 -0.950174 0.216476 -0.167333 -0.005413 0 0 0 0
740931659 -0.953352 0.240565 -0.169215 -0.001863 0 0 0 0
743805792 -0.950536 0.265643 -0.171576 0.002501 0 0 0 0
746679925 -0.949378 0.285325 -0.173395 0.006675 0 0 0 0
749554058 -0.947925 0.308958 -0.175659 0.011403 0 0 0 0
752428191 -0.94219 0.332987 -0.176593 0.015209 0 0 0 0
755302324 -0.930664 0.349266 -0.178044 0.018737 0 0 0 0
758176457 -0.92205 0.365649 -0.179123 0.023848 0 0 0 0
761050590 -0.90928 0.384234 -0.179221 0.027755 0 0 0 0
763924723 -0.89273 0.397589 -0.179506 0.03229 0 0 0 0
766798856 -0.877295 0.416063 -0.179376 0.036083 0 0 0 0
769672989 -0.873356 0.437871 -0.18096 0.041032 0 0 0 0
772547122 -0.867658 0.463874 -0.182388 0.045678 0 0 0 0
775421255 -0.862759 0.480146 -0.182551 0.050364 0 0 0 0
778295388 -0.852843 0.501277 -0.183458 0.053318 0 0 0 0
781169521 -0.841644 0.522761 -0.182925 0.05907 0 0 0 0
784043654 -0.834736 0.536016 -0.183333 0.062963 0 0 0 0
786917787 -0.815436 0.550104 -0.182774 0.067606 0 0 0 0
789791920 -0.803879 0.56336 -0.182667 0.072197 0 0 0 0
792666053 -0.793745 0.559685 -0.18198 0.075984 0 0 0 0
795540186 -0.767827 0.589003 -0.18057 0.08024 0 0 0 0
798414319 -0.755436 0.61123 -0.181123 0.083716 0 0 0 0
801288452 -0.748833 0.622035 -0.182036 0.088281 0 0 0 0
804162585 -0.735614 0.646303 -0.181879 0.093252 0 0 0 0
807036718 -0.724446 0.66355 -0.181907 0.09707 0 0 0 0
809910851 -0.709128 0.676569 -0.181749 0.101311 0 0 0 0
812784984 -0.694694 0.694171 -0.181566 0.105878 0 0 0 0
815659117 -0.676949 0.703328 -0.180515 0.11031 0 0 0 0
818533250 -0.664305 0.71387 -0.180607 0.11331 0 0 0 0
821407383 -0.639015 0.723753 -0.179984 0.118416 0 0 0 0
824281516 -0.620231 0.728273 -0.178637 0.121247 0 0 0 0
827155649 -0.604911 0.745604 -0.178451 0.126369 0 0 0 0
830029782 -0.592415 0.763399 -0.178346 0.131104 0 0 0 0
832903915 -0.576431 0.778209 -0.178339 0.136429 0 0 0 0
835778048 -0.558701 0.794241 -0.178157 0.140658 0 0 0 0
838652181 -0.548563 0.803778 -0.17794 0.145934 0 0 0 0
841526314 -0.529432 0.817446 -0.176808 0.150329 0 0 0 0
844400447 -0.508143 0.823485 -0.176789 0.156197 0 0 0 0
847274580 -0.490799 0.833372 -0.176055 0.160393 0 0 0 0
850148713 -0.471021 0.833778 -0.175087 0.164624 0 0 0 0
853022846 -0.445913 0.838399 -0.174745 0.169693 0 0 0 0
855896979 -0.431902 0.847512 -0.174671 0.174825 0 0 0 0
858771112 -0.411113 0.861928 -0.173894 0.18225 0 0 0 0
861645245 -0.395105 0.872185 -0.174554 0.18699 0 0 0 0
864519378 -0.375758 0.884191 -0.172933 0.19445 0 0 0 0
867393511 -0.319514 0.901429 -0.172837 0.201227 0 0 0 0
870267644 -0.333726 0.897401 -0.17238 0.206722 0 0 0 0
873141777 -0.312296 0.898846 -0.170402 0.214259 0 0 0 0
876015910 -0.290012 0.906147 -0.170749 0.220437 0 0 0 0
878890043 -0.268081 0.905772 -0.168668 0.226454 0 0 0 0
881764176 -0.242931 0.902477 -0.16729 0.232973 0 0 0 0
884638309 -0.220488 0.906833 -0.166076 0.241395 0 0 0 0
887512442 -0.203573 0.916836 -0.165424 0.250348 0 0 0 0
890386575 -0.182428 0.927402 -0.163498 0.259405 0 0 0 0
893260708 -0.162985 0.928498 -0.16027 0.268222 0 0 0 0
896134841 -0.139107 0.92866 -0.159545 0.276611 0 0 0 0
899008974 -0.115919 0.931353 -0.156478 0.285918 0 0 0 0
901883107 -0.095889 0.927017 -0.154188 0.294638 0 0 0 0
904757240 -0.071584 0.923109 -0.148824 0.304536 0 0 0 0
907631373 -0.050202 0.918036 -0.145818 0.31321 0 0 0 0
910505506 -0.025434 0.90529 -0.139913 0.323114 0 0 0 0
913379639 -0.004658 0.903877 -0.136311 0.333015 0 0 0 0
916253772 0.019853 0.906961 -0.131215 0.34549 0 0 0 0
919127905 0.044068 0.910085 -0.125814 0.357757 0 0 0 0
922002038 0.065751 0.909414 -0.124892 0.368271 0 0 0 0
924876171 0.088627 0.905777 -0.11235 0.381984 0 0 0 0
927750304 0.114404 0.900264 -0.104033 0.394524 0 0 0 0
930624437 0.134191 0.891352 -0.096512 0.405066 0 0 0 0
933498570 0.157873 0.87831 -0.085469 0.416967 0 0 0 0
936372703 0.178683 0.863366 -0.075129 0.427563 0 0 0 0
939246836 0.200498 0.848128 -0.064079 0.43849 0 0 0 0
942120969 0.222237 0.835364 -0.051121 0.450343 0 0 0 0
944995102 0.246328 0.825431 -0.039132 0.46487 0 0 0 0
947869235 0.277437 0.820013 -0.024412 0.477914 0 0 0 0
950743368 0.35125 0.774295 -0.008541 0.49123 0 0 0 0
953617501 0.318529 0.797134 0.007451 0.502589 0 0 0 0
956491634 0.342601 0.782408 0.02447 0.515077 0 0 0 0
959365767 0.359946 0.765274 0.042523 0.52518 0 0 0 0
962239900 0.377234 0.745772 0.061168 0.535576 0 0 0 0
965114033 0.391976 0.720432 0.082045 0.542419 0 0 0 0
967988166 0.406577 0.696735 0.100235 0.550752 0 0 0 0
970862299 0.423973 0.670773 0.124954 0.5578 0 0 0 0
973736432 0.443535 0.652832 0.148454 0.564811 0 0 0 0
976610565 0.429727 0.664274 0.144934 0.584267 0 0 0 0
979484698 0.482201 0.611216 0.199842 0.579651 0 0 0 0
982358831 0.493324 0.587818 0.2253 0.58357 0 0 0 0
985232964 0.504671 0.564353 0.253163 0.586006 0 0 0 0
988107097 0.512955 0.537477 0.281102 0.58683 0 0 0 0
990981230 0.519911 0.508925 0.313749 0.5841 0 0 0 0
993855363 0.521872 0.481853 0.338956 0.582704 0 0 0 0
996729496 0.524712 0.447913 0.368915 0.5748 0 0 0 0
999603629 0.527993 0.418943 0.398361 0.568951 0 0 0 0
1002477762 0.531294 0.394962 0.430478 0.563142 0 0 0 0
1005351895 0.533569 0.368364 0.461303 0.554862 0 0 0 0
1008226028 0.536263 0.339753 0.491579 0.545375 0 0 0 0
1011100161 0.536536 0.312134 0.526983 0.5311 0 0 0 0
1013974294 0.528765 0.288162 0.556863 0.517944 0 0 0 0
1016848427 0.525436 0.259921 0.587176 0.50071 0 0 0 0
1019722560 0.512734 0.235993 0.61423 0.482449 0 0 0 0
1022596693 0.499094 0.21197 0.641413 0.460578 0 0 0 0
1025470826 0.4839 0.18731 0.66838 0.435963 0 0 0 0
1028344959 0.470289 0.163967 0.6941 0.408166 0 0 0 0
1031219092 0.459201 0.143775 0.720433 0.381447 0 0 0 0
1034093225 0.442866 0.123461 0.746587 0.356748 0 0 0 0
1036967358 0.427682 0.109911 0.77259 0.324591 0 0 0 0
1039841491 0.413217 0.093231 0.785169 0.309574 0 0 0 0
1042715624 0.394996 0.08217 0.811871 0.268176 0 0 0 0
1045589757 0.375819 0.066666 0.831541 0.226978 0 0 0 0
1048463890 0.355245 0.057177 0.8446 0.195431 0 0 0 0
1051338023 0.333989 0.051294 0.856862 0.162989 0 0 0 0
1054212156 0.318107 0.044438 0.872229 0.124775 0 0 0 0
1057086289 0.295742 0.036586 0.877243 0.087196 0 0 0 0
1059960422 0.278608 0.037529 0.888938 0.051717 0 0 0 0
1062834555 0.263803 0.031607 0.897467 0.009909 0 0 0 0
1065708688 0.248335 0.032307 0.903135 -0.030532 0 0 0 0
1068582821 0.237771 0.036165 0.908051 -0.066027 0 0 0 0
1071456954 0.221362 0.036247 0.905576 -0.105182 0 0 0 0
1074331087 0.207489 0.04029 0.907827 -0.146699 0 0 0 0
1077205220 0.194521 0.046044 0.90263 -0.185393 0 0 0 0
1080079353 0.181409 0.047552 0.897319 -0.224318 0 0 0 0
1082953486 0.169709 0.052559 0.886018 -0.265982 0 0 0 0
1085827619 0.159879 0.059221 0.871043 -0.302246 0 0 0 0
1088701752 0.152147 0.064703 0.864341 -0.338114 0 0 0 0
1091575885 0.144466 0.071747 0.857738 -0.376269 0 0 0 0
1094450018 0.136314 0.077935 0.843461 -0.412642 0 0 0 0
1097324151 0.133211 0.085985 0.829748 -0.444945 0 0 0 0
1100198284 0.128691 0.088845 0.808313 -0.483768 0 0 0 0
1103072417 0.123111 0.095178 0.792087 -0.512909 0 0 0 0
1105946550 0.117435 0.101877 0.772572 -0.543246 0 0 0 0
1108820683 0.11597 0.109253 0.747446 -0.579226 0 0 0 0
1111694816 0.112333 0.112357 0.724828 -0.599754 0 0 0 0
1114568949 0.109196 0.11847 0.692014 -0.630591 0 0 0 0
1117443082 0.106987 0.124556 0.673009 -0.660653 0 0 0 0
1120317215 0.106534 0.126144 0.648956 -0.687678 0 0 0 0
1123191348 0.109902 0.133216 0.614457 -0.712178 0 0 0 0
1126065481 0.108604 0.137579 0.591429 -0.734977 0 0 0 0
1128939614 0.109306 0.140424 0.561774 -0.759149 0 0 0 0
1131813747 0.108396 0.14836 0.534806 -0.775671 0 0 0 0
