!Agilent Technologies,E5071C,MY46107106,A.09.54
!Date: Mon Jan 01 02:01:51 2001
!Data & Calibration Information:
!Freq	S11:SOLT2(ON)	S21:SOLT2(ON)	S12:SOLT2(ON)	S22:SOLT2(ON)
# Hz S dB R 50
100000000	-3.566096e-003	1.400684e+002	-3.992072e+001	6.131431e+001	-3.991541e+001	6.129507e+001	-1.024749e-002	1.611637e+002
100480291	-3.011387e-003	1.398726e+002	-3.989159e+001	6.121505e+001	-3.987682e+001	6.103278e+001	-1.021535e-002	1.610705e+002
100960583	-2.050505e-003	1.396673e+002	-3.982055e+001	6.094344e+001	-3.984519e+001	6.103275e+001	-9.504718e-003	1.609857e+002
101440874	-3.668283e-003	1.394753e+002	-3.979163e+001	6.083488e+001	-3.979305e+001	6.091116e+001	-1.040771e-002	1.608921e+002
101921166	-4.247699e-003	1.392764e+002	-3.973478e+001	6.078177e+001	-3.973659e+001	6.076830e+001	-1.157092e-002	1.608021e+002
102401457	-4.949008e-003	1.390780e+002	-3.971420e+001	6.064892e+001	-3.970602e+001	6.054956e+001	-1.081215e-002	1.607066e+002
102881749	-4.261604e-003	1.388830e+002	-3.964445e+001	6.034909e+001	-3.966867e+001	6.044471e+001	-1.072479e-002	1.606248e+002
103362040	-5.272853e-003	1.386837e+002	-3.961738e+001	6.032818e+001	-3.961877e+001	6.024289e+001	-1.207259e-002	1.605297e+002
103842332	-6.743160e-003	1.384924e+002	-3.957112e+001	6.015762e+001	-3.957818e+001	6.006864e+001	-1.182211e-002	1.604396e+002
104322623	-6.173587e-003	1.382898e+002	-3.952257e+001	5.999591e+001	-3.952337e+001	6.003016e+001	-1.288984e-002	1.603450e+002
104802915	-7.479424e-003	1.380978e+002	-3.949109e+001	5.971255e+001	-3.949264e+001	5.985084e+001	-1.244163e-002	1.602556e+002
105283206	-8.079011e-003	1.378877e+002	-3.945610e+001	5.976559e+001	-3.944085e+001	5.972641e+001	-1.297199e-002	1.601671e+002
105763498	-8.850754e-003	1.376909e+002	-3.941113e+001	5.954128e+001	-3.941637e+001	5.951185e+001	-1.445059e-002	1.600799e+002
106243789	-9.942976e-003	1.374975e+002	-3.936015e+001	5.946815e+001	-3.936649e+001	5.939894e+001	-1.438004e-002	1.599946e+002
106724080	-9.365219e-003	1.373077e+002	-3.930704e+001	5.929269e+001	-3.932431e+001	5.935353e+001	-1.538560e-002	1.598997e+002
107204372	-9.484613e-003	1.371002e+002	-3.927437e+001	5.896642e+001	-3.928919e+001	5.912255e+001	-1.541923e-002	1.598111e+002
107684663	-1.035211e-002	1.369079e+002	-3.924398e+001	5.903677e+001	-3.923287e+001	5.894405e+001	-1.578605e-002	1.597178e+002
108164955	-1.173388e-002	1.367041e+002	-3.920311e+001	5.872708e+001	-3.919635e+001	5.889637e+001	-1.631068e-002	1.596286e+002
108645246	-1.096507e-002	1.365087e+002	-3.915858e+001	5.872380e+001	-3.916991e+001	5.870759e+001	-1.679241e-002	1.595310e+002
109125538	-1.178928e-002	1.363071e+002	-3.912190e+001	5.858603e+001	-3.909382e+001	5.852080e+001	-1.619156e-002	1.594499e+002
109605829	-1.255478e-002	1.361141e+002	-3.908711e+001	5.830455e+001	-3.906424e+001	5.839891e+001	-1.751133e-002	1.593512e+002
110086121	-1.312871e-002	1.359120e+002	-3.903167e+001	5.821256e+001	-3.903791e+001	5.824519e+001	-1.674911e-002	1.592684e+002
110566412	-1.440112e-002	1.357118e+002	-3.899760e+001	5.807785e+001	-3.898313e+001	5.817286e+001	-1.780205e-002	1.591741e+002
111046704	-1.543027e-002	1.355116e+002	-3.895672e+001	5.794928e+001	-3.897195e+001	5.801320e+001	-1.727706e-002	1.590831e+002
111526995	-1.513006e-002	1.353127e+002	-3.891153e+001	5.785446e+001	-3.891665e+001	5.793065e+001	-1.868657e-002	1.589913e+002
112007287	-1.501934e-002	1.351200e+002	-3.886484e+001	5.767170e+001	-3.886243e+001	5.781313e+001	-1.816241e-002	1.588993e+002
112487578	-1.584737e-002	1.349108e+002	-3.882132e+001	5.759359e+001	-3.883791e+001	5.757547e+001	-1.834326e-002	1.588155e+002
112967869	-1.579117e-002	1.347137e+002	-3.878441e+001	5.739289e+001	-3.878282e+001	5.734985e+001	-1.846954e-002	1.587177e+002
113448161	-1.600203e-002	1.345179e+002	-3.874846e+001	5.726854e+001	-3.875329e+001	5.735776e+001	-1.840207e-002	1.586246e+002
113928452	-1.630228e-002	1.343091e+002	-3.870579e+001	5.723331e+001	-3.870704e+001	5.714690e+001	-1.794805e-002	1.585426e+002
114408744	-1.694463e-002	1.341142e+002	-3.866286e+001	5.684738e+001	-3.865991e+001	5.703253e+001	-1.916364e-002	1.584473e+002
114889035	-1.718088e-002	1.339151e+002	-3.861948e+001	5.684010e+001	-3.861356e+001	5.668303e+001	-1.942892e-002	1.583575e+002
115369327	-1.693758e-002	1.337157e+002	-3.858989e+001	5.682291e+001	-3.859575e+001	5.675220e+001	-1.963141e-002	1.582649e+002
115849618	-1.836590e-002	1.335120e+002	-3.855077e+001	5.645075e+001	-3.853729e+001	5.654583e+001	-1.909983e-002	1.581716e+002
116329910	-1.799443e-002	1.333124e+002	-3.849016e+001	5.632631e+001	-3.849272e+001	5.636756e+001	-1.909927e-002	1.580858e+002
116810201	-1.916138e-002	1.331136e+002	-3.846554e+001	5.618031e+001	-3.847957e+001	5.626832e+001	-2.013084e-002	1.579923e+002
117290493	-1.849919e-002	1.329218e+002	-3.840972e+001	5.615330e+001	-3.842125e+001	5.608473e+001	-2.041902e-002	1.579022e+002
117770784	-1.924325e-002	1.327169e+002	-3.836239e+001	5.595087e+001	-3.836974e+001	5.584876e+001	-2.054038e-002	1.578083e+002
118251075	-1.984901e-002	1.325166e+002	-3.835532e+001	5.572068e+001	-3.834608e+001	5.579899e+001	-1.963944e-002	1.577141e+002
118731367	-1.985015e-002	1.323136e+002	-3.830652e+001	5.562826e+001	-3.831855e+001	5.563798e+001	-2.094012e-002	1.576258e+002
119211658	-2.093303e-002	1.321194e+002	-3.826636e+001	5.541386e+001	-3.828503e+001	5.548944e+001	-2.026342e-002	1.575347e+002
119691950	-2.048923e-002	1.319118e+002	-3.823170e+001	5.534902e+001	-3.824156e+001	5.538878e+001	-2.056183e-002	1.574409e+002
120172241	-2.105945e-002	1.317071e+002	-3.818051e+001	5.518699e+001	-3.819811e+001	5.517577e+001	-2.028198e-002	1.573485e+002
120652533	-2.186733e-002	1.315067e+002	-3.816427e+001	5.505607e+001	-3.816929e+001	5.500290e+001	-2.026525e-002	1.572628e+002
121132824	-2.321976e-002	1.313119e+002	-3.813570e+001	5.477126e+001	-3.814496e+001	5.489149e+001	-2.027923e-002	1.571756e+002
121613116	-2.348618e-002	1.311098e+002	-3.809029e+001	5.470000e+001	-3.808402e+001	5.467375e+001	-2.143430e-002	1.570778e+002
122093407	-2.379928e-002	1.309123e+002	-3.805410e+001	5.448658e+001	-3.805520e+001	5.462061e+001	-2.071704e-002	1.569918e+002
122573699	-2.317760e-002	1.307105e+002	-3.801317e+001	5.441106e+001	-3.801755e+001	5.450736e+001	-2.026260e-002	1.569056e+002
123053990	-2.431298e-002	1.305035e+002	-3.797122e+001	5.427693e+001	-3.797688e+001	5.422920e+001	-2.123037e-002	1.568079e+002
123534282	-2.398153e-002	1.303127e+002	-3.795302e+001	5.413846e+001	-3.793773e+001	5.409530e+001	-2.086295e-002	1.567194e+002
124014573	-2.362073e-002	1.301088e+002	-3.790637e+001	5.395448e+001	-3.791276e+001	5.391099e+001	-2.213155e-002	1.566252e+002
124494864	-2.359550e-002	1.299106e+002	-3.785770e+001	5.375687e+001	-3.788358e+001	5.383808e+001	-2.140960e-002	1.565343e+002
124975156	-2.537757e-002	1.297126e+002	-3.782384e+001	5.370906e+001	-3.783627e+001	5.374719e+001	-2.102178e-002	1.564425e+002
125455447	-2.395722e-002	1.295085e+002	-3.778503e+001	5.360947e+001	-3.779356e+001	5.349170e+001	-2.100979e-002	1.563575e+002
125935739	-2.499359e-002	1.293114e+002	-3.774941e+001	5.341130e+001	-3.775387e+001	5.349051e+001	-1.973169e-002	1.562671e+002
126416030	-2.423891e-002	1.291071e+002	-3.771366e+001	5.325692e+001	-3.774055e+001	5.336123e+001	-2.110759e-002	1.561654e+002
126896322	-2.554692e-002	1.289065e+002	-3.768466e+001	5.309642e+001	-3.767977e+001	5.319302e+001	-2.107014e-002	1.560820e+002
127376613	-2.525068e-002	1.287039e+002	-3.764586e+001	5.295646e+001	-3.765148e+001	5.290918e+001	-2.079223e-002	1.559864e+002
127856905	-2.483527e-002	1.285066e+002	-3.760520e+001	5.283044e+001	-3.761879e+001	5.280179e+001	-2.099283e-002	1.558897e+002
128337196	-2.519957e-002	1.282991e+002	-3.756208e+001	5.265752e+001	-3.759010e+001	5.268706e+001	-1.983006e-002	1.558013e+002
128817488	-2.554361e-002	1.281027e+002	-3.755216e+001	5.256471e+001	-3.755289e+001	5.249340e+001	-2.097132e-002	1.557095e+002
129297779	-2.516295e-002	1.279020e+002	-3.750330e+001	5.225086e+001	-3.750681e+001	5.243161e+001	-2.013827e-002	1.556183e+002
129778071	-2.604944e-002	1.276947e+002	-3.748585e+001	5.217119e+001	-3.747745e+001	5.232867e+001	-1.973803e-002	1.555251e+002
130258362	-2.528725e-002	1.274943e+002	-3.741774e+001	5.207690e+001	-3.743926e+001	5.216811e+001	-1.991233e-002	1.554332e+002
130738653	-2.528538e-002	1.272914e+002	-3.739518e+001	5.188424e+001	-3.741040e+001	5.199320e+001	-2.116058e-002	1.553437e+002
131218945	-2.543198e-002	1.270901e+002	-3.735720e+001	5.170110e+001	-3.738151e+001	5.171226e+001	-2.129888e-002	1.552519e+002
131699236	-2.630317e-002	1.268887e+002	-3.732044e+001	5.162915e+001	-3.733224e+001	5.158435e+001	-2.055947e-002	1.551663e+002
132179528	-2.503655e-002	1.266807e+002	-3.727930e+001	5.158930e+001	-3.731813e+001	5.151612e+001	-2.011112e-002	1.550745e+002
132659819	-2.590833e-002	1.264825e+002	-3.725897e+001	5.130430e+001	-3.727156e+001	5.136375e+001	-1.989169e-002	1.549830e+002
133140111	-2.623242e-002	1.262815e+002	-3.722061e+001	5.111572e+001	-3.724051e+001	5.136544e+001	-2.043129e-002	1.548926e+002
133620402	-2.580860e-002	1.260710e+002	-3.719542e+001	5.095268e+001	-3.720177e+001	5.102063e+001	-2.098180e-002	1.547998e+002
134100694	-2.631395e-002	1.258680e+002	-3.714768e+001	5.090960e+001	-3.715036e+001	5.083592e+001	-2.038681e-002	1.547105e+002
134580985	-2.564378e-002	1.256725e+002	-3.712147e+001	5.074935e+001	-3.712795e+001	5.061733e+001	-2.099669e-002	1.546212e+002
135061277	-2.525172e-002	1.254724e+002	-3.710364e+001	5.063906e+001	-3.709740e+001	5.065253e+001	-2.042917e-002	1.545240e+002
135541568	-2.753924e-002	1.252624e+002	-3.706772e+001	5.032990e+001	-3.703283e+001	5.048980e+001	-2.133500e-002	1.544361e+002
136021860	-2.704840e-002	1.250610e+002	-3.702164e+001	5.034202e+001	-3.702130e+001	5.039608e+001	-2.060983e-002	1.543512e+002
136502151	-2.493431e-002	1.248477e+002	-3.698037e+001	5.010085e+001	-3.699341e+001	5.010741e+001	-1.983891e-002	1.542497e+002
137062184	-2.728527e-002	1.246117e+002	-3.694824e+001	4.986861e+001	-3.694496e+001	5.009797e+001	-2.111768e-002	1.541518e+002
137720481	-2.590576e-002	1.243407e+002	-3.689183e+001	4.983089e+001	-3.690897e+001	4.981570e+001	-2.039548e-002	1.540216e+002
138378779	-2.718667e-002	1.240613e+002	-3.685313e+001	4.958857e+001	-3.685443e+001	4.965394e+001	-2.068778e-002	1.539026e+002
139037077	-2.649495e-002	1.237774e+002	-3.682154e+001	4.938091e+001	-3.683957e+001	4.940500e+001	-2.094428e-002	1.537767e+002
139695375	-2.732119e-002	1.234938e+002	-3.675382e+001	4.921260e+001	-3.676231e+001	4.921797e+001	-2.036339e-002	1.536488e+002
140353673	-2.628226e-002	1.232112e+002	-3.671818e+001	4.882826e+001	-3.673212e+001	4.901871e+001	-1.980938e-002	1.535303e+002
141011971	-2.759493e-002	1.229339e+002	-3.667414e+001	4.871307e+001	-3.667819e+001	4.887315e+001	-2.005346e-002	1.534026e+002
141670269	-2.712308e-002	1.226600e+002	-3.662081e+001	4.845168e+001	-3.661955e+001	4.865699e+001	-2.041578e-002	1.532742e+002
142328567	-2.740614e-002	1.223783e+002	-3.657739e+001	4.828803e+001	-3.658708e+001	4.843220e+001	-2.030929e-002	1.531524e+002
142986865	-2.780699e-002	1.220905e+002	-3.653169e+001	4.812051e+001	-3.655196e+001	4.832617e+001	-1.912878e-002	1.530363e+002
143645163	-2.770279e-002	1.218085e+002	-3.648835e+001	4.797562e+001	-3.649688e+001	4.806477e+001	-2.080623e-002	1.529073e+002
144303461	-2.843760e-002	1.215317e+002	-3.644378e+001	4.781371e+001	-3.642887e+001	4.773118e+001	-2.066032e-002	1.527857e+002
144961759	-2.781853e-002	1.212514e+002	-3.639380e+001	4.753561e+001	-3.640503e+001	4.755216e+001	-2.025266e-002	1.526611e+002
145620057	-2.880697e-002	1.209750e+002	-3.635386e+001	4.739282e+001	-3.636134e+001	4.755794e+001	-2.070597e-002	1.525395e+002
146278355	-2.879051e-002	1.206902e+002	-3.631159e+001	4.718923e+001	-3.632333e+001	4.728438e+001	-2.028814e-002	1.524112e+002
146936653	-2.900240e-002	1.204008e+002	-3.626057e+001	4.701606e+001	-3.626522e+001	4.704389e+001	-2.038090e-002	1.522875e+002
147594951	-2.993606e-002	1.201258e+002	-3.623457e+001	4.686113e+001	-3.623012e+001	4.690642e+001	-2.023763e-002	1.521617e+002
148253249	-3.004491e-002	1.198363e+002	-3.618535e+001	4.658518e+001	-3.619397e+001	4.670461e+001	-1.981749e-002	1.520411e+002
148911547	-2.954275e-002	1.195630e+002	-3.613460e+001	4.637156e+001	-3.613877e+001	4.657098e+001	-2.031581e-002	1.519153e+002
149569845	-3.088476e-002	1.192738e+002	-3.610658e+001	4.615711e+001	-3.610124e+001	4.624526e+001	-1.990352e-002	1.517904e+002
150228143	-3.032442e-002	1.189900e+002	-3.605558e+001	4.604286e+001	-3.606153e+001	4.614787e+001	-2.010069e-002	1.516635e+002
150886441	-3.225563e-002	1.187074e+002	-3.601530e+001	4.582302e+001	-3.602121e+001	4.597811e+001	-2.084877e-002	1.515385e+002
151544739	-3.163519e-002	1.184217e+002	-3.596722e+001	4.574429e+001	-3.598262e+001	4.576798e+001	-2.080622e-002	1.514183e+002
152203037	-3.276523e-002	1.181411e+002	-3.592590e+001	4.550829e+001	-3.593412e+001	4.550373e+001	-2.080558e-002	1.512921e+002
152861335	-3.298283e-002	1.178600e+002	-3.588234e+001	4.538058e+001	-3.589190e+001	4.543558e+001	-2.082973e-002	1.511663e+002
153519633	-3.416007e-002	1.175767e+002	-3.584274e+001	4.514965e+001	-3.584487e+001	4.519513e+001	-2.008359e-002	1.510461e+002
154177931	-3.429206e-002	1.172905e+002	-3.579499e+001	4.496539e+001	-3.579790e+001	4.504602e+001	-2.102256e-002	1.509266e+002
154836229	-3.517791e-002	1.170033e+002	-3.574882e+001	4.485171e+001	-3.575131e+001	4.489402e+001	-2.121480e-002	1.507980e+002
155494527	-3.612602e-002	1.167293e+002	-3.571055e+001	4.456246e+001	-3.569834e+001	4.472422e+001	-2.149025e-002	1.506713e+002
156152824	-3.610082e-002	1.164330e+002	-3.565244e+001	4.446398e+001	-3.567055e+001	4.459168e+001	-2.169417e-002	1.505478e+002
156811122	-3.671093e-002	1.161530e+002	-3.562239e+001	4.434434e+001	-3.563012e+001	4.439682e+001	-2.142147e-002	1.504230e+002
157469420	-3.771433e-002	1.158653e+002	-3.556470e+001	4.417128e+001	-3.557330e+001	4.429652e+001	-2.201787e-002	1.503046e+002
158127718	-3.715681e-002	1.155833e+002	-3.551586e+001	4.403419e+001	-3.552518e+001	4.407575e+001	-2.249514e-002	1.501815e+002
158786016	-3.864681e-002	1.153048e+002	-3.547282e+001	4.376807e+001	-3.547411e+001	4.385434e+001	-2.343508e-002	1.500526e+002
159444314	-3.806732e-002	1.150159e+002	-3.540264e+001	4.359125e+001	-3.540918e+001	4.373358e+001	-2.294354e-002	1.499351e+002
160102612	-3.903195e-002	1.147403e+002	-3.535764e+001	4.329882e+001	-3.537370e+001	4.348439e+001	-2.317306e-002	1.498068e+002
160760910	-3.816952e-002	1.144484e+002	-3.531212e+001	4.311274e+001	-3.530953e+001	4.314544e+001	-2.233377e-002	1.496888e+002
161419208	-4.031337e-002	1.141646e+002	-3.526154e+001	4.282428e+001	-3.526586e+001	4.298328e+001	-2.278566e-002	1.495580e+002
162077506	-3.946435e-002	1.138790e+002	-3.522877e+001	4.267425e+001	-3.523593e+001	4.279147e+001	-2.371937e-002	1.494412e+002
162735804	-4.029240e-002	1.135981e+002	-3.517155e+001	4.243983e+001	-3.518566e+001	4.253432e+001	-2.406142e-002	1.493172e+002
163394102	-3.993165e-002	1.133114e+002	-3.511683e+001	4.223525e+001	-3.512321e+001	4.232023e+001	-2.303543e-002	1.491916e+002
164052400	-3.930889e-002	1.130244e+002	-3.507644e+001	4.198777e+001	-3.508392e+001	4.207067e+001	-2.390683e-002	1.490715e+002
164710698	-4.093443e-002	1.127406e+002	-3.502847e+001	4.174072e+001	-3.503331e+001	4.180771e+001	-2.393909e-002	1.489485e+002
165368996	-4.025032e-002	1.124442e+002	-3.498980e+001	4.144695e+001	-3.498162e+001	4.149638e+001	-2.314722e-002	1.488201e+002
166027294	-3.999960e-002	1.121657e+002	-3.495049e+001	4.121131e+001	-3.495475e+001	4.122234e+001	-2.370232e-002	1.486963e+002
166685592	-4.005062e-002	1.118779e+002	-3.490803e+001	4.092221e+001	-3.491131e+001	4.111620e+001	-2.404058e-002	1.485750e+002
167343890	-4.090472e-002	1.115862e+002	-3.487094e+001	4.071238e+001	-3.488757e+001	4.077256e+001	-2.367028e-002	1.484524e+002
168002188	-4.049311e-002	1.112952e+002	-3.483958e+001	4.049688e+001	-3.484217e+001	4.058761e+001	-2.511576e-002	1.483280e+002
168660486	-4.229752e-002	1.110088e+002	-3.480836e+001	4.022836e+001	-3.479942e+001	4.028777e+001	-2.430369e-002	1.482004e+002
169318784	-4.124090e-002	1.107198e+002	-3.476460e+001	4.003410e+001	-3.475417e+001	4.014493e+001	-2.413228e-002	1.480766e+002
169977082	-4.115325e-002	1.104293e+002	-3.473325e+001	3.970918e+001	-3.472783e+001	3.988649e+001	-2.368659e-002	1.479515e+002
170635380	-4.178881e-002	1.101344e+002	-3.469142e+001	3.956599e+001	-3.467929e+001	3.968783e+001	-2.460875e-002	1.478302e+002
171293678	-4.225483e-002	1.098449e+002	-3.464257e+001	3.936263e+001	-3.464376e+001	3.947984e+001	-2.414770e-002	1.476992e+002
171951976	-4.238084e-002	1.095620e+002	-3.461001e+001	3.921489e+001	-3.461541e+001	3.927644e+001	-2.497871e-002	1.475865e+002
172610274	-4.278361e-002	1.092673e+002	-3.457537e+001	3.895985e+001	-3.455726e+001	3.904873e+001	-2.417333e-002	1.474605e+002
173268572	-4.334919e-002	1.089717e+002	-3.452129e+001	3.870307e+001	-3.452535e+001	3.879678e+001	-2.463316e-002	1.473334e+002
173926869	-4.224530e-002	1.086851e+002	-3.449235e+001	3.847618e+001	-3.449334e+001	3.853860e+001	-2.489237e-002	1.472145e+002
174585167	-4.281650e-002	1.083962e+002	-3.444955e+001	3.830642e+001	-3.445934e+001	3.839767e+001	-2.515423e-002	1.470807e+002
175243465	-4.308580e-002	1.081007e+002	-3.442056e+001	3.809530e+001	-3.442342e+001	3.816983e+001	-2.464643e-002	1.469608e+002
175901763	-4.370474e-002	1.078025e+002	-3.437682e+001	3.784041e+001	-3.438283e+001	3.796249e+001	-2.608971e-002	1.468363e+002
176560061	-4.423347e-002	1.075133e+002	-3.434369e+001	3.769921e+001	-3.435192e+001	3.775376e+001	-2.646986e-002	1.467109e+002
177218359	-4.469300e-002	1.072238e+002	-3.430431e+001	3.748153e+001	-3.429343e+001	3.750825e+001	-2.590435e-002	1.465917e+002
177876657	-4.338344e-002	1.069323e+002	-3.426652e+001	3.724166e+001	-3.426377e+001	3.731185e+001	-2.530087e-002	1.464665e+002
178534955	-4.528134e-002	1.066355e+002	-3.423565e+001	3.701286e+001	-3.422719e+001	3.711775e+001	-2.709186e-002	1.463381e+002
179193253	-4.457339e-002	1.063400e+002	-3.419033e+001	3.675537e+001	-3.419413e+001	3.684494e+001	-2.620900e-002	1.462187e+002
179851551	-4.563477e-002	1.060540e+002	-3.414778e+001	3.659328e+001	-3.415750e+001	3.663104e+001	-2.657127e-002	1.460924e+002
180509849	-4.504611e-002	1.057500e+002	-3.411386e+001	3.643019e+001	-3.411042e+001	3.647381e+001	-2.582020e-002	1.459670e+002
181168147	-4.471389e-002	1.054593e+002	-3.407305e+001	3.619973e+001	-3.408002e+001	3.626911e+001	-2.721770e-002	1.458407e+002
181826445	-4.628805e-002	1.051661e+002	-3.404649e+001	3.593563e+001	-3.404162e+001	3.606071e+001	-2.681472e-002	1.457222e+002
182484743	-4.565996e-002	1.048754e+002	-3.400532e+001	3.577099e+001	-3.400280e+001	3.576565e+001	-2.726568e-002	1.455987e+002
183143041	-4.628893e-002	1.045808e+002	-3.396101e+001	3.556757e+001	-3.396544e+001	3.558636e+001	-2.711293e-002	1.454733e+002
183801339	-4.719361e-002	1.042781e+002	-3.393091e+001	3.530939e+001	-3.392997e+001	3.537625e+001	-2.798720e-002	1.453515e+002
184459637	-4.803223e-002	1.039931e+002	-3.389336e+001	3.510208e+001	-3.388863e+001	3.518109e+001	-2.708425e-002	1.452265e+002
185117935	-4.775159e-002	1.036899e+002	-3.384985e+001	3.493567e+001	-3.385128e+001	3.498637e+001	-2.777008e-002	1.450960e+002
185776233	-4.814680e-002	1.033971e+002	-3.381433e+001	3.470525e+001	-3.381653e+001	3.473482e+001	-2.783448e-002	1.449758e+002
186434531	-4.752454e-002	1.030942e+002	-3.377572e+001	3.441917e+001	-3.378437e+001	3.457513e+001	-2.763225e-002	1.448503e+002
187092829	-4.798762e-002	1.027975e+002	-3.373494e+001	3.424187e+001	-3.374096e+001	3.435579e+001	-2.739932e-002	1.447251e+002
187860422	-4.864809e-002	1.024555e+002	-3.369146e+001	3.402875e+001	-3.369541e+001	3.406576e+001	-2.857099e-002	1.445847e+002
188762699	-4.908746e-002	1.020503e+002	-3.364805e+001	3.376780e+001	-3.363679e+001	3.372412e+001	-2.892101e-002	1.444120e+002
189664977	-4.949463e-002	1.016428e+002	-3.359343e+001	3.340235e+001	-3.359666e+001	3.347871e+001	-2.838979e-002	1.442385e+002
